Command: /home/xingchangchang/ai_evaluation/claude_code/axi4_vip/ai_cc_glm5_axi4_vip/./simv_axi4_data_first_test +UVM_TESTNAME=axi4_data_first_test +UVM_VERBOSITY=UVM_MEDIUM -l sim_data_first_test.log +FSDB_FILE=data_first_test +ntb_random_seed=1
Chronologic VCS simulator copyright 1991-2018
Contains Synopsys proprietary information.
Compiler version O-2018.09-SP2_Full64; Runtime version O-2018.09-SP2_Full64;  Apr  9 15:38 2026
UVM_INFO /home/xingchangchang/ProgramFiles/vcs_verdi2018/synopsys/vcs_201809/vcs/O-2018.09-SP2/etc/uvm-1.2/base/uvm_root.svh(402) @ 0: reporter [UVM/RELNOTES] 
----------------------------------------------------------------
UVM-1.2.Synopsys
(C) 2007-2014 Mentor Graphics Corporation
(C) 2007-2014 Cadence Design Systems, Inc.
(C) 2006-2014 Synopsys, Inc.
(C) 2011-2013 Cypress Semiconductor Corp.
(C) 2013-2014 NVIDIA Corporation
----------------------------------------------------------------

  ***********       IMPORTANT RELEASE NOTES         ************

  You are using a version of the UVM library that has been compiled
  with `UVM_NO_DEPRECATED undefined.
  See http://www.eda.org/svdb/view.php?id=3313 for more details.

  You are using a version of the UVM library that has been compiled
  with `UVM_OBJECT_DO_NOT_NEED_CONSTRUCTOR undefined.
  See http://www.eda.org/svdb/view.php?id=3770 for more details.

      (Specify +UVM_NO_RELNOTES to turn off this notice)

*Verdi* Loading libsscore_vcs201809.so
FSDB Dumper for VCS, Release Verdi_O-2018.09-SP2, Linux x86_64/64bit, 02/21/2019
(C) 1996 - 2019 by Synopsys, Inc.
*Verdi* FSDB WARNING: The FSDB file already exists. Overwriting the FSDB file may crash the programs that are using this file.
*Verdi* : Create FSDB file 'data_first_test.fsdb'
*Verdi* : Begin traversing the scope (axi4_tb_top), layer (0).
*Verdi* : End of traversing.
UVM_INFO @ 0: reporter [RNTST] Running test axi4_data_first_test...
UVM_INFO sv/test_lib.sv(757) @ 0: uvm_test_top [axi4_data_first_test] Data-before-addr mode ENABLED with OSD=4
UVM_INFO sv/axi4_env.sv(58) @ 0: uvm_test_top.m_env [axi4_env] AXI4 VIP Topology:
UVM_INFO /home/xingchangchang/ProgramFiles/vcs_verdi2018/synopsys/vcs_201809/vcs/O-2018.09-SP2/etc/uvm-1.2/base/uvm_root.svh(589) @ 0: reporter [UVMTOP] UVM testbench topology:
--------------------------------------------------------------
Name                       Type                    Size  Value
--------------------------------------------------------------
uvm_test_top               axi4_data_first_test    -     @342 
  m_env                    axi4_env                -     @366 
    m_ap                   uvm_analysis_port       -     @387 
    m_master_agent         axi4_master_agent       -     @378 
      m_ap                 uvm_analysis_port       -     @584 
      m_driver             axi4_master_driver      -     @418 
        rsp_port           uvm_analysis_port       -     @437 
        seq_item_port      uvm_seq_item_pull_port  -     @427 
      m_monitor            axi4_monitor            -     @399 
        m_ap               uvm_analysis_port       -     @408 
      m_sequencer          axi4_sequencer          -     @447 
        rsp_export         uvm_analysis_export     -     @456 
        seq_item_export    uvm_seq_item_pull_imp   -     @574 
        arbitration_queue  array                   0     -    
        lock_queue         array                   0     -    
        num_last_reqs      integral                32    'd1  
        num_last_rsps      integral                32    'd1  
--------------------------------------------------------------

UVM_INFO sv/test_lib.sv(766) @ 0: uvm_test_top [axi4_data_first_test] ===========================================
UVM_INFO sv/test_lib.sv(767) @ 0: uvm_test_top [axi4_data_first_test]        AXI4 DATA FIRST TEST
UVM_INFO sv/test_lib.sv(768) @ 0: uvm_test_top [axi4_data_first_test] ===========================================
UVM_INFO sv/test_lib.sv(769) @ 0: uvm_test_top [axi4_data_first_test] Test Configuration:
UVM_INFO sv/test_lib.sv(770) @ 0: uvm_test_top [axi4_data_first_test]   - Burst Length: random [1:16] beats
UVM_INFO sv/test_lib.sv(771) @ 0: uvm_test_top [axi4_data_first_test]   - Transfer Size: 4 bytes (SIZE=2)
UVM_INFO sv/test_lib.sv(772) @ 0: uvm_test_top [axi4_data_first_test]   - Burst Type: INCR
UVM_INFO sv/test_lib.sv(773) @ 0: uvm_test_top [axi4_data_first_test]   - Start Address: 0x1000_0000 (aligned)
UVM_INFO sv/test_lib.sv(774) @ 0: uvm_test_top [axi4_data_first_test]   - Number of Transactions: 500
UVM_INFO sv/test_lib.sv(775) @ 0: uvm_test_top [axi4_data_first_test]   - Data Before Addr: ENABLED
UVM_INFO sv/test_lib.sv(776) @ 0: uvm_test_top [axi4_data_first_test]   - Data Before Addr OSD: 4
UVM_INFO sv/test_lib.sv(777) @ 0: uvm_test_top [axi4_data_first_test] ===========================================
UVM_INFO sv/seq_lib.sv(3347) @ 0: uvm_test_top.m_env.m_master_agent.m_sequencer@@seq [axi4_data_first_sequence] ===========================================
UVM_INFO sv/seq_lib.sv(3348) @ 0: uvm_test_top.m_env.m_master_agent.m_sequencer@@seq [axi4_data_first_sequence]        DATA FIRST TEST SEQUENCE
UVM_INFO sv/seq_lib.sv(3349) @ 0: uvm_test_top.m_env.m_master_agent.m_sequencer@@seq [axi4_data_first_sequence] ===========================================
UVM_INFO sv/seq_lib.sv(3350) @ 0: uvm_test_top.m_env.m_master_agent.m_sequencer@@seq [axi4_data_first_sequence] Test Configuration:
UVM_INFO sv/seq_lib.sv(3351) @ 0: uvm_test_top.m_env.m_master_agent.m_sequencer@@seq [axi4_data_first_sequence]   - Burst Length: random [1:16] beats
UVM_INFO sv/seq_lib.sv(3353) @ 0: uvm_test_top.m_env.m_master_agent.m_sequencer@@seq [axi4_data_first_sequence]   - Transfer Size: 4 bytes (SIZE=2)
UVM_INFO sv/seq_lib.sv(3355) @ 0: uvm_test_top.m_env.m_master_agent.m_sequencer@@seq [axi4_data_first_sequence]   - Burst Type: INCR
UVM_INFO sv/seq_lib.sv(3357) @ 0: uvm_test_top.m_env.m_master_agent.m_sequencer@@seq [axi4_data_first_sequence]   - Start Address: 0x10000000 (aligned)
UVM_INFO sv/seq_lib.sv(3359) @ 0: uvm_test_top.m_env.m_master_agent.m_sequencer@@seq [axi4_data_first_sequence]   - Number of Transactions: 500
UVM_INFO sv/seq_lib.sv(3361) @ 0: uvm_test_top.m_env.m_master_agent.m_sequencer@@seq [axi4_data_first_sequence]   - Data Before Addr: ENABLED
UVM_INFO sv/seq_lib.sv(3363) @ 0: uvm_test_top.m_env.m_master_agent.m_sequencer@@seq [axi4_data_first_sequence] ===========================================
UVM_INFO sv/seq_lib.sv(3368) @ 0: uvm_test_top.m_env.m_master_agent.m_sequencer@@seq [axi4_data_first_sequence] === Phase 1: Sending WRITE transactions ===
UVM_INFO sv/axi4_monitor.sv(233) @ 18000: uvm_test_top.m_env.m_master_agent.m_monitor [axi4_monitor] Write Complete: ID=2, ADDR=0x10000000, RESP=OKAY, Latency=1 cycles
"sv/axi4_interface.sv", 223: axi4_tb_top.axi4_vif.unnamed$$_18: started at 22500ps failed at 22500ps
	Offending '(w_beat_count == expected_awlen_arr[awlen_head])'
UVM_ERROR sv/axi4_interface.sv(224) @ 23000: reporter [AXI4_ASSERT] wlast must be asserted on the correct beat
"sv/axi4_interface.sv", 223: axi4_tb_top.axi4_vif.unnamed$$_18: started at 27500ps failed at 27500ps
	Offending '(w_beat_count == expected_awlen_arr[awlen_head])'
UVM_ERROR sv/axi4_interface.sv(224) @ 28000: reporter [AXI4_ASSERT] wlast must be asserted on the correct beat
UVM_INFO sv/axi4_monitor.sv(233) @ 29000: uvm_test_top.m_env.m_master_agent.m_monitor [axi4_monitor] Write Complete: ID=4, ADDR=0x10000004, RESP=OKAY, Latency=6 cycles
UVM_INFO sv/axi4_monitor.sv(233) @ 34000: uvm_test_top.m_env.m_master_agent.m_monitor [axi4_monitor] Write Complete: ID=0, ADDR=0x1000001c, RESP=OKAY, Latency=4 cycles
"sv/axi4_interface.sv", 223: axi4_tb_top.axi4_vif.unnamed$$_18: started at 43500ps failed at 43500ps
	Offending '(w_beat_count == expected_awlen_arr[awlen_head])'
UVM_ERROR sv/axi4_interface.sv(224) @ 44000: reporter [AXI4_ASSERT] wlast must be asserted on the correct beat
UVM_INFO sv/axi4_monitor.sv(233) @ 50000: uvm_test_top.m_env.m_master_agent.m_monitor [axi4_monitor] Write Complete: ID=12, ADDR=0x1000002c, RESP=OKAY, Latency=14 cycles
"sv/axi4_interface.sv", 223: axi4_tb_top.axi4_vif.unnamed$$_18: started at 53500ps failed at 53500ps
	Offending '(w_beat_count == expected_awlen_arr[awlen_head])'
UVM_ERROR sv/axi4_interface.sv(224) @ 54000: reporter [AXI4_ASSERT] wlast must be asserted on the correct beat
UVM_INFO sv/axi4_monitor.sv(233) @ 60000: uvm_test_top.m_env.m_master_agent.m_monitor [axi4_monitor] Write Complete: ID=3, ADDR=0x10000064, RESP=OKAY, Latency=9 cycles
"sv/axi4_interface.sv", 223: axi4_tb_top.axi4_vif.unnamed$$_18: started at 59500ps failed at 59500ps
	Offending '(w_beat_count == expected_awlen_arr[awlen_head])'
UVM_ERROR sv/axi4_interface.sv(224) @ 60000: reporter [AXI4_ASSERT] wlast must be asserted on the correct beat
"sv/axi4_interface.sv", 223: axi4_tb_top.axi4_vif.unnamed$$_18: started at 64500ps failed at 64500ps
	Offending '(w_beat_count == expected_awlen_arr[awlen_head])'
UVM_ERROR sv/axi4_interface.sv(224) @ 65000: reporter [AXI4_ASSERT] wlast must be asserted on the correct beat
UVM_INFO sv/axi4_monitor.sv(233) @ 66000: uvm_test_top.m_env.m_master_agent.m_monitor [axi4_monitor] Write Complete: ID=11, ADDR=0x10000088, RESP=OKAY, Latency=5 cycles
UVM_INFO sv/axi4_monitor.sv(233) @ 71000: uvm_test_top.m_env.m_master_agent.m_monitor [axi4_monitor] Write Complete: ID=8, ADDR=0x1000009c, RESP=OKAY, Latency=4 cycles
"sv/axi4_interface.sv", 223: axi4_tb_top.axi4_vif.unnamed$$_18: started at 81500ps failed at 81500ps
	Offending '(w_beat_count == expected_awlen_arr[awlen_head])'
UVM_ERROR sv/axi4_interface.sv(224) @ 82000: reporter [AXI4_ASSERT] wlast must be asserted on the correct beat
UVM_INFO sv/axi4_monitor.sv(233) @ 88000: uvm_test_top.m_env.m_master_agent.m_monitor [axi4_monitor] Write Complete: ID=10, ADDR=0x100000ac, RESP=OKAY, Latency=15 cycles
"sv/axi4_interface.sv", 223: axi4_tb_top.axi4_vif.unnamed$$_18: started at 98500ps failed at 98500ps
	Offending '(w_beat_count == expected_awlen_arr[awlen_head])'
UVM_ERROR sv/axi4_interface.sv(224) @ 99000: reporter [AXI4_ASSERT] wlast must be asserted on the correct beat
UVM_INFO sv/axi4_monitor.sv(233) @ 105000: uvm_test_top.m_env.m_master_agent.m_monitor [axi4_monitor] Write Complete: ID=1, ADDR=0x100000e8, RESP=OKAY, Latency=16 cycles
"sv/axi4_interface.sv", 223: axi4_tb_top.axi4_vif.unnamed$$_18: started at 113500ps failed at 113500ps
	Offending '(w_beat_count == expected_awlen_arr[awlen_head])'
UVM_ERROR sv/axi4_interface.sv(224) @ 114000: reporter [AXI4_ASSERT] wlast must be asserted on the correct beat
"sv/axi4_interface.sv", 223: axi4_tb_top.axi4_vif.unnamed$$_18: started at 115500ps failed at 115500ps
	Offending '(w_beat_count == expected_awlen_arr[awlen_head])'
UVM_ERROR sv/axi4_interface.sv(224) @ 116000: reporter [AXI4_ASSERT] wlast must be asserted on the correct beat
UVM_INFO sv/axi4_monitor.sv(233) @ 120000: uvm_test_top.m_env.m_master_agent.m_monitor [axi4_monitor] Write Complete: ID=2, ADDR=0x10000128, RESP=OKAY, Latency=14 cycles
UVM_INFO sv/axi4_monitor.sv(233) @ 122000: uvm_test_top.m_env.m_master_agent.m_monitor [axi4_monitor] Write Complete: ID=12, ADDR=0x10000160, RESP=OKAY, Latency=1 cycles
"sv/axi4_interface.sv", 223: axi4_tb_top.axi4_vif.unnamed$$_18: started at 136500ps failed at 136500ps
	Offending '(w_beat_count == expected_awlen_arr[awlen_head])'
UVM_ERROR sv/axi4_interface.sv(224) @ 137000: reporter [AXI4_ASSERT] wlast must be asserted on the correct beat
UVM_INFO sv/axi4_monitor.sv(233) @ 143000: uvm_test_top.m_env.m_master_agent.m_monitor [axi4_monitor] Write Complete: ID=3, ADDR=0x10000164, RESP=OKAY, Latency=16 cycles
"sv/axi4_interface.sv", 223: axi4_tb_top.axi4_vif.unnamed$$_18: started at 144500ps failed at 144500ps
	Offending '(w_beat_count == expected_awlen_arr[awlen_head])'
UVM_ERROR sv/axi4_interface.sv(224) @ 145000: reporter [AXI4_ASSERT] wlast must be asserted on the correct beat
UVM_INFO sv/axi4_monitor.sv(233) @ 151000: uvm_test_top.m_env.m_master_agent.m_monitor [axi4_monitor] Write Complete: ID=13, ADDR=0x100001a4, RESP=OKAY, Latency=7 cycles
"sv/axi4_interface.sv", 223: axi4_tb_top.axi4_vif.unnamed$$_18: started at 161500ps failed at 161500ps
	Offending '(w_beat_count == expected_awlen_arr[awlen_head])'
UVM_ERROR sv/axi4_interface.sv(224) @ 162000: reporter [AXI4_ASSERT] wlast must be asserted on the correct beat
UVM_INFO sv/axi4_monitor.sv(233) @ 168000: uvm_test_top.m_env.m_master_agent.m_monitor [axi4_monitor] Write Complete: ID=0, ADDR=0x100001c0, RESP=OKAY, Latency=16 cycles
"sv/axi4_interface.sv", 223: axi4_tb_top.axi4_vif.unnamed$$_18: started at 175500ps failed at 175500ps
	Offending '(w_beat_count == expected_awlen_arr[awlen_head])'
UVM_ERROR sv/axi4_interface.sv(224) @ 176000: reporter [AXI4_ASSERT] wlast must be asserted on the correct beat
UVM_INFO sv/axi4_monitor.sv(233) @ 182000: uvm_test_top.m_env.m_master_agent.m_monitor [axi4_monitor] Write Complete: ID=6, ADDR=0x10000200, RESP=OKAY, Latency=13 cycles
"sv/axi4_interface.sv", 223: axi4_tb_top.axi4_vif.unnamed$$_18: started at 183500ps failed at 183500ps
	Offending '(w_beat_count == expected_awlen_arr[awlen_head])'
UVM_ERROR sv/axi4_interface.sv(224) @ 184000: reporter [AXI4_ASSERT] wlast must be asserted on the correct beat
UVM_INFO sv/axi4_monitor.sv(233) @ 190000: uvm_test_top.m_env.m_master_agent.m_monitor [axi4_monitor] Write Complete: ID=9, ADDR=0x10000234, RESP=OKAY, Latency=7 cycles
"sv/axi4_interface.sv", 223: axi4_tb_top.axi4_vif.unnamed$$_18: started at 190500ps failed at 190500ps
	Offending '(w_beat_count == expected_awlen_arr[awlen_head])'
UVM_ERROR sv/axi4_interface.sv(224) @ 191000: reporter [AXI4_ASSERT] wlast must be asserted on the correct beat
UVM_INFO sv/axi4_monitor.sv(233) @ 197000: uvm_test_top.m_env.m_master_agent.m_monitor [axi4_monitor] Write Complete: ID=2, ADDR=0x10000250, RESP=OKAY, Latency=6 cycles
UVM_INFO sv/axi4_monitor.sv(233) @ 204000: uvm_test_top.m_env.m_master_agent.m_monitor [axi4_monitor] Write Complete: ID=11, ADDR=0x10000268, RESP=OKAY, Latency=6 cycles
"sv/axi4_interface.sv", 223: axi4_tb_top.axi4_vif.unnamed$$_18: started at 212500ps failed at 212500ps
	Offending '(w_beat_count == expected_awlen_arr[awlen_head])'
UVM_ERROR sv/axi4_interface.sv(224) @ 213000: reporter [AXI4_ASSERT] wlast must be asserted on the correct beat
"sv/axi4_interface.sv", 223: axi4_tb_top.axi4_vif.unnamed$$_18: started at 217500ps failed at 217500ps
	Offending '(w_beat_count == expected_awlen_arr[awlen_head])'
UVM_ERROR sv/axi4_interface.sv(224) @ 218000: reporter [AXI4_ASSERT] wlast must be asserted on the correct beat
UVM_INFO sv/axi4_monitor.sv(233) @ 219000: uvm_test_top.m_env.m_master_agent.m_monitor [axi4_monitor] Write Complete: ID=6, ADDR=0x10000280, RESP=OKAY, Latency=14 cycles
"sv/axi4_interface.sv", 223: axi4_tb_top.axi4_vif.unnamed$$_18: started at 221500ps failed at 221500ps
	Offending '(w_beat_count == expected_awlen_arr[awlen_head])'
UVM_ERROR sv/axi4_interface.sv(224) @ 222000: reporter [AXI4_ASSERT] wlast must be asserted on the correct beat
UVM_INFO sv/axi4_monitor.sv(233) @ 224000: uvm_test_top.m_env.m_master_agent.m_monitor [axi4_monitor] Write Complete: ID=14, ADDR=0x100002b8, RESP=OKAY, Latency=4 cycles
UVM_INFO sv/axi4_monitor.sv(233) @ 228000: uvm_test_top.m_env.m_master_agent.m_monitor [axi4_monitor] Write Complete: ID=5, ADDR=0x100002c8, RESP=OKAY, Latency=2 cycles
"sv/axi4_interface.sv", 223: axi4_tb_top.axi4_vif.unnamed$$_18: started at 236500ps failed at 236500ps
	Offending '(w_beat_count == expected_awlen_arr[awlen_head])'
UVM_ERROR sv/axi4_interface.sv(224) @ 237000: reporter [AXI4_ASSERT] wlast must be asserted on the correct beat
UVM_INFO sv/axi4_monitor.sv(233) @ 243000: uvm_test_top.m_env.m_master_agent.m_monitor [axi4_monitor] Write Complete: ID=7, ADDR=0x100002d0, RESP=OKAY, Latency=11 cycles
"sv/axi4_interface.sv", 223: axi4_tb_top.axi4_vif.unnamed$$_18: started at 246500ps failed at 246500ps
	Offending '(w_beat_count == expected_awlen_arr[awlen_head])'
UVM_ERROR sv/axi4_interface.sv(224) @ 247000: reporter [AXI4_ASSERT] wlast must be asserted on the correct beat
"sv/axi4_interface.sv", 223: axi4_tb_top.axi4_vif.unnamed$$_18: started at 249500ps failed at 249500ps
	Offending '(w_beat_count == expected_awlen_arr[awlen_head])'
UVM_ERROR sv/axi4_interface.sv(224) @ 250000: reporter [AXI4_ASSERT] wlast must be asserted on the correct beat
UVM_INFO sv/axi4_monitor.sv(233) @ 253000: uvm_test_top.m_env.m_master_agent.m_monitor [axi4_monitor] Write Complete: ID=14, ADDR=0x100002fc, RESP=OKAY, Latency=9 cycles
UVM_INFO sv/axi4_monitor.sv(233) @ 256000: uvm_test_top.m_env.m_master_agent.m_monitor [axi4_monitor] Write Complete: ID=14, ADDR=0x10000320, RESP=OKAY, Latency=2 cycles
"sv/axi4_interface.sv", 223: axi4_tb_top.axi4_vif.unnamed$$_18: started at 264500ps failed at 264500ps
	Offending '(w_beat_count == expected_awlen_arr[awlen_head])'
UVM_ERROR sv/axi4_interface.sv(224) @ 265000: reporter [AXI4_ASSERT] wlast must be asserted on the correct beat
UVM_INFO sv/axi4_monitor.sv(233) @ 271000: uvm_test_top.m_env.m_master_agent.m_monitor [axi4_monitor] Write Complete: ID=2, ADDR=0x10000328, RESP=OKAY, Latency=11 cycles
"sv/axi4_interface.sv", 223: axi4_tb_top.axi4_vif.unnamed$$_18: started at 280500ps failed at 280500ps
	Offending '(w_beat_count == expected_awlen_arr[awlen_head])'
UVM_ERROR sv/axi4_interface.sv(224) @ 281000: reporter [AXI4_ASSERT] wlast must be asserted on the correct beat
"sv/axi4_interface.sv", 223: axi4_tb_top.axi4_vif.unnamed$$_18: started at 283500ps failed at 283500ps
	Offending '(w_beat_count == expected_awlen_arr[awlen_head])'
UVM_ERROR sv/axi4_interface.sv(224) @ 284000: reporter [AXI4_ASSERT] wlast must be asserted on the correct beat
UVM_INFO sv/axi4_monitor.sv(233) @ 287000: uvm_test_top.m_env.m_master_agent.m_monitor [axi4_monitor] Write Complete: ID=2, ADDR=0x10000354, RESP=OKAY, Latency=15 cycles
UVM_INFO sv/axi4_monitor.sv(233) @ 290000: uvm_test_top.m_env.m_master_agent.m_monitor [axi4_monitor] Write Complete: ID=0, ADDR=0x10000390, RESP=OKAY, Latency=2 cycles
"sv/axi4_interface.sv", 223: axi4_tb_top.axi4_vif.unnamed$$_18: started at 291500ps failed at 291500ps
	Offending '(w_beat_count == expected_awlen_arr[awlen_head])'
UVM_ERROR sv/axi4_interface.sv(224) @ 292000: reporter [AXI4_ASSERT] wlast must be asserted on the correct beat
"sv/axi4_interface.sv", 223: axi4_tb_top.axi4_vif.unnamed$$_18: started at 296500ps failed at 296500ps
	Offending '(w_beat_count == expected_awlen_arr[awlen_head])'
UVM_ERROR sv/axi4_interface.sv(224) @ 297000: reporter [AXI4_ASSERT] wlast must be asserted on the correct beat
UVM_INFO sv/axi4_monitor.sv(233) @ 298000: uvm_test_top.m_env.m_master_agent.m_monitor [axi4_monitor] Write Complete: ID=9, ADDR=0x10000398, RESP=OKAY, Latency=4 cycles
UVM_INFO sv/axi4_monitor.sv(233) @ 303000: uvm_test_top.m_env.m_master_agent.m_monitor [axi4_monitor] Write Complete: ID=2, ADDR=0x100003a8, RESP=OKAY, Latency=3 cycles
"sv/axi4_interface.sv", 223: axi4_tb_top.axi4_vif.unnamed$$_18: started at 315500ps failed at 315500ps
	Offending '(w_beat_count == expected_awlen_arr[awlen_head])'
UVM_ERROR sv/axi4_interface.sv(224) @ 316000: reporter [AXI4_ASSERT] wlast must be asserted on the correct beat
"sv/axi4_interface.sv", 223: axi4_tb_top.axi4_vif.unnamed$$_18: started at 320500ps failed at 320500ps
	Offending '(w_beat_count == expected_awlen_arr[awlen_head])'
UVM_ERROR sv/axi4_interface.sv(224) @ 321000: reporter [AXI4_ASSERT] wlast must be asserted on the correct beat
UVM_INFO sv/axi4_monitor.sv(233) @ 322000: uvm_test_top.m_env.m_master_agent.m_monitor [axi4_monitor] Write Complete: ID=1, ADDR=0x100003b4, RESP=OKAY, Latency=16 cycles
UVM_INFO sv/axi4_monitor.sv(233) @ 327000: uvm_test_top.m_env.m_master_agent.m_monitor [axi4_monitor] Write Complete: ID=13, ADDR=0x100003f4, RESP=OKAY, Latency=4 cycles
"sv/axi4_interface.sv", 223: axi4_tb_top.axi4_vif.unnamed$$_18: started at 329500ps failed at 329500ps
	Offending '(w_beat_count == expected_awlen_arr[awlen_head])'
UVM_ERROR sv/axi4_interface.sv(224) @ 330000: reporter [AXI4_ASSERT] wlast must be asserted on the correct beat
UVM_INFO sv/axi4_monitor.sv(233) @ 336000: uvm_test_top.m_env.m_master_agent.m_monitor [axi4_monitor] Write Complete: ID=15, ADDR=0x10000404, RESP=OKAY, Latency=7 cycles
"sv/axi4_interface.sv", 223: axi4_tb_top.axi4_vif.unnamed$$_18: started at 342500ps failed at 342500ps
	Offending '(w_beat_count == expected_awlen_arr[awlen_head])'
UVM_ERROR sv/axi4_interface.sv(224) @ 343000: reporter [AXI4_ASSERT] wlast must be asserted on the correct beat
UVM_INFO sv/axi4_monitor.sv(233) @ 349000: uvm_test_top.m_env.m_master_agent.m_monitor [axi4_monitor] Write Complete: ID=1, ADDR=0x10000420, RESP=OKAY, Latency=12 cycles
"sv/axi4_interface.sv", 223: axi4_tb_top.axi4_vif.unnamed$$_18: started at 351500ps failed at 351500ps
	Offending '(w_beat_count == expected_awlen_arr[awlen_head])'
UVM_ERROR sv/axi4_interface.sv(224) @ 352000: reporter [AXI4_ASSERT] wlast must be asserted on the correct beat
"sv/axi4_interface.sv", 223: axi4_tb_top.axi4_vif.unnamed$$_18: started at 354500ps failed at 354500ps
	Offending '(w_beat_count == expected_awlen_arr[awlen_head])'
UVM_ERROR sv/axi4_interface.sv(224) @ 355000: reporter [AXI4_ASSERT] wlast must be asserted on the correct beat
UVM_INFO sv/axi4_monitor.sv(233) @ 358000: uvm_test_top.m_env.m_master_agent.m_monitor [axi4_monitor] Write Complete: ID=3, ADDR=0x10000450, RESP=OKAY, Latency=8 cycles
UVM_INFO sv/axi4_monitor.sv(233) @ 361000: uvm_test_top.m_env.m_master_agent.m_monitor [axi4_monitor] Write Complete: ID=13, ADDR=0x10000470, RESP=OKAY, Latency=2 cycles
"sv/axi4_interface.sv", 223: axi4_tb_top.axi4_vif.unnamed$$_18: started at 361500ps failed at 361500ps
	Offending '(w_beat_count == expected_awlen_arr[awlen_head])'
UVM_ERROR sv/axi4_interface.sv(224) @ 362000: reporter [AXI4_ASSERT] wlast must be asserted on the correct beat
UVM_INFO sv/axi4_monitor.sv(233) @ 368000: uvm_test_top.m_env.m_master_agent.m_monitor [axi4_monitor] Write Complete: ID=0, ADDR=0x10000478, RESP=OKAY, Latency=3 cycles
"sv/axi4_interface.sv", 223: axi4_tb_top.axi4_vif.unnamed$$_18: started at 373500ps failed at 373500ps
	Offending '(w_beat_count == expected_awlen_arr[awlen_head])'
UVM_ERROR sv/axi4_interface.sv(224) @ 374000: reporter [AXI4_ASSERT] wlast must be asserted on the correct beat
UVM_INFO sv/axi4_monitor.sv(233) @ 380000: uvm_test_top.m_env.m_master_agent.m_monitor [axi4_monitor] Write Complete: ID=4, ADDR=0x10000484, RESP=OKAY, Latency=9 cycles
"sv/axi4_interface.sv", 223: axi4_tb_top.axi4_vif.unnamed$$_18: started at 379500ps failed at 379500ps
	Offending '(w_beat_count == expected_awlen_arr[awlen_head])'
UVM_ERROR sv/axi4_interface.sv(224) @ 380000: reporter [AXI4_ASSERT] wlast must be asserted on the correct beat
UVM_INFO sv/axi4_monitor.sv(233) @ 386000: uvm_test_top.m_env.m_master_agent.m_monitor [axi4_monitor] Write Complete: ID=7, ADDR=0x100004a8, RESP=OKAY, Latency=5 cycles
UVM_INFO sv/axi4_monitor.sv(233) @ 392000: uvm_test_top.m_env.m_master_agent.m_monitor [axi4_monitor] Write Complete: ID=0, ADDR=0x100004bc, RESP=OKAY, Latency=5 cycles
"sv/axi4_interface.sv", 223: axi4_tb_top.axi4_vif.unnamed$$_18: started at 392500ps failed at 392500ps
	Offending '(w_beat_count == expected_awlen_arr[awlen_head])'
UVM_ERROR sv/axi4_interface.sv(224) @ 393000: reporter [AXI4_ASSERT] wlast must be asserted on the correct beat
"sv/axi4_interface.sv", 223: axi4_tb_top.axi4_vif.unnamed$$_18: started at 397500ps failed at 397500ps
	Offending '(w_beat_count == expected_awlen_arr[awlen_head])'
UVM_ERROR sv/axi4_interface.sv(224) @ 398000: reporter [AXI4_ASSERT] wlast must be asserted on the correct beat
UVM_INFO sv/axi4_monitor.sv(233) @ 399000: uvm_test_top.m_env.m_master_agent.m_monitor [axi4_monitor] Write Complete: ID=5, ADDR=0x100004d0, RESP=OKAY, Latency=6 cycles
UVM_INFO sv/axi4_monitor.sv(233) @ 404000: uvm_test_top.m_env.m_master_agent.m_monitor [axi4_monitor] Write Complete: ID=7, ADDR=0x100004e8, RESP=OKAY, Latency=4 cycles
"sv/axi4_interface.sv", 223: axi4_tb_top.axi4_vif.unnamed$$_18: started at 411500ps failed at 411500ps
	Offending '(w_beat_count == expected_awlen_arr[awlen_head])'
UVM_ERROR sv/axi4_interface.sv(224) @ 412000: reporter [AXI4_ASSERT] wlast must be asserted on the correct beat
"sv/axi4_interface.sv", 223: axi4_tb_top.axi4_vif.unnamed$$_18: started at 416500ps failed at 416500ps
	Offending '(w_beat_count == expected_awlen_arr[awlen_head])'
UVM_ERROR sv/axi4_interface.sv(224) @ 417000: reporter [AXI4_ASSERT] wlast must be asserted on the correct beat
UVM_INFO sv/axi4_monitor.sv(233) @ 418000: uvm_test_top.m_env.m_master_agent.m_monitor [axi4_monitor] Write Complete: ID=10, ADDR=0x100004f8, RESP=OKAY, Latency=12 cycles
UVM_INFO sv/axi4_monitor.sv(233) @ 423000: uvm_test_top.m_env.m_master_agent.m_monitor [axi4_monitor] Write Complete: ID=5, ADDR=0x10000528, RESP=OKAY, Latency=4 cycles
UVM_INFO sv/axi4_monitor.sv(233) @ 429000: uvm_test_top.m_env.m_master_agent.m_monitor [axi4_monitor] Write Complete: ID=13, ADDR=0x10000538, RESP=OKAY, Latency=4 cycles
"sv/axi4_interface.sv", 223: axi4_tb_top.axi4_vif.unnamed$$_18: started at 432500ps failed at 432500ps
	Offending '(w_beat_count == expected_awlen_arr[awlen_head])'
UVM_ERROR sv/axi4_interface.sv(224) @ 433000: reporter [AXI4_ASSERT] wlast must be asserted on the correct beat
"sv/axi4_interface.sv", 223: axi4_tb_top.axi4_vif.unnamed$$_18: started at 437500ps failed at 437500ps
	Offending '(w_beat_count == expected_awlen_arr[awlen_head])'
UVM_ERROR sv/axi4_interface.sv(224) @ 438000: reporter [AXI4_ASSERT] wlast must be asserted on the correct beat
UVM_INFO sv/axi4_monitor.sv(233) @ 439000: uvm_test_top.m_env.m_master_agent.m_monitor [axi4_monitor] Write Complete: ID=1, ADDR=0x10000548, RESP=OKAY, Latency=8 cycles
UVM_INFO sv/axi4_monitor.sv(233) @ 444000: uvm_test_top.m_env.m_master_agent.m_monitor [axi4_monitor] Write Complete: ID=7, ADDR=0x10000568, RESP=OKAY, Latency=4 cycles
"sv/axi4_interface.sv", 223: axi4_tb_top.axi4_vif.unnamed$$_18: started at 451500ps failed at 451500ps
	Offending '(w_beat_count == expected_awlen_arr[awlen_head])'
UVM_ERROR sv/axi4_interface.sv(224) @ 452000: reporter [AXI4_ASSERT] wlast must be asserted on the correct beat
UVM_INFO sv/axi4_monitor.sv(233) @ 458000: uvm_test_top.m_env.m_master_agent.m_monitor [axi4_monitor] Write Complete: ID=10, ADDR=0x10000578, RESP=OKAY, Latency=12 cycles
"sv/axi4_interface.sv", 223: axi4_tb_top.axi4_vif.unnamed$$_18: started at 466500ps failed at 466500ps
	Offending '(w_beat_count == expected_awlen_arr[awlen_head])'
UVM_ERROR sv/axi4_interface.sv(224) @ 467000: reporter [AXI4_ASSERT] wlast must be asserted on the correct beat
"sv/axi4_interface.sv", 223: axi4_tb_top.axi4_vif.unnamed$$_18: started at 469500ps failed at 469500ps
	Offending '(w_beat_count == expected_awlen_arr[awlen_head])'
UVM_ERROR sv/axi4_interface.sv(224) @ 470000: reporter [AXI4_ASSERT] wlast must be asserted on the correct beat
UVM_INFO sv/axi4_monitor.sv(233) @ 473000: uvm_test_top.m_env.m_master_agent.m_monitor [axi4_monitor] Write Complete: ID=0, ADDR=0x100005a8, RESP=OKAY, Latency=14 cycles
UVM_INFO sv/axi4_monitor.sv(233) @ 476000: uvm_test_top.m_env.m_master_agent.m_monitor [axi4_monitor] Write Complete: ID=13, ADDR=0x100005e0, RESP=OKAY, Latency=2 cycles
"sv/axi4_interface.sv", 223: axi4_tb_top.axi4_vif.unnamed$$_18: started at 485500ps failed at 485500ps
	Offending '(w_beat_count == expected_awlen_arr[awlen_head])'
UVM_ERROR sv/axi4_interface.sv(224) @ 486000: reporter [AXI4_ASSERT] wlast must be asserted on the correct beat
UVM_INFO sv/axi4_monitor.sv(233) @ 492000: uvm_test_top.m_env.m_master_agent.m_monitor [axi4_monitor] Write Complete: ID=7, ADDR=0x100005e8, RESP=OKAY, Latency=12 cycles
"sv/axi4_interface.sv", 223: axi4_tb_top.axi4_vif.unnamed$$_18: started at 494500ps failed at 494500ps
	Offending '(w_beat_count == expected_awlen_arr[awlen_head])'
UVM_ERROR sv/axi4_interface.sv(224) @ 495000: reporter [AXI4_ASSERT] wlast must be asserted on the correct beat
"sv/axi4_interface.sv", 223: axi4_tb_top.axi4_vif.unnamed$$_18: started at 499500ps failed at 499500ps
	Offending '(w_beat_count == expected_awlen_arr[awlen_head])'
UVM_ERROR sv/axi4_interface.sv(224) @ 500000: reporter [AXI4_ASSERT] wlast must be asserted on the correct beat
UVM_INFO sv/axi4_monitor.sv(233) @ 501000: uvm_test_top.m_env.m_master_agent.m_monitor [axi4_monitor] Write Complete: ID=10, ADDR=0x10000618, RESP=OKAY, Latency=8 cycles
UVM_INFO sv/axi4_monitor.sv(233) @ 506000: uvm_test_top.m_env.m_master_agent.m_monitor [axi4_monitor] Write Complete: ID=7, ADDR=0x10000638, RESP=OKAY, Latency=4 cycles
"sv/axi4_interface.sv", 223: axi4_tb_top.axi4_vif.unnamed$$_18: started at 517500ps failed at 517500ps
	Offending '(w_beat_count == expected_awlen_arr[awlen_head])'
UVM_ERROR sv/axi4_interface.sv(224) @ 518000: reporter [AXI4_ASSERT] wlast must be asserted on the correct beat
UVM_INFO sv/axi4_monitor.sv(233) @ 524000: uvm_test_top.m_env.m_master_agent.m_monitor [axi4_monitor] Write Complete: ID=15, ADDR=0x10000648, RESP=OKAY, Latency=16 cycles
"sv/axi4_interface.sv", 223: axi4_tb_top.axi4_vif.unnamed$$_18: started at 530500ps failed at 530500ps
	Offending '(w_beat_count == expected_awlen_arr[awlen_head])'
UVM_ERROR sv/axi4_interface.sv(224) @ 531000: reporter [AXI4_ASSERT] wlast must be asserted on the correct beat
UVM_INFO sv/axi4_monitor.sv(233) @ 537000: uvm_test_top.m_env.m_master_agent.m_monitor [axi4_monitor] Write Complete: ID=1, ADDR=0x10000688, RESP=OKAY, Latency=12 cycles
"sv/axi4_interface.sv", 223: axi4_tb_top.axi4_vif.unnamed$$_18: started at 537500ps failed at 537500ps
	Offending '(w_beat_count == expected_awlen_arr[awlen_head])'
UVM_ERROR sv/axi4_interface.sv(224) @ 538000: reporter [AXI4_ASSERT] wlast must be asserted on the correct beat
UVM_INFO sv/axi4_monitor.sv(233) @ 544000: uvm_test_top.m_env.m_master_agent.m_monitor [axi4_monitor] Write Complete: ID=3, ADDR=0x100006b8, RESP=OKAY, Latency=6 cycles
"sv/axi4_interface.sv", 223: axi4_tb_top.axi4_vif.unnamed$$_18: started at 549500ps failed at 549500ps
	Offending '(w_beat_count == expected_awlen_arr[awlen_head])'
UVM_ERROR sv/axi4_interface.sv(224) @ 550000: reporter [AXI4_ASSERT] wlast must be asserted on the correct beat
UVM_INFO sv/axi4_monitor.sv(233) @ 556000: uvm_test_top.m_env.m_master_agent.m_monitor [axi4_monitor] Write Complete: ID=5, ADDR=0x100006d0, RESP=OKAY, Latency=11 cycles
"sv/axi4_interface.sv", 223: axi4_tb_top.axi4_vif.unnamed$$_18: started at 565500ps failed at 565500ps
	Offending '(w_beat_count == expected_awlen_arr[awlen_head])'
UVM_ERROR sv/axi4_interface.sv(224) @ 566000: reporter [AXI4_ASSERT] wlast must be asserted on the correct beat
UVM_INFO sv/axi4_monitor.sv(233) @ 572000: uvm_test_top.m_env.m_master_agent.m_monitor [axi4_monitor] Write Complete: ID=11, ADDR=0x100006fc, RESP=OKAY, Latency=15 cycles
"sv/axi4_interface.sv", 223: axi4_tb_top.axi4_vif.unnamed$$_18: started at 580500ps failed at 580500ps
	Offending '(w_beat_count == expected_awlen_arr[awlen_head])'
UVM_ERROR sv/axi4_interface.sv(224) @ 581000: reporter [AXI4_ASSERT] wlast must be asserted on the correct beat
"sv/axi4_interface.sv", 223: axi4_tb_top.axi4_vif.unnamed$$_18: started at 584500ps failed at 584500ps
	Offending '(w_beat_count == expected_awlen_arr[awlen_head])'
UVM_ERROR sv/axi4_interface.sv(224) @ 585000: reporter [AXI4_ASSERT] wlast must be asserted on the correct beat
UVM_INFO sv/axi4_monitor.sv(233) @ 587000: uvm_test_top.m_env.m_master_agent.m_monitor [axi4_monitor] Write Complete: ID=8, ADDR=0x10000738, RESP=OKAY, Latency=14 cycles
UVM_INFO sv/axi4_monitor.sv(233) @ 591000: uvm_test_top.m_env.m_master_agent.m_monitor [axi4_monitor] Write Complete: ID=1, ADDR=0x10000770, RESP=OKAY, Latency=3 cycles
"sv/axi4_interface.sv", 223: axi4_tb_top.axi4_vif.unnamed$$_18: started at 602500ps failed at 602500ps
	Offending '(w_beat_count == expected_awlen_arr[awlen_head])'
UVM_ERROR sv/axi4_interface.sv(224) @ 603000: reporter [AXI4_ASSERT] wlast must be asserted on the correct beat
UVM_INFO sv/axi4_monitor.sv(233) @ 609000: uvm_test_top.m_env.m_master_agent.m_monitor [axi4_monitor] Write Complete: ID=10, ADDR=0x1000077c, RESP=OKAY, Latency=15 cycles
"sv/axi4_interface.sv", 223: axi4_tb_top.axi4_vif.unnamed$$_18: started at 610500ps failed at 610500ps
	Offending '(w_beat_count == expected_awlen_arr[awlen_head])'
UVM_ERROR sv/axi4_interface.sv(224) @ 611000: reporter [AXI4_ASSERT] wlast must be asserted on the correct beat
UVM_INFO sv/axi4_monitor.sv(233) @ 617000: uvm_test_top.m_env.m_master_agent.m_monitor [axi4_monitor] Write Complete: ID=6, ADDR=0x100007b8, RESP=OKAY, Latency=7 cycles
"sv/axi4_interface.sv", 223: axi4_tb_top.axi4_vif.unnamed$$_18: started at 622500ps failed at 622500ps
	Offending '(w_beat_count == expected_awlen_arr[awlen_head])'
UVM_ERROR sv/axi4_interface.sv(224) @ 623000: reporter [AXI4_ASSERT] wlast must be asserted on the correct beat
"sv/axi4_interface.sv", 223: axi4_tb_top.axi4_vif.unnamed$$_18: started at 626500ps failed at 626500ps
	Offending '(w_beat_count == expected_awlen_arr[awlen_head])'
UVM_ERROR sv/axi4_interface.sv(224) @ 627000: reporter [AXI4_ASSERT] wlast must be asserted on the correct beat
UVM_INFO sv/axi4_monitor.sv(233) @ 629000: uvm_test_top.m_env.m_master_agent.m_monitor [axi4_monitor] Write Complete: ID=1, ADDR=0x100007d4, RESP=OKAY, Latency=11 cycles
UVM_INFO sv/axi4_monitor.sv(233) @ 633000: uvm_test_top.m_env.m_master_agent.m_monitor [axi4_monitor] Write Complete: ID=4, ADDR=0x10000800, RESP=OKAY, Latency=3 cycles
UVM_INFO sv/axi4_monitor.sv(233) @ 639000: uvm_test_top.m_env.m_master_agent.m_monitor [axi4_monitor] Write Complete: ID=14, ADDR=0x1000080c, RESP=OKAY, Latency=3 cycles
"sv/axi4_interface.sv", 223: axi4_tb_top.axi4_vif.unnamed$$_18: started at 648500ps failed at 648500ps
	Offending '(w_beat_count == expected_awlen_arr[awlen_head])'
UVM_ERROR sv/axi4_interface.sv(224) @ 649000: reporter [AXI4_ASSERT] wlast must be asserted on the correct beat
"sv/axi4_interface.sv", 223: axi4_tb_top.axi4_vif.unnamed$$_18: started at 652500ps failed at 652500ps
	Offending '(w_beat_count == expected_awlen_arr[awlen_head])'
UVM_ERROR sv/axi4_interface.sv(224) @ 653000: reporter [AXI4_ASSERT] wlast must be asserted on the correct beat
UVM_INFO sv/axi4_monitor.sv(233) @ 655000: uvm_test_top.m_env.m_master_agent.m_monitor [axi4_monitor] Write Complete: ID=11, ADDR=0x10000818, RESP=OKAY, Latency=13 cycles
UVM_INFO sv/axi4_monitor.sv(233) @ 659000: uvm_test_top.m_env.m_master_agent.m_monitor [axi4_monitor] Write Complete: ID=1, ADDR=0x1000084c, RESP=OKAY, Latency=3 cycles
"sv/axi4_interface.sv", 223: axi4_tb_top.axi4_vif.unnamed$$_18: started at 663500ps failed at 663500ps
	Offending '(w_beat_count == expected_awlen_arr[awlen_head])'
UVM_ERROR sv/axi4_interface.sv(224) @ 664000: reporter [AXI4_ASSERT] wlast must be asserted on the correct beat
UVM_INFO sv/axi4_monitor.sv(233) @ 670000: uvm_test_top.m_env.m_master_agent.m_monitor [axi4_monitor] Write Complete: ID=8, ADDR=0x10000858, RESP=OKAY, Latency=8 cycles
"sv/axi4_interface.sv", 223: axi4_tb_top.axi4_vif.unnamed$$_18: started at 669500ps failed at 669500ps
	Offending '(w_beat_count == expected_awlen_arr[awlen_head])'
UVM_ERROR sv/axi4_interface.sv(224) @ 670000: reporter [AXI4_ASSERT] wlast must be asserted on the correct beat
"sv/axi4_interface.sv", 223: axi4_tb_top.axi4_vif.unnamed$$_18: started at 672500ps failed at 672500ps
	Offending '(w_beat_count == expected_awlen_arr[awlen_head])'
UVM_ERROR sv/axi4_interface.sv(224) @ 673000: reporter [AXI4_ASSERT] wlast must be asserted on the correct beat
UVM_INFO sv/axi4_monitor.sv(233) @ 676000: uvm_test_top.m_env.m_master_agent.m_monitor [axi4_monitor] Write Complete: ID=6, ADDR=0x10000878, RESP=OKAY, Latency=5 cycles
UVM_INFO sv/axi4_monitor.sv(233) @ 679000: uvm_test_top.m_env.m_master_agent.m_monitor [axi4_monitor] Write Complete: ID=1, ADDR=0x1000088c, RESP=OKAY, Latency=2 cycles
"sv/axi4_interface.sv", 223: axi4_tb_top.axi4_vif.unnamed$$_18: started at 688500ps failed at 688500ps
	Offending '(w_beat_count == expected_awlen_arr[awlen_head])'
UVM_ERROR sv/axi4_interface.sv(224) @ 689000: reporter [AXI4_ASSERT] wlast must be asserted on the correct beat
UVM_INFO sv/axi4_monitor.sv(233) @ 695000: uvm_test_top.m_env.m_master_agent.m_monitor [axi4_monitor] Write Complete: ID=11, ADDR=0x10000894, RESP=OKAY, Latency=12 cycles
UVM_INFO sv/axi4_monitor.sv(233) @ 708000: uvm_test_top.m_env.m_master_agent.m_monitor [axi4_monitor] Write Complete: ID=8, ADDR=0x100008c4, RESP=OKAY, Latency=12 cycles
"sv/axi4_interface.sv", 223: axi4_tb_top.axi4_vif.unnamed$$_18: started at 707500ps failed at 707500ps
	Offending '(w_beat_count == expected_awlen_arr[awlen_head])'
UVM_ERROR sv/axi4_interface.sv(224) @ 708000: reporter [AXI4_ASSERT] wlast must be asserted on the correct beat
UVM_INFO sv/axi4_monitor.sv(233) @ 714000: uvm_test_top.m_env.m_master_agent.m_monitor [axi4_monitor] Write Complete: ID=8, ADDR=0x100008f4, RESP=OKAY, Latency=5 cycles
"sv/axi4_interface.sv", 223: axi4_tb_top.axi4_vif.unnamed$$_18: started at 717500ps failed at 717500ps
	Offending '(w_beat_count == expected_awlen_arr[awlen_head])'
UVM_ERROR sv/axi4_interface.sv(224) @ 718000: reporter [AXI4_ASSERT] wlast must be asserted on the correct beat
UVM_INFO sv/axi4_monitor.sv(233) @ 720000: uvm_test_top.m_env.m_master_agent.m_monitor [axi4_monitor] Write Complete: ID=4, ADDR=0x10000908, RESP=OKAY, Latency=5 cycles
UVM_INFO sv/axi4_monitor.sv(233) @ 724000: uvm_test_top.m_env.m_master_agent.m_monitor [axi4_monitor] Write Complete: ID=4, ADDR=0x1000091c, RESP=OKAY, Latency=3 cycles
"sv/axi4_interface.sv", 223: axi4_tb_top.axi4_vif.unnamed$$_18: started at 726500ps failed at 726500ps
	Offending '(w_beat_count == expected_awlen_arr[awlen_head])'
UVM_ERROR sv/axi4_interface.sv(224) @ 727000: reporter [AXI4_ASSERT] wlast must be asserted on the correct beat
"sv/axi4_interface.sv", 223: axi4_tb_top.axi4_vif.unnamed$$_18: started at 729500ps failed at 729500ps
	Offending '(w_beat_count == expected_awlen_arr[awlen_head])'
UVM_ERROR sv/axi4_interface.sv(224) @ 730000: reporter [AXI4_ASSERT] wlast must be asserted on the correct beat
UVM_INFO sv/axi4_monitor.sv(233) @ 733000: uvm_test_top.m_env.m_master_agent.m_monitor [axi4_monitor] Write Complete: ID=2, ADDR=0x10000928, RESP=OKAY, Latency=6 cycles
UVM_INFO sv/axi4_monitor.sv(233) @ 736000: uvm_test_top.m_env.m_master_agent.m_monitor [axi4_monitor] Write Complete: ID=14, ADDR=0x10000940, RESP=OKAY, Latency=2 cycles
"sv/axi4_interface.sv", 223: axi4_tb_top.axi4_vif.unnamed$$_18: started at 737500ps failed at 737500ps
	Offending '(w_beat_count == expected_awlen_arr[awlen_head])'
UVM_ERROR sv/axi4_interface.sv(224) @ 738000: reporter [AXI4_ASSERT] wlast must be asserted on the correct beat
UVM_INFO sv/axi4_monitor.sv(233) @ 744000: uvm_test_top.m_env.m_master_agent.m_monitor [axi4_monitor] Write Complete: ID=12, ADDR=0x10000948, RESP=OKAY, Latency=4 cycles
"sv/axi4_interface.sv", 223: axi4_tb_top.axi4_vif.unnamed$$_18: started at 748500ps failed at 748500ps
	Offending '(w_beat_count == expected_awlen_arr[awlen_head])'
UVM_ERROR sv/axi4_interface.sv(224) @ 749000: reporter [AXI4_ASSERT] wlast must be asserted on the correct beat
UVM_INFO sv/axi4_monitor.sv(233) @ 755000: uvm_test_top.m_env.m_master_agent.m_monitor [axi4_monitor] Write Complete: ID=11, ADDR=0x10000958, RESP=OKAY, Latency=9 cycles
"sv/axi4_interface.sv", 223: axi4_tb_top.axi4_vif.unnamed$$_18: started at 754500ps failed at 754500ps
	Offending '(w_beat_count == expected_awlen_arr[awlen_head])'
UVM_ERROR sv/axi4_interface.sv(224) @ 755000: reporter [AXI4_ASSERT] wlast must be asserted on the correct beat
UVM_INFO sv/axi4_monitor.sv(233) @ 761000: uvm_test_top.m_env.m_master_agent.m_monitor [axi4_monitor] Write Complete: ID=13, ADDR=0x1000097c, RESP=OKAY, Latency=5 cycles
"sv/axi4_interface.sv", 223: axi4_tb_top.axi4_vif.unnamed$$_18: started at 763500ps failed at 763500ps
	Offending '(w_beat_count == expected_awlen_arr[awlen_head])'
UVM_ERROR sv/axi4_interface.sv(224) @ 764000: reporter [AXI4_ASSERT] wlast must be asserted on the correct beat
UVM_INFO sv/axi4_monitor.sv(233) @ 767000: uvm_test_top.m_env.m_master_agent.m_monitor [axi4_monitor] Write Complete: ID=10, ADDR=0x10000990, RESP=OKAY, Latency=5 cycles
UVM_INFO sv/axi4_monitor.sv(233) @ 770000: uvm_test_top.m_env.m_master_agent.m_monitor [axi4_monitor] Write Complete: ID=2, ADDR=0x100009a4, RESP=OKAY, Latency=2 cycles
"sv/axi4_interface.sv", 223: axi4_tb_top.axi4_vif.unnamed$$_18: started at 778500ps failed at 778500ps
	Offending '(w_beat_count == expected_awlen_arr[awlen_head])'
UVM_ERROR sv/axi4_interface.sv(224) @ 779000: reporter [AXI4_ASSERT] wlast must be asserted on the correct beat
UVM_INFO sv/axi4_monitor.sv(233) @ 785000: uvm_test_top.m_env.m_master_agent.m_monitor [axi4_monitor] Write Complete: ID=9, ADDR=0x100009ac, RESP=OKAY, Latency=11 cycles
"sv/axi4_interface.sv", 223: axi4_tb_top.axi4_vif.unnamed$$_18: started at 786500ps failed at 786500ps
	Offending '(w_beat_count == expected_awlen_arr[awlen_head])'
UVM_ERROR sv/axi4_interface.sv(224) @ 787000: reporter [AXI4_ASSERT] wlast must be asserted on the correct beat
"sv/axi4_interface.sv", 223: axi4_tb_top.axi4_vif.unnamed$$_18: started at 788500ps failed at 788500ps
	Offending '(w_beat_count == expected_awlen_arr[awlen_head])'
UVM_ERROR sv/axi4_interface.sv(224) @ 789000: reporter [AXI4_ASSERT] wlast must be asserted on the correct beat
UVM_INFO sv/axi4_monitor.sv(233) @ 793000: uvm_test_top.m_env.m_master_agent.m_monitor [axi4_monitor] Write Complete: ID=6, ADDR=0x100009d8, RESP=OKAY, Latency=7 cycles
UVM_INFO sv/axi4_monitor.sv(233) @ 795000: uvm_test_top.m_env.m_master_agent.m_monitor [axi4_monitor] Write Complete: ID=12, ADDR=0x100009f4, RESP=OKAY, Latency=1 cycles
"sv/axi4_interface.sv", 223: axi4_tb_top.axi4_vif.unnamed$$_18: started at 809500ps failed at 809500ps
	Offending '(w_beat_count == expected_awlen_arr[awlen_head])'
UVM_ERROR sv/axi4_interface.sv(224) @ 810000: reporter [AXI4_ASSERT] wlast must be asserted on the correct beat
UVM_INFO sv/axi4_monitor.sv(233) @ 816000: uvm_test_top.m_env.m_master_agent.m_monitor [axi4_monitor] Write Complete: ID=13, ADDR=0x100009f8, RESP=OKAY, Latency=16 cycles
"sv/axi4_interface.sv", 223: axi4_tb_top.axi4_vif.unnamed$$_18: started at 822500ps failed at 822500ps
	Offending '(w_beat_count == expected_awlen_arr[awlen_head])'
UVM_ERROR sv/axi4_interface.sv(224) @ 823000: reporter [AXI4_ASSERT] wlast must be asserted on the correct beat
UVM_INFO sv/axi4_monitor.sv(233) @ 829000: uvm_test_top.m_env.m_master_agent.m_monitor [axi4_monitor] Write Complete: ID=7, ADDR=0x10000a38, RESP=OKAY, Latency=12 cycles
"sv/axi4_interface.sv", 223: axi4_tb_top.axi4_vif.unnamed$$_18: started at 834500ps failed at 834500ps
	Offending '(w_beat_count == expected_awlen_arr[awlen_head])'
UVM_ERROR sv/axi4_interface.sv(224) @ 835000: reporter [AXI4_ASSERT] wlast must be asserted on the correct beat
UVM_INFO sv/axi4_monitor.sv(233) @ 841000: uvm_test_top.m_env.m_master_agent.m_monitor [axi4_monitor] Write Complete: ID=3, ADDR=0x10000a68, RESP=OKAY, Latency=11 cycles
"sv/axi4_interface.sv", 223: axi4_tb_top.axi4_vif.unnamed$$_18: started at 847500ps failed at 847500ps
	Offending '(w_beat_count == expected_awlen_arr[awlen_head])'
UVM_ERROR sv/axi4_interface.sv(224) @ 848000: reporter [AXI4_ASSERT] wlast must be asserted on the correct beat
"sv/axi4_interface.sv", 223: axi4_tb_top.axi4_vif.unnamed$$_18: started at 852500ps failed at 852500ps
	Offending '(w_beat_count == expected_awlen_arr[awlen_head])'
UVM_ERROR sv/axi4_interface.sv(224) @ 853000: reporter [AXI4_ASSERT] wlast must be asserted on the correct beat
UVM_INFO sv/axi4_monitor.sv(233) @ 854000: uvm_test_top.m_env.m_master_agent.m_monitor [axi4_monitor] Write Complete: ID=6, ADDR=0x10000a94, RESP=OKAY, Latency=12 cycles
UVM_INFO sv/axi4_monitor.sv(233) @ 859000: uvm_test_top.m_env.m_master_agent.m_monitor [axi4_monitor] Write Complete: ID=14, ADDR=0x10000ac4, RESP=OKAY, Latency=4 cycles
"sv/axi4_interface.sv", 223: axi4_tb_top.axi4_vif.unnamed$$_18: started at 860500ps failed at 860500ps
	Offending '(w_beat_count == expected_awlen_arr[awlen_head])'
UVM_ERROR sv/axi4_interface.sv(224) @ 861000: reporter [AXI4_ASSERT] wlast must be asserted on the correct beat
UVM_INFO sv/axi4_monitor.sv(233) @ 867000: uvm_test_top.m_env.m_master_agent.m_monitor [axi4_monitor] Write Complete: ID=10, ADDR=0x10000ad4, RESP=OKAY, Latency=6 cycles
"sv/axi4_interface.sv", 223: axi4_tb_top.axi4_vif.unnamed$$_18: started at 866500ps failed at 866500ps
	Offending '(w_beat_count == expected_awlen_arr[awlen_head])'
UVM_ERROR sv/axi4_interface.sv(224) @ 867000: reporter [AXI4_ASSERT] wlast must be asserted on the correct beat
"sv/axi4_interface.sv", 223: axi4_tb_top.axi4_vif.unnamed$$_18: started at 870500ps failed at 870500ps
	Offending '(w_beat_count == expected_awlen_arr[awlen_head])'
UVM_ERROR sv/axi4_interface.sv(224) @ 871000: reporter [AXI4_ASSERT] wlast must be asserted on the correct beat
UVM_INFO sv/axi4_monitor.sv(233) @ 873000: uvm_test_top.m_env.m_master_agent.m_monitor [axi4_monitor] Write Complete: ID=1, ADDR=0x10000aec, RESP=OKAY, Latency=5 cycles
UVM_INFO sv/axi4_monitor.sv(233) @ 877000: uvm_test_top.m_env.m_master_agent.m_monitor [axi4_monitor] Write Complete: ID=9, ADDR=0x10000b00, RESP=OKAY, Latency=3 cycles
"sv/axi4_interface.sv", 223: axi4_tb_top.axi4_vif.unnamed$$_18: started at 885500ps failed at 885500ps
	Offending '(w_beat_count == expected_awlen_arr[awlen_head])'
UVM_ERROR sv/axi4_interface.sv(224) @ 886000: reporter [AXI4_ASSERT] wlast must be asserted on the correct beat
"sv/axi4_interface.sv", 223: axi4_tb_top.axi4_vif.unnamed$$_18: started at 890500ps failed at 890500ps
	Offending '(w_beat_count == expected_awlen_arr[awlen_head])'
UVM_ERROR sv/axi4_interface.sv(224) @ 891000: reporter [AXI4_ASSERT] wlast must be asserted on the correct beat
UVM_INFO sv/axi4_monitor.sv(233) @ 892000: uvm_test_top.m_env.m_master_agent.m_monitor [axi4_monitor] Write Complete: ID=8, ADDR=0x10000b0c, RESP=OKAY, Latency=12 cycles
UVM_INFO sv/axi4_monitor.sv(233) @ 897000: uvm_test_top.m_env.m_master_agent.m_monitor [axi4_monitor] Write Complete: ID=12, ADDR=0x10000b3c, RESP=OKAY, Latency=4 cycles
"sv/axi4_interface.sv", 223: axi4_tb_top.axi4_vif.unnamed$$_18: started at 905500ps failed at 905500ps
	Offending '(w_beat_count == expected_awlen_arr[awlen_head])'
UVM_ERROR sv/axi4_interface.sv(224) @ 906000: reporter [AXI4_ASSERT] wlast must be asserted on the correct beat
UVM_INFO sv/axi4_monitor.sv(233) @ 912000: uvm_test_top.m_env.m_master_agent.m_monitor [axi4_monitor] Write Complete: ID=6, ADDR=0x10000b4c, RESP=OKAY, Latency=13 cycles
"sv/axi4_interface.sv", 223: axi4_tb_top.axi4_vif.unnamed$$_18: started at 912500ps failed at 912500ps
	Offending '(w_beat_count == expected_awlen_arr[awlen_head])'
UVM_ERROR sv/axi4_interface.sv(224) @ 913000: reporter [AXI4_ASSERT] wlast must be asserted on the correct beat
UVM_INFO sv/axi4_monitor.sv(233) @ 919000: uvm_test_top.m_env.m_master_agent.m_monitor [axi4_monitor] Write Complete: ID=8, ADDR=0x10000b80, RESP=OKAY, Latency=6 cycles
"sv/axi4_interface.sv", 223: axi4_tb_top.axi4_vif.unnamed$$_18: started at 929500ps failed at 929500ps
	Offending '(w_beat_count == expected_awlen_arr[awlen_head])'
UVM_ERROR sv/axi4_interface.sv(224) @ 930000: reporter [AXI4_ASSERT] wlast must be asserted on the correct beat
UVM_INFO sv/axi4_monitor.sv(233) @ 936000: uvm_test_top.m_env.m_master_agent.m_monitor [axi4_monitor] Write Complete: ID=7, ADDR=0x10000b98, RESP=OKAY, Latency=16 cycles
"sv/axi4_interface.sv", 223: axi4_tb_top.axi4_vif.unnamed$$_18: started at 938500ps failed at 938500ps
	Offending '(w_beat_count == expected_awlen_arr[awlen_head])'
UVM_ERROR sv/axi4_interface.sv(224) @ 939000: reporter [AXI4_ASSERT] wlast must be asserted on the correct beat
UVM_INFO sv/axi4_monitor.sv(233) @ 945000: uvm_test_top.m_env.m_master_agent.m_monitor [axi4_monitor] Write Complete: ID=6, ADDR=0x10000bd8, RESP=OKAY, Latency=8 cycles
"sv/axi4_interface.sv", 223: axi4_tb_top.axi4_vif.unnamed$$_18: started at 949500ps failed at 949500ps
	Offending '(w_beat_count == expected_awlen_arr[awlen_head])'
UVM_ERROR sv/axi4_interface.sv(224) @ 950000: reporter [AXI4_ASSERT] wlast must be asserted on the correct beat
"sv/axi4_interface.sv", 223: axi4_tb_top.axi4_vif.unnamed$$_18: started at 954500ps failed at 954500ps
	Offending '(w_beat_count == expected_awlen_arr[awlen_head])'
UVM_ERROR sv/axi4_interface.sv(224) @ 955000: reporter [AXI4_ASSERT] wlast must be asserted on the correct beat
UVM_INFO sv/axi4_monitor.sv(233) @ 956000: uvm_test_top.m_env.m_master_agent.m_monitor [axi4_monitor] Write Complete: ID=4, ADDR=0x10000bf8, RESP=OKAY, Latency=10 cycles
UVM_INFO sv/seq_lib.sv(3411) @ 956000: uvm_test_top.m_env.m_master_agent.m_sequencer@@seq [axi4_data_first_sequence] Write progress: 100/500 transactions
UVM_INFO sv/axi4_monitor.sv(233) @ 961000: uvm_test_top.m_env.m_master_agent.m_monitor [axi4_monitor] Write Complete: ID=3, ADDR=0x10000c20, RESP=OKAY, Latency=4 cycles
"sv/axi4_interface.sv", 223: axi4_tb_top.axi4_vif.unnamed$$_18: started at 970500ps failed at 970500ps
	Offending '(w_beat_count == expected_awlen_arr[awlen_head])'
UVM_ERROR sv/axi4_interface.sv(224) @ 971000: reporter [AXI4_ASSERT] wlast must be asserted on the correct beat
"sv/axi4_interface.sv", 223: axi4_tb_top.axi4_vif.unnamed$$_18: started at 974500ps failed at 974500ps
	Offending '(w_beat_count == expected_awlen_arr[awlen_head])'
UVM_ERROR sv/axi4_interface.sv(224) @ 975000: reporter [AXI4_ASSERT] wlast must be asserted on the correct beat
UVM_INFO sv/axi4_monitor.sv(233) @ 977000: uvm_test_top.m_env.m_master_agent.m_monitor [axi4_monitor] Write Complete: ID=12, ADDR=0x10000c30, RESP=OKAY, Latency=14 cycles
UVM_INFO sv/axi4_monitor.sv(233) @ 981000: uvm_test_top.m_env.m_master_agent.m_monitor [axi4_monitor] Write Complete: ID=10, ADDR=0x10000c68, RESP=OKAY, Latency=3 cycles
"sv/axi4_interface.sv", 223: axi4_tb_top.axi4_vif.unnamed$$_18: started at 989500ps failed at 989500ps
	Offending '(w_beat_count == expected_awlen_arr[awlen_head])'
UVM_ERROR sv/axi4_interface.sv(224) @ 990000: reporter [AXI4_ASSERT] wlast must be asserted on the correct beat
UVM_INFO sv/axi4_monitor.sv(233) @ 996000: uvm_test_top.m_env.m_master_agent.m_monitor [axi4_monitor] Write Complete: ID=11, ADDR=0x10000c74, RESP=OKAY, Latency=12 cycles
"sv/axi4_interface.sv", 223: axi4_tb_top.axi4_vif.unnamed$$_18: started at 995500ps failed at 995500ps
	Offending '(w_beat_count == expected_awlen_arr[awlen_head])'
UVM_ERROR sv/axi4_interface.sv(224) @ 996000: reporter [AXI4_ASSERT] wlast must be asserted on the correct beat
"sv/axi4_interface.sv", 223: axi4_tb_top.axi4_vif.unnamed$$_18: started at 997500ps failed at 997500ps
	Offending '(w_beat_count == expected_awlen_arr[awlen_head])'
UVM_ERROR sv/axi4_interface.sv(224) @ 998000: reporter [AXI4_ASSERT] wlast must be asserted on the correct beat
UVM_INFO sv/axi4_monitor.sv(233) @ 1002000: uvm_test_top.m_env.m_master_agent.m_monitor [axi4_monitor] Write Complete: ID=0, ADDR=0x10000ca4, RESP=OKAY, Latency=5 cycles
UVM_INFO sv/axi4_monitor.sv(233) @ 1004000: uvm_test_top.m_env.m_master_agent.m_monitor [axi4_monitor] Write Complete: ID=13, ADDR=0x10000cb8, RESP=OKAY, Latency=1 cycles
"sv/axi4_interface.sv", 223: axi4_tb_top.axi4_vif.unnamed$$_18: started at 1014500ps failed at 1014500ps
	Offending '(w_beat_count == expected_awlen_arr[awlen_head])'
UVM_ERROR sv/axi4_interface.sv(224) @ 1015000: reporter [AXI4_ASSERT] wlast must be asserted on the correct beat
UVM_INFO sv/axi4_monitor.sv(233) @ 1021000: uvm_test_top.m_env.m_master_agent.m_monitor [axi4_monitor] Write Complete: ID=10, ADDR=0x10000cbc, RESP=OKAY, Latency=12 cycles
"sv/axi4_interface.sv", 223: axi4_tb_top.axi4_vif.unnamed$$_18: started at 1025500ps failed at 1025500ps
	Offending '(w_beat_count == expected_awlen_arr[awlen_head])'
UVM_ERROR sv/axi4_interface.sv(224) @ 1026000: reporter [AXI4_ASSERT] wlast must be asserted on the correct beat
UVM_INFO sv/axi4_monitor.sv(233) @ 1032000: uvm_test_top.m_env.m_master_agent.m_monitor [axi4_monitor] Write Complete: ID=15, ADDR=0x10000cec, RESP=OKAY, Latency=10 cycles
"sv/axi4_interface.sv", 223: axi4_tb_top.axi4_vif.unnamed$$_18: started at 1042500ps failed at 1042500ps
	Offending '(w_beat_count == expected_awlen_arr[awlen_head])'
UVM_ERROR sv/axi4_interface.sv(224) @ 1043000: reporter [AXI4_ASSERT] wlast must be asserted on the correct beat
UVM_INFO sv/axi4_monitor.sv(233) @ 1049000: uvm_test_top.m_env.m_master_agent.m_monitor [axi4_monitor] Write Complete: ID=14, ADDR=0x10000d14, RESP=OKAY, Latency=16 cycles
"sv/axi4_interface.sv", 223: axi4_tb_top.axi4_vif.unnamed$$_18: started at 1056500ps failed at 1056500ps
	Offending '(w_beat_count == expected_awlen_arr[awlen_head])'
UVM_ERROR sv/axi4_interface.sv(224) @ 1057000: reporter [AXI4_ASSERT] wlast must be asserted on the correct beat
UVM_INFO sv/axi4_monitor.sv(233) @ 1063000: uvm_test_top.m_env.m_master_agent.m_monitor [axi4_monitor] Write Complete: ID=3, ADDR=0x10000d54, RESP=OKAY, Latency=13 cycles
"sv/axi4_interface.sv", 223: axi4_tb_top.axi4_vif.unnamed$$_18: started at 1073500ps failed at 1073500ps
	Offending '(w_beat_count == expected_awlen_arr[awlen_head])'
UVM_ERROR sv/axi4_interface.sv(224) @ 1074000: reporter [AXI4_ASSERT] wlast must be asserted on the correct beat
UVM_INFO sv/axi4_monitor.sv(233) @ 1080000: uvm_test_top.m_env.m_master_agent.m_monitor [axi4_monitor] Write Complete: ID=10, ADDR=0x10000d88, RESP=OKAY, Latency=16 cycles
"sv/axi4_interface.sv", 223: axi4_tb_top.axi4_vif.unnamed$$_18: started at 1089500ps failed at 1089500ps
	Offending '(w_beat_count == expected_awlen_arr[awlen_head])'
UVM_ERROR sv/axi4_interface.sv(224) @ 1090000: reporter [AXI4_ASSERT] wlast must be asserted on the correct beat
UVM_INFO sv/axi4_monitor.sv(233) @ 1096000: uvm_test_top.m_env.m_master_agent.m_monitor [axi4_monitor] Write Complete: ID=15, ADDR=0x10000dc8, RESP=OKAY, Latency=15 cycles
"sv/axi4_interface.sv", 223: axi4_tb_top.axi4_vif.unnamed$$_18: started at 1099500ps failed at 1099500ps
	Offending '(w_beat_count == expected_awlen_arr[awlen_head])'
UVM_ERROR sv/axi4_interface.sv(224) @ 1100000: reporter [AXI4_ASSERT] wlast must be asserted on the correct beat
UVM_INFO sv/axi4_monitor.sv(233) @ 1106000: uvm_test_top.m_env.m_master_agent.m_monitor [axi4_monitor] Write Complete: ID=15, ADDR=0x10000e04, RESP=OKAY, Latency=9 cycles
"sv/axi4_interface.sv", 223: axi4_tb_top.axi4_vif.unnamed$$_18: started at 1108500ps failed at 1108500ps
	Offending '(w_beat_count == expected_awlen_arr[awlen_head])'
UVM_ERROR sv/axi4_interface.sv(224) @ 1109000: reporter [AXI4_ASSERT] wlast must be asserted on the correct beat
UVM_INFO sv/axi4_monitor.sv(233) @ 1115000: uvm_test_top.m_env.m_master_agent.m_monitor [axi4_monitor] Write Complete: ID=7, ADDR=0x10000e28, RESP=OKAY, Latency=8 cycles
UVM_INFO sv/axi4_monitor.sv(233) @ 1124000: uvm_test_top.m_env.m_master_agent.m_monitor [axi4_monitor] Write Complete: ID=2, ADDR=0x10000e48, RESP=OKAY, Latency=8 cycles
"sv/axi4_interface.sv", 223: axi4_tb_top.axi4_vif.unnamed$$_18: started at 1125500ps failed at 1125500ps
	Offending '(w_beat_count == expected_awlen_arr[awlen_head])'
UVM_ERROR sv/axi4_interface.sv(224) @ 1126000: reporter [AXI4_ASSERT] wlast must be asserted on the correct beat
UVM_INFO sv/axi4_monitor.sv(233) @ 1132000: uvm_test_top.m_env.m_master_agent.m_monitor [axi4_monitor] Write Complete: ID=5, ADDR=0x10000e68, RESP=OKAY, Latency=7 cycles
"sv/axi4_interface.sv", 223: axi4_tb_top.axi4_vif.unnamed$$_18: started at 1140500ps failed at 1140500ps
	Offending '(w_beat_count == expected_awlen_arr[awlen_head])'
UVM_ERROR sv/axi4_interface.sv(224) @ 1141000: reporter [AXI4_ASSERT] wlast must be asserted on the correct beat
UVM_INFO sv/axi4_monitor.sv(233) @ 1147000: uvm_test_top.m_env.m_master_agent.m_monitor [axi4_monitor] Write Complete: ID=10, ADDR=0x10000e84, RESP=OKAY, Latency=14 cycles
"sv/axi4_interface.sv", 223: axi4_tb_top.axi4_vif.unnamed$$_18: started at 1154500ps failed at 1154500ps
	Offending '(w_beat_count == expected_awlen_arr[awlen_head])'
UVM_ERROR sv/axi4_interface.sv(224) @ 1155000: reporter [AXI4_ASSERT] wlast must be asserted on the correct beat
"sv/axi4_interface.sv", 223: axi4_tb_top.axi4_vif.unnamed$$_18: started at 1156500ps failed at 1156500ps
	Offending '(w_beat_count == expected_awlen_arr[awlen_head])'
UVM_ERROR sv/axi4_interface.sv(224) @ 1157000: reporter [AXI4_ASSERT] wlast must be asserted on the correct beat
UVM_INFO sv/axi4_monitor.sv(233) @ 1161000: uvm_test_top.m_env.m_master_agent.m_monitor [axi4_monitor] Write Complete: ID=14, ADDR=0x10000ebc, RESP=OKAY, Latency=13 cycles
UVM_INFO sv/axi4_monitor.sv(233) @ 1163000: uvm_test_top.m_env.m_master_agent.m_monitor [axi4_monitor] Write Complete: ID=7, ADDR=0x10000ef0, RESP=OKAY, Latency=1 cycles
"sv/axi4_interface.sv", 223: axi4_tb_top.axi4_vif.unnamed$$_18: started at 1173500ps failed at 1173500ps
	Offending '(w_beat_count == expected_awlen_arr[awlen_head])'
UVM_ERROR sv/axi4_interface.sv(224) @ 1174000: reporter [AXI4_ASSERT] wlast must be asserted on the correct beat
UVM_INFO sv/axi4_monitor.sv(233) @ 1180000: uvm_test_top.m_env.m_master_agent.m_monitor [axi4_monitor] Write Complete: ID=2, ADDR=0x10000ef4, RESP=OKAY, Latency=12 cycles
"sv/axi4_interface.sv", 223: axi4_tb_top.axi4_vif.unnamed$$_18: started at 1188500ps failed at 1188500ps
	Offending '(w_beat_count == expected_awlen_arr[awlen_head])'
UVM_ERROR sv/axi4_interface.sv(224) @ 1189000: reporter [AXI4_ASSERT] wlast must be asserted on the correct beat
UVM_INFO sv/axi4_monitor.sv(233) @ 1195000: uvm_test_top.m_env.m_master_agent.m_monitor [axi4_monitor] Write Complete: ID=3, ADDR=0x10000f24, RESP=OKAY, Latency=14 cycles
"sv/axi4_interface.sv", 223: axi4_tb_top.axi4_vif.unnamed$$_18: started at 1200500ps failed at 1200500ps
	Offending '(w_beat_count == expected_awlen_arr[awlen_head])'
UVM_ERROR sv/axi4_interface.sv(224) @ 1201000: reporter [AXI4_ASSERT] wlast must be asserted on the correct beat
"sv/axi4_interface.sv", 223: axi4_tb_top.axi4_vif.unnamed$$_18: started at 1202500ps failed at 1202500ps
	Offending '(w_beat_count == expected_awlen_arr[awlen_head])'
UVM_ERROR sv/axi4_interface.sv(224) @ 1203000: reporter [AXI4_ASSERT] wlast must be asserted on the correct beat
UVM_INFO sv/axi4_monitor.sv(233) @ 1207000: uvm_test_top.m_env.m_master_agent.m_monitor [axi4_monitor] Write Complete: ID=9, ADDR=0x10000f5c, RESP=OKAY, Latency=11 cycles
UVM_INFO sv/axi4_monitor.sv(233) @ 1209000: uvm_test_top.m_env.m_master_agent.m_monitor [axi4_monitor] Write Complete: ID=1, ADDR=0x10000f88, RESP=OKAY, Latency=1 cycles
"sv/axi4_interface.sv", 223: axi4_tb_top.axi4_vif.unnamed$$_18: started at 1209500ps failed at 1209500ps
	Offending '(w_beat_count == expected_awlen_arr[awlen_head])'
UVM_ERROR sv/axi4_interface.sv(224) @ 1210000: reporter [AXI4_ASSERT] wlast must be asserted on the correct beat
UVM_INFO sv/axi4_monitor.sv(233) @ 1216000: uvm_test_top.m_env.m_master_agent.m_monitor [axi4_monitor] Write Complete: ID=4, ADDR=0x10000f8c, RESP=OKAY, Latency=2 cycles
"sv/axi4_interface.sv", 223: axi4_tb_top.axi4_vif.unnamed$$_18: started at 1226500ps failed at 1226500ps
	Offending '(w_beat_count == expected_awlen_arr[awlen_head])'
UVM_ERROR sv/axi4_interface.sv(224) @ 1227000: reporter [AXI4_ASSERT] wlast must be asserted on the correct beat
UVM_INFO sv/axi4_monitor.sv(233) @ 1233000: uvm_test_top.m_env.m_master_agent.m_monitor [axi4_monitor] Write Complete: ID=6, ADDR=0x10000f94, RESP=OKAY, Latency=13 cycles
"sv/axi4_interface.sv", 223: axi4_tb_top.axi4_vif.unnamed$$_18: started at 1238500ps failed at 1238500ps
	Offending '(w_beat_count == expected_awlen_arr[awlen_head])'
UVM_ERROR sv/axi4_interface.sv(224) @ 1239000: reporter [AXI4_ASSERT] wlast must be asserted on the correct beat
UVM_INFO sv/axi4_master_driver.sv(177) @ 1240000: uvm_test_top.m_env.m_master_agent.m_driver [axi4_master_driver] Splitting burst into 2 sub-bursts
"sv/axi4_interface.sv", 223: axi4_tb_top.axi4_vif.unnamed$$_18: started at 1242500ps failed at 1242500ps
	Offending '(w_beat_count == expected_awlen_arr[awlen_head])'
UVM_ERROR sv/axi4_interface.sv(224) @ 1243000: reporter [AXI4_ASSERT] wlast must be asserted on the correct beat
UVM_INFO sv/axi4_monitor.sv(233) @ 1245000: uvm_test_top.m_env.m_master_agent.m_monitor [axi4_monitor] Write Complete: ID=9, ADDR=0x10000fc8, RESP=OKAY, Latency=11 cycles
UVM_INFO sv/axi4_monitor.sv(233) @ 1249000: uvm_test_top.m_env.m_master_agent.m_monitor [axi4_monitor] Write Complete: ID=0, ADDR=0x10000ff4, RESP=OKAY, Latency=3 cycles
UVM_INFO sv/axi4_monitor.sv(233) @ 1252000: uvm_test_top.m_env.m_master_agent.m_monitor [axi4_monitor] Write Complete: ID=1, ADDR=0x10001000, RESP=OKAY, Latency=1 cycles
"sv/axi4_interface.sv", 223: axi4_tb_top.axi4_vif.unnamed$$_18: started at 1258500ps failed at 1258500ps
	Offending '(w_beat_count == expected_awlen_arr[awlen_head])'
UVM_ERROR sv/axi4_interface.sv(224) @ 1259000: reporter [AXI4_ASSERT] wlast must be asserted on the correct beat
UVM_INFO sv/axi4_monitor.sv(233) @ 1265000: uvm_test_top.m_env.m_master_agent.m_monitor [axi4_monitor] Write Complete: ID=1, ADDR=0x10001004, RESP=OKAY, Latency=8 cycles
"sv/axi4_interface.sv", 223: axi4_tb_top.axi4_vif.unnamed$$_18: started at 1272500ps failed at 1272500ps
	Offending '(w_beat_count == expected_awlen_arr[awlen_head])'
UVM_ERROR sv/axi4_interface.sv(224) @ 1273000: reporter [AXI4_ASSERT] wlast must be asserted on the correct beat
UVM_INFO sv/axi4_monitor.sv(233) @ 1279000: uvm_test_top.m_env.m_master_agent.m_monitor [axi4_monitor] Write Complete: ID=12, ADDR=0x10001024, RESP=OKAY, Latency=13 cycles
"sv/axi4_interface.sv", 223: axi4_tb_top.axi4_vif.unnamed$$_18: started at 1289500ps failed at 1289500ps
	Offending '(w_beat_count == expected_awlen_arr[awlen_head])'
UVM_ERROR sv/axi4_interface.sv(224) @ 1290000: reporter [AXI4_ASSERT] wlast must be asserted on the correct beat
UVM_INFO sv/axi4_monitor.sv(233) @ 1293000: uvm_test_top.m_env.m_master_agent.m_monitor [axi4_monitor] Write Complete: ID=11, ADDR=0x10001058, RESP=OKAY, Latency=13 cycles
UVM_INFO sv/axi4_monitor.sv(233) @ 1296000: uvm_test_top.m_env.m_master_agent.m_monitor [axi4_monitor] Write Complete: ID=8, ADDR=0x1000108c, RESP=OKAY, Latency=2 cycles
"sv/axi4_interface.sv", 223: axi4_tb_top.axi4_vif.unnamed$$_18: started at 1302500ps failed at 1302500ps
	Offending '(w_beat_count == expected_awlen_arr[awlen_head])'
UVM_ERROR sv/axi4_interface.sv(224) @ 1303000: reporter [AXI4_ASSERT] wlast must be asserted on the correct beat
UVM_INFO sv/axi4_monitor.sv(233) @ 1309000: uvm_test_top.m_env.m_master_agent.m_monitor [axi4_monitor] Write Complete: ID=1, ADDR=0x10001094, RESP=OKAY, Latency=9 cycles
"sv/axi4_interface.sv", 223: axi4_tb_top.axi4_vif.unnamed$$_18: started at 1313500ps failed at 1313500ps
	Offending '(w_beat_count == expected_awlen_arr[awlen_head])'
UVM_ERROR sv/axi4_interface.sv(224) @ 1314000: reporter [AXI4_ASSERT] wlast must be asserted on the correct beat
UVM_INFO sv/axi4_monitor.sv(233) @ 1320000: uvm_test_top.m_env.m_master_agent.m_monitor [axi4_monitor] Write Complete: ID=3, ADDR=0x100010b8, RESP=OKAY, Latency=10 cycles
"sv/axi4_interface.sv", 223: axi4_tb_top.axi4_vif.unnamed$$_18: started at 1327500ps failed at 1327500ps
	Offending '(w_beat_count == expected_awlen_arr[awlen_head])'
UVM_ERROR sv/axi4_interface.sv(224) @ 1328000: reporter [AXI4_ASSERT] wlast must be asserted on the correct beat
"sv/axi4_interface.sv", 223: axi4_tb_top.axi4_vif.unnamed$$_18: started at 1332500ps failed at 1332500ps
	Offending '(w_beat_count == expected_awlen_arr[awlen_head])'
UVM_ERROR sv/axi4_interface.sv(224) @ 1333000: reporter [AXI4_ASSERT] wlast must be asserted on the correct beat
UVM_INFO sv/axi4_monitor.sv(233) @ 1334000: uvm_test_top.m_env.m_master_agent.m_monitor [axi4_monitor] Write Complete: ID=11, ADDR=0x100010e0, RESP=OKAY, Latency=13 cycles
UVM_INFO sv/axi4_monitor.sv(233) @ 1339000: uvm_test_top.m_env.m_master_agent.m_monitor [axi4_monitor] Write Complete: ID=8, ADDR=0x10001114, RESP=OKAY, Latency=4 cycles
"sv/axi4_interface.sv", 223: axi4_tb_top.axi4_vif.unnamed$$_18: started at 1349500ps failed at 1349500ps
	Offending '(w_beat_count == expected_awlen_arr[awlen_head])'
UVM_ERROR sv/axi4_interface.sv(224) @ 1350000: reporter [AXI4_ASSERT] wlast must be asserted on the correct beat
UVM_INFO sv/axi4_monitor.sv(233) @ 1356000: uvm_test_top.m_env.m_master_agent.m_monitor [axi4_monitor] Write Complete: ID=14, ADDR=0x10001124, RESP=OKAY, Latency=15 cycles
"sv/axi4_interface.sv", 223: axi4_tb_top.axi4_vif.unnamed$$_18: started at 1357500ps failed at 1357500ps
	Offending '(w_beat_count == expected_awlen_arr[awlen_head])'
UVM_ERROR sv/axi4_interface.sv(224) @ 1358000: reporter [AXI4_ASSERT] wlast must be asserted on the correct beat
UVM_INFO sv/axi4_monitor.sv(233) @ 1364000: uvm_test_top.m_env.m_master_agent.m_monitor [axi4_monitor] Write Complete: ID=13, ADDR=0x10001160, RESP=OKAY, Latency=7 cycles
"sv/axi4_interface.sv", 223: axi4_tb_top.axi4_vif.unnamed$$_18: started at 1364500ps failed at 1364500ps
	Offending '(w_beat_count == expected_awlen_arr[awlen_head])'
UVM_ERROR sv/axi4_interface.sv(224) @ 1365000: reporter [AXI4_ASSERT] wlast must be asserted on the correct beat
UVM_INFO sv/axi4_monitor.sv(233) @ 1371000: uvm_test_top.m_env.m_master_agent.m_monitor [axi4_monitor] Write Complete: ID=4, ADDR=0x1000117c, RESP=OKAY, Latency=6 cycles
"sv/axi4_interface.sv", 223: axi4_tb_top.axi4_vif.unnamed$$_18: started at 1370500ps failed at 1370500ps
	Offending '(w_beat_count == expected_awlen_arr[awlen_head])'
UVM_ERROR sv/axi4_interface.sv(224) @ 1371000: reporter [AXI4_ASSERT] wlast must be asserted on the correct beat
UVM_INFO sv/axi4_monitor.sv(233) @ 1377000: uvm_test_top.m_env.m_master_agent.m_monitor [axi4_monitor] Write Complete: ID=8, ADDR=0x10001194, RESP=OKAY, Latency=5 cycles
"sv/axi4_interface.sv", 223: axi4_tb_top.axi4_vif.unnamed$$_18: started at 1377500ps failed at 1377500ps
	Offending '(w_beat_count == expected_awlen_arr[awlen_head])'
UVM_ERROR sv/axi4_interface.sv(224) @ 1378000: reporter [AXI4_ASSERT] wlast must be asserted on the correct beat
UVM_INFO sv/axi4_monitor.sv(233) @ 1384000: uvm_test_top.m_env.m_master_agent.m_monitor [axi4_monitor] Write Complete: ID=1, ADDR=0x100011a8, RESP=OKAY, Latency=6 cycles
"sv/axi4_interface.sv", 223: axi4_tb_top.axi4_vif.unnamed$$_18: started at 1390500ps failed at 1390500ps
	Offending '(w_beat_count == expected_awlen_arr[awlen_head])'
UVM_ERROR sv/axi4_interface.sv(224) @ 1391000: reporter [AXI4_ASSERT] wlast must be asserted on the correct beat
UVM_INFO sv/axi4_monitor.sv(233) @ 1397000: uvm_test_top.m_env.m_master_agent.m_monitor [axi4_monitor] Write Complete: ID=12, ADDR=0x100011c0, RESP=OKAY, Latency=12 cycles
"sv/axi4_interface.sv", 223: axi4_tb_top.axi4_vif.unnamed$$_18: started at 1397500ps failed at 1397500ps
	Offending '(w_beat_count == expected_awlen_arr[awlen_head])'
UVM_ERROR sv/axi4_interface.sv(224) @ 1398000: reporter [AXI4_ASSERT] wlast must be asserted on the correct beat
"sv/axi4_interface.sv", 223: axi4_tb_top.axi4_vif.unnamed$$_18: started at 1399500ps failed at 1399500ps
	Offending '(w_beat_count == expected_awlen_arr[awlen_head])'
UVM_ERROR sv/axi4_interface.sv(224) @ 1400000: reporter [AXI4_ASSERT] wlast must be asserted on the correct beat
UVM_INFO sv/axi4_monitor.sv(233) @ 1404000: uvm_test_top.m_env.m_master_agent.m_monitor [axi4_monitor] Write Complete: ID=9, ADDR=0x100011f0, RESP=OKAY, Latency=6 cycles
UVM_INFO sv/axi4_monitor.sv(233) @ 1406000: uvm_test_top.m_env.m_master_agent.m_monitor [axi4_monitor] Write Complete: ID=7, ADDR=0x10001208, RESP=OKAY, Latency=1 cycles
"sv/axi4_interface.sv", 223: axi4_tb_top.axi4_vif.unnamed$$_18: started at 1413500ps failed at 1413500ps
	Offending '(w_beat_count == expected_awlen_arr[awlen_head])'
UVM_ERROR sv/axi4_interface.sv(224) @ 1414000: reporter [AXI4_ASSERT] wlast must be asserted on the correct beat
UVM_INFO sv/axi4_monitor.sv(233) @ 1420000: uvm_test_top.m_env.m_master_agent.m_monitor [axi4_monitor] Write Complete: ID=8, ADDR=0x1000120c, RESP=OKAY, Latency=9 cycles
"sv/axi4_interface.sv", 223: axi4_tb_top.axi4_vif.unnamed$$_18: started at 1420500ps failed at 1420500ps
	Offending '(w_beat_count == expected_awlen_arr[awlen_head])'
UVM_ERROR sv/axi4_interface.sv(224) @ 1421000: reporter [AXI4_ASSERT] wlast must be asserted on the correct beat
"sv/axi4_interface.sv", 223: axi4_tb_top.axi4_vif.unnamed$$_18: started at 1425500ps failed at 1425500ps
	Offending '(w_beat_count == expected_awlen_arr[awlen_head])'
UVM_ERROR sv/axi4_interface.sv(224) @ 1426000: reporter [AXI4_ASSERT] wlast must be asserted on the correct beat
UVM_INFO sv/axi4_monitor.sv(233) @ 1427000: uvm_test_top.m_env.m_master_agent.m_monitor [axi4_monitor] Write Complete: ID=4, ADDR=0x10001230, RESP=OKAY, Latency=6 cycles
"sv/axi4_interface.sv", 223: axi4_tb_top.axi4_vif.unnamed$$_18: started at 1428500ps failed at 1428500ps
	Offending '(w_beat_count == expected_awlen_arr[awlen_head])'
UVM_ERROR sv/axi4_interface.sv(224) @ 1429000: reporter [AXI4_ASSERT] wlast must be asserted on the correct beat
UVM_INFO sv/axi4_monitor.sv(233) @ 1432000: uvm_test_top.m_env.m_master_agent.m_monitor [axi4_monitor] Write Complete: ID=9, ADDR=0x10001248, RESP=OKAY, Latency=4 cycles
UVM_INFO sv/axi4_monitor.sv(233) @ 1435000: uvm_test_top.m_env.m_master_agent.m_monitor [axi4_monitor] Write Complete: ID=3, ADDR=0x10001258, RESP=OKAY, Latency=1 cycles
"sv/axi4_interface.sv", 223: axi4_tb_top.axi4_vif.unnamed$$_18: started at 1447500ps failed at 1447500ps
	Offending '(w_beat_count == expected_awlen_arr[awlen_head])'
UVM_ERROR sv/axi4_interface.sv(224) @ 1448000: reporter [AXI4_ASSERT] wlast must be asserted on the correct beat
UVM_INFO sv/axi4_monitor.sv(233) @ 1454000: uvm_test_top.m_env.m_master_agent.m_monitor [axi4_monitor] Write Complete: ID=5, ADDR=0x1000125c, RESP=OKAY, Latency=14 cycles
"sv/axi4_interface.sv", 223: axi4_tb_top.axi4_vif.unnamed$$_18: started at 1459500ps failed at 1459500ps
	Offending '(w_beat_count == expected_awlen_arr[awlen_head])'
UVM_ERROR sv/axi4_interface.sv(224) @ 1460000: reporter [AXI4_ASSERT] wlast must be asserted on the correct beat
UVM_INFO sv/axi4_monitor.sv(233) @ 1466000: uvm_test_top.m_env.m_master_agent.m_monitor [axi4_monitor] Write Complete: ID=3, ADDR=0x10001294, RESP=OKAY, Latency=11 cycles
"sv/axi4_interface.sv", 223: axi4_tb_top.axi4_vif.unnamed$$_18: started at 1473500ps failed at 1473500ps
	Offending '(w_beat_count == expected_awlen_arr[awlen_head])'
UVM_ERROR sv/axi4_interface.sv(224) @ 1474000: reporter [AXI4_ASSERT] wlast must be asserted on the correct beat
UVM_INFO sv/axi4_monitor.sv(233) @ 1480000: uvm_test_top.m_env.m_master_agent.m_monitor [axi4_monitor] Write Complete: ID=13, ADDR=0x100012c0, RESP=OKAY, Latency=13 cycles
"sv/axi4_interface.sv", 223: axi4_tb_top.axi4_vif.unnamed$$_18: started at 1486500ps failed at 1486500ps
	Offending '(w_beat_count == expected_awlen_arr[awlen_head])'
UVM_ERROR sv/axi4_interface.sv(224) @ 1487000: reporter [AXI4_ASSERT] wlast must be asserted on the correct beat
UVM_INFO sv/axi4_monitor.sv(233) @ 1493000: uvm_test_top.m_env.m_master_agent.m_monitor [axi4_monitor] Write Complete: ID=2, ADDR=0x100012f4, RESP=OKAY, Latency=12 cycles
"sv/axi4_interface.sv", 223: axi4_tb_top.axi4_vif.unnamed$$_18: started at 1495500ps failed at 1495500ps
	Offending '(w_beat_count == expected_awlen_arr[awlen_head])'
UVM_ERROR sv/axi4_interface.sv(224) @ 1496000: reporter [AXI4_ASSERT] wlast must be asserted on the correct beat
"sv/axi4_interface.sv", 223: axi4_tb_top.axi4_vif.unnamed$$_18: started at 1500500ps failed at 1500500ps
	Offending '(w_beat_count == expected_awlen_arr[awlen_head])'
UVM_ERROR sv/axi4_interface.sv(224) @ 1501000: reporter [AXI4_ASSERT] wlast must be asserted on the correct beat
UVM_INFO sv/axi4_monitor.sv(233) @ 1502000: uvm_test_top.m_env.m_master_agent.m_monitor [axi4_monitor] Write Complete: ID=11, ADDR=0x10001324, RESP=OKAY, Latency=8 cycles
UVM_INFO sv/axi4_monitor.sv(233) @ 1507000: uvm_test_top.m_env.m_master_agent.m_monitor [axi4_monitor] Write Complete: ID=9, ADDR=0x10001344, RESP=OKAY, Latency=4 cycles
"sv/axi4_interface.sv", 223: axi4_tb_top.axi4_vif.unnamed$$_18: started at 1518500ps failed at 1518500ps
	Offending '(w_beat_count == expected_awlen_arr[awlen_head])'
UVM_ERROR sv/axi4_interface.sv(224) @ 1519000: reporter [AXI4_ASSERT] wlast must be asserted on the correct beat
UVM_INFO sv/axi4_monitor.sv(233) @ 1525000: uvm_test_top.m_env.m_master_agent.m_monitor [axi4_monitor] Write Complete: ID=8, ADDR=0x10001354, RESP=OKAY, Latency=16 cycles
"sv/axi4_interface.sv", 223: axi4_tb_top.axi4_vif.unnamed$$_18: started at 1524500ps failed at 1524500ps
	Offending '(w_beat_count == expected_awlen_arr[awlen_head])'
UVM_ERROR sv/axi4_interface.sv(224) @ 1525000: reporter [AXI4_ASSERT] wlast must be asserted on the correct beat
UVM_INFO sv/axi4_monitor.sv(233) @ 1531000: uvm_test_top.m_env.m_master_agent.m_monitor [axi4_monitor] Write Complete: ID=11, ADDR=0x10001394, RESP=OKAY, Latency=5 cycles
"sv/axi4_interface.sv", 223: axi4_tb_top.axi4_vif.unnamed$$_18: started at 1539500ps failed at 1539500ps
	Offending '(w_beat_count == expected_awlen_arr[awlen_head])'
UVM_ERROR sv/axi4_interface.sv(224) @ 1540000: reporter [AXI4_ASSERT] wlast must be asserted on the correct beat
UVM_INFO sv/axi4_monitor.sv(233) @ 1546000: uvm_test_top.m_env.m_master_agent.m_monitor [axi4_monitor] Write Complete: ID=7, ADDR=0x100013a8, RESP=OKAY, Latency=14 cycles
"sv/axi4_interface.sv", 223: axi4_tb_top.axi4_vif.unnamed$$_18: started at 1553500ps failed at 1553500ps
	Offending '(w_beat_count == expected_awlen_arr[awlen_head])'
UVM_ERROR sv/axi4_interface.sv(224) @ 1554000: reporter [AXI4_ASSERT] wlast must be asserted on the correct beat
UVM_INFO sv/axi4_monitor.sv(233) @ 1560000: uvm_test_top.m_env.m_master_agent.m_monitor [axi4_monitor] Write Complete: ID=12, ADDR=0x100013e0, RESP=OKAY, Latency=13 cycles
"sv/axi4_interface.sv", 223: axi4_tb_top.axi4_vif.unnamed$$_18: started at 1559500ps failed at 1559500ps
	Offending '(w_beat_count == expected_awlen_arr[awlen_head])'
UVM_ERROR sv/axi4_interface.sv(224) @ 1560000: reporter [AXI4_ASSERT] wlast must be asserted on the correct beat
UVM_INFO sv/axi4_monitor.sv(233) @ 1566000: uvm_test_top.m_env.m_master_agent.m_monitor [axi4_monitor] Write Complete: ID=10, ADDR=0x10001414, RESP=OKAY, Latency=5 cycles
"sv/axi4_interface.sv", 223: axi4_tb_top.axi4_vif.unnamed$$_18: started at 1566500ps failed at 1566500ps
	Offending '(w_beat_count == expected_awlen_arr[awlen_head])'
UVM_ERROR sv/axi4_interface.sv(224) @ 1567000: reporter [AXI4_ASSERT] wlast must be asserted on the correct beat
UVM_INFO sv/axi4_monitor.sv(233) @ 1573000: uvm_test_top.m_env.m_master_agent.m_monitor [axi4_monitor] Write Complete: ID=2, ADDR=0x10001428, RESP=OKAY, Latency=6 cycles
"sv/axi4_interface.sv", 223: axi4_tb_top.axi4_vif.unnamed$$_18: started at 1576500ps failed at 1576500ps
	Offending '(w_beat_count == expected_awlen_arr[awlen_head])'
UVM_ERROR sv/axi4_interface.sv(224) @ 1577000: reporter [AXI4_ASSERT] wlast must be asserted on the correct beat
UVM_INFO sv/axi4_monitor.sv(233) @ 1583000: uvm_test_top.m_env.m_master_agent.m_monitor [axi4_monitor] Write Complete: ID=12, ADDR=0x10001440, RESP=OKAY, Latency=9 cycles
"sv/axi4_interface.sv", 223: axi4_tb_top.axi4_vif.unnamed$$_18: started at 1582500ps failed at 1582500ps
	Offending '(w_beat_count == expected_awlen_arr[awlen_head])'
UVM_ERROR sv/axi4_interface.sv(224) @ 1583000: reporter [AXI4_ASSERT] wlast must be asserted on the correct beat
UVM_INFO sv/axi4_monitor.sv(233) @ 1589000: uvm_test_top.m_env.m_master_agent.m_monitor [axi4_monitor] Write Complete: ID=2, ADDR=0x10001464, RESP=OKAY, Latency=5 cycles
"sv/axi4_interface.sv", 223: axi4_tb_top.axi4_vif.unnamed$$_18: started at 1591500ps failed at 1591500ps
	Offending '(w_beat_count == expected_awlen_arr[awlen_head])'
UVM_ERROR sv/axi4_interface.sv(224) @ 1592000: reporter [AXI4_ASSERT] wlast must be asserted on the correct beat
UVM_INFO sv/axi4_monitor.sv(233) @ 1598000: uvm_test_top.m_env.m_master_agent.m_monitor [axi4_monitor] Write Complete: ID=2, ADDR=0x10001478, RESP=OKAY, Latency=8 cycles
"sv/axi4_interface.sv", 223: axi4_tb_top.axi4_vif.unnamed$$_18: started at 1607500ps failed at 1607500ps
	Offending '(w_beat_count == expected_awlen_arr[awlen_head])'
UVM_ERROR sv/axi4_interface.sv(224) @ 1608000: reporter [AXI4_ASSERT] wlast must be asserted on the correct beat
UVM_INFO sv/axi4_monitor.sv(233) @ 1614000: uvm_test_top.m_env.m_master_agent.m_monitor [axi4_monitor] Write Complete: ID=15, ADDR=0x10001498, RESP=OKAY, Latency=15 cycles
"sv/axi4_interface.sv", 223: axi4_tb_top.axi4_vif.unnamed$$_18: started at 1619500ps failed at 1619500ps
	Offending '(w_beat_count == expected_awlen_arr[awlen_head])'
UVM_ERROR sv/axi4_interface.sv(224) @ 1620000: reporter [AXI4_ASSERT] wlast must be asserted on the correct beat
UVM_INFO sv/axi4_monitor.sv(233) @ 1626000: uvm_test_top.m_env.m_master_agent.m_monitor [axi4_monitor] Write Complete: ID=12, ADDR=0x100014d4, RESP=OKAY, Latency=11 cycles
"sv/axi4_interface.sv", 223: axi4_tb_top.axi4_vif.unnamed$$_18: started at 1625500ps failed at 1625500ps
	Offending '(w_beat_count == expected_awlen_arr[awlen_head])'
UVM_ERROR sv/axi4_interface.sv(224) @ 1626000: reporter [AXI4_ASSERT] wlast must be asserted on the correct beat
UVM_INFO sv/axi4_monitor.sv(233) @ 1632000: uvm_test_top.m_env.m_master_agent.m_monitor [axi4_monitor] Write Complete: ID=0, ADDR=0x10001500, RESP=OKAY, Latency=5 cycles
"sv/axi4_interface.sv", 223: axi4_tb_top.axi4_vif.unnamed$$_18: started at 1637500ps failed at 1637500ps
	Offending '(w_beat_count == expected_awlen_arr[awlen_head])'
UVM_ERROR sv/axi4_interface.sv(224) @ 1638000: reporter [AXI4_ASSERT] wlast must be asserted on the correct beat
"sv/axi4_interface.sv", 223: axi4_tb_top.axi4_vif.unnamed$$_18: started at 1640500ps failed at 1640500ps
	Offending '(w_beat_count == expected_awlen_arr[awlen_head])'
UVM_ERROR sv/axi4_interface.sv(224) @ 1641000: reporter [AXI4_ASSERT] wlast must be asserted on the correct beat
UVM_INFO sv/axi4_monitor.sv(233) @ 1644000: uvm_test_top.m_env.m_master_agent.m_monitor [axi4_monitor] Write Complete: ID=15, ADDR=0x10001514, RESP=OKAY, Latency=11 cycles
UVM_INFO sv/axi4_monitor.sv(233) @ 1647000: uvm_test_top.m_env.m_master_agent.m_monitor [axi4_monitor] Write Complete: ID=4, ADDR=0x10001540, RESP=OKAY, Latency=2 cycles
"sv/axi4_interface.sv", 223: axi4_tb_top.axi4_vif.unnamed$$_18: started at 1654500ps failed at 1654500ps
	Offending '(w_beat_count == expected_awlen_arr[awlen_head])'
UVM_ERROR sv/axi4_interface.sv(224) @ 1655000: reporter [AXI4_ASSERT] wlast must be asserted on the correct beat
"sv/axi4_interface.sv", 223: axi4_tb_top.axi4_vif.unnamed$$_18: started at 1656500ps failed at 1656500ps
	Offending '(w_beat_count == expected_awlen_arr[awlen_head])'
UVM_ERROR sv/axi4_interface.sv(224) @ 1657000: reporter [AXI4_ASSERT] wlast must be asserted on the correct beat
UVM_INFO sv/axi4_monitor.sv(233) @ 1661000: uvm_test_top.m_env.m_master_agent.m_monitor [axi4_monitor] Write Complete: ID=11, ADDR=0x10001548, RESP=OKAY, Latency=10 cycles
UVM_INFO sv/axi4_monitor.sv(233) @ 1663000: uvm_test_top.m_env.m_master_agent.m_monitor [axi4_monitor] Write Complete: ID=2, ADDR=0x10001570, RESP=OKAY, Latency=1 cycles
"sv/axi4_interface.sv", 223: axi4_tb_top.axi4_vif.unnamed$$_18: started at 1665500ps failed at 1665500ps
	Offending '(w_beat_count == expected_awlen_arr[awlen_head])'
UVM_ERROR sv/axi4_interface.sv(224) @ 1666000: reporter [AXI4_ASSERT] wlast must be asserted on the correct beat
UVM_INFO sv/axi4_monitor.sv(233) @ 1672000: uvm_test_top.m_env.m_master_agent.m_monitor [axi4_monitor] Write Complete: ID=8, ADDR=0x10001574, RESP=OKAY, Latency=4 cycles
"sv/axi4_interface.sv", 223: axi4_tb_top.axi4_vif.unnamed$$_18: started at 1679500ps failed at 1679500ps
	Offending '(w_beat_count == expected_awlen_arr[awlen_head])'
UVM_ERROR sv/axi4_interface.sv(224) @ 1680000: reporter [AXI4_ASSERT] wlast must be asserted on the correct beat
UVM_INFO sv/axi4_monitor.sv(233) @ 1686000: uvm_test_top.m_env.m_master_agent.m_monitor [axi4_monitor] Write Complete: ID=4, ADDR=0x10001584, RESP=OKAY, Latency=12 cycles
"sv/axi4_interface.sv", 223: axi4_tb_top.axi4_vif.unnamed$$_18: started at 1691500ps failed at 1691500ps
	Offending '(w_beat_count == expected_awlen_arr[awlen_head])'
UVM_ERROR sv/axi4_interface.sv(224) @ 1692000: reporter [AXI4_ASSERT] wlast must be asserted on the correct beat
UVM_INFO sv/axi4_monitor.sv(233) @ 1698000: uvm_test_top.m_env.m_master_agent.m_monitor [axi4_monitor] Write Complete: ID=6, ADDR=0x100015b4, RESP=OKAY, Latency=11 cycles
UVM_INFO sv/axi4_monitor.sv(233) @ 1710000: uvm_test_top.m_env.m_master_agent.m_monitor [axi4_monitor] Write Complete: ID=4, ADDR=0x100015e0, RESP=OKAY, Latency=11 cycles
"sv/axi4_interface.sv", 223: axi4_tb_top.axi4_vif.unnamed$$_18: started at 1714500ps failed at 1714500ps
	Offending '(w_beat_count == expected_awlen_arr[awlen_head])'
UVM_ERROR sv/axi4_interface.sv(224) @ 1715000: reporter [AXI4_ASSERT] wlast must be asserted on the correct beat
UVM_INFO sv/axi4_monitor.sv(233) @ 1721000: uvm_test_top.m_env.m_master_agent.m_monitor [axi4_monitor] Write Complete: ID=2, ADDR=0x1000160c, RESP=OKAY, Latency=10 cycles
"sv/axi4_interface.sv", 223: axi4_tb_top.axi4_vif.unnamed$$_18: started at 1731500ps failed at 1731500ps
	Offending '(w_beat_count == expected_awlen_arr[awlen_head])'
UVM_ERROR sv/axi4_interface.sv(224) @ 1732000: reporter [AXI4_ASSERT] wlast must be asserted on the correct beat
"sv/axi4_interface.sv", 223: axi4_tb_top.axi4_vif.unnamed$$_18: started at 1733500ps failed at 1733500ps
	Offending '(w_beat_count == expected_awlen_arr[awlen_head])'
UVM_ERROR sv/axi4_interface.sv(224) @ 1734000: reporter [AXI4_ASSERT] wlast must be asserted on the correct beat
UVM_INFO sv/axi4_monitor.sv(233) @ 1738000: uvm_test_top.m_env.m_master_agent.m_monitor [axi4_monitor] Write Complete: ID=3, ADDR=0x10001634, RESP=OKAY, Latency=16 cycles
UVM_INFO sv/axi4_monitor.sv(233) @ 1740000: uvm_test_top.m_env.m_master_agent.m_monitor [axi4_monitor] Write Complete: ID=15, ADDR=0x10001674, RESP=OKAY, Latency=1 cycles
"sv/axi4_interface.sv", 223: axi4_tb_top.axi4_vif.unnamed$$_18: started at 1743500ps failed at 1743500ps
	Offending '(w_beat_count == expected_awlen_arr[awlen_head])'
UVM_ERROR sv/axi4_interface.sv(224) @ 1744000: reporter [AXI4_ASSERT] wlast must be asserted on the correct beat
"sv/axi4_interface.sv", 223: axi4_tb_top.axi4_vif.unnamed$$_18: started at 1745500ps failed at 1745500ps
	Offending '(w_beat_count == expected_awlen_arr[awlen_head])'
UVM_ERROR sv/axi4_interface.sv(224) @ 1746000: reporter [AXI4_ASSERT] wlast must be asserted on the correct beat
UVM_INFO sv/axi4_monitor.sv(233) @ 1750000: uvm_test_top.m_env.m_master_agent.m_monitor [axi4_monitor] Write Complete: ID=10, ADDR=0x10001678, RESP=OKAY, Latency=5 cycles
UVM_INFO sv/axi4_monitor.sv(233) @ 1752000: uvm_test_top.m_env.m_master_agent.m_monitor [axi4_monitor] Write Complete: ID=15, ADDR=0x1000168c, RESP=OKAY, Latency=1 cycles
"sv/axi4_interface.sv", 223: axi4_tb_top.axi4_vif.unnamed$$_18: started at 1761500ps failed at 1761500ps
	Offending '(w_beat_count == expected_awlen_arr[awlen_head])'
UVM_ERROR sv/axi4_interface.sv(224) @ 1762000: reporter [AXI4_ASSERT] wlast must be asserted on the correct beat
UVM_INFO sv/axi4_monitor.sv(233) @ 1768000: uvm_test_top.m_env.m_master_agent.m_monitor [axi4_monitor] Write Complete: ID=13, ADDR=0x10001690, RESP=OKAY, Latency=11 cycles
"sv/axi4_interface.sv", 223: axi4_tb_top.axi4_vif.unnamed$$_18: started at 1768500ps failed at 1768500ps
	Offending '(w_beat_count == expected_awlen_arr[awlen_head])'
UVM_ERROR sv/axi4_interface.sv(224) @ 1769000: reporter [AXI4_ASSERT] wlast must be asserted on the correct beat
UVM_INFO sv/axi4_monitor.sv(233) @ 1775000: uvm_test_top.m_env.m_master_agent.m_monitor [axi4_monitor] Write Complete: ID=0, ADDR=0x100016bc, RESP=OKAY, Latency=6 cycles
"sv/axi4_interface.sv", 223: axi4_tb_top.axi4_vif.unnamed$$_18: started at 1783500ps failed at 1783500ps
	Offending '(w_beat_count == expected_awlen_arr[awlen_head])'
UVM_ERROR sv/axi4_interface.sv(224) @ 1784000: reporter [AXI4_ASSERT] wlast must be asserted on the correct beat
UVM_INFO sv/axi4_monitor.sv(233) @ 1790000: uvm_test_top.m_env.m_master_agent.m_monitor [axi4_monitor] Write Complete: ID=7, ADDR=0x100016d4, RESP=OKAY, Latency=14 cycles
"sv/axi4_interface.sv", 223: axi4_tb_top.axi4_vif.unnamed$$_18: started at 1797500ps failed at 1797500ps
	Offending '(w_beat_count == expected_awlen_arr[awlen_head])'
UVM_ERROR sv/axi4_interface.sv(224) @ 1798000: reporter [AXI4_ASSERT] wlast must be asserted on the correct beat
UVM_INFO sv/axi4_monitor.sv(233) @ 1804000: uvm_test_top.m_env.m_master_agent.m_monitor [axi4_monitor] Write Complete: ID=7, ADDR=0x1000170c, RESP=OKAY, Latency=13 cycles
"sv/axi4_interface.sv", 223: axi4_tb_top.axi4_vif.unnamed$$_18: started at 1806500ps failed at 1806500ps
	Offending '(w_beat_count == expected_awlen_arr[awlen_head])'
UVM_ERROR sv/axi4_interface.sv(224) @ 1807000: reporter [AXI4_ASSERT] wlast must be asserted on the correct beat
UVM_INFO sv/axi4_monitor.sv(233) @ 1813000: uvm_test_top.m_env.m_master_agent.m_monitor [axi4_monitor] Write Complete: ID=0, ADDR=0x10001740, RESP=OKAY, Latency=8 cycles
"sv/axi4_interface.sv", 223: axi4_tb_top.axi4_vif.unnamed$$_18: started at 1823500ps failed at 1823500ps
	Offending '(w_beat_count == expected_awlen_arr[awlen_head])'
UVM_ERROR sv/axi4_interface.sv(224) @ 1824000: reporter [AXI4_ASSERT] wlast must be asserted on the correct beat
UVM_INFO sv/axi4_monitor.sv(233) @ 1830000: uvm_test_top.m_env.m_master_agent.m_monitor [axi4_monitor] Write Complete: ID=11, ADDR=0x10001760, RESP=OKAY, Latency=16 cycles
"sv/axi4_interface.sv", 223: axi4_tb_top.axi4_vif.unnamed$$_18: started at 1835500ps failed at 1835500ps
	Offending '(w_beat_count == expected_awlen_arr[awlen_head])'
UVM_ERROR sv/axi4_interface.sv(224) @ 1836000: reporter [AXI4_ASSERT] wlast must be asserted on the correct beat
UVM_INFO sv/axi4_monitor.sv(233) @ 1842000: uvm_test_top.m_env.m_master_agent.m_monitor [axi4_monitor] Write Complete: ID=5, ADDR=0x100017a0, RESP=OKAY, Latency=11 cycles
"sv/axi4_interface.sv", 223: axi4_tb_top.axi4_vif.unnamed$$_18: started at 1843500ps failed at 1843500ps
	Offending '(w_beat_count == expected_awlen_arr[awlen_head])'
UVM_ERROR sv/axi4_interface.sv(224) @ 1844000: reporter [AXI4_ASSERT] wlast must be asserted on the correct beat
UVM_INFO sv/axi4_monitor.sv(233) @ 1850000: uvm_test_top.m_env.m_master_agent.m_monitor [axi4_monitor] Write Complete: ID=15, ADDR=0x100017cc, RESP=OKAY, Latency=7 cycles
"sv/axi4_interface.sv", 223: axi4_tb_top.axi4_vif.unnamed$$_18: started at 1850500ps failed at 1850500ps
	Offending '(w_beat_count == expected_awlen_arr[awlen_head])'
UVM_ERROR sv/axi4_interface.sv(224) @ 1851000: reporter [AXI4_ASSERT] wlast must be asserted on the correct beat
"sv/axi4_interface.sv", 223: axi4_tb_top.axi4_vif.unnamed$$_18: started at 1853500ps failed at 1853500ps
	Offending '(w_beat_count == expected_awlen_arr[awlen_head])'
UVM_ERROR sv/axi4_interface.sv(224) @ 1854000: reporter [AXI4_ASSERT] wlast must be asserted on the correct beat
UVM_INFO sv/axi4_monitor.sv(233) @ 1857000: uvm_test_top.m_env.m_master_agent.m_monitor [axi4_monitor] Write Complete: ID=13, ADDR=0x100017e8, RESP=OKAY, Latency=6 cycles
UVM_INFO sv/axi4_monitor.sv(233) @ 1860000: uvm_test_top.m_env.m_master_agent.m_monitor [axi4_monitor] Write Complete: ID=9, ADDR=0x10001800, RESP=OKAY, Latency=2 cycles
"sv/axi4_interface.sv", 223: axi4_tb_top.axi4_vif.unnamed$$_18: started at 1864500ps failed at 1864500ps
	Offending '(w_beat_count == expected_awlen_arr[awlen_head])'
UVM_ERROR sv/axi4_interface.sv(224) @ 1865000: reporter [AXI4_ASSERT] wlast must be asserted on the correct beat
UVM_INFO sv/axi4_monitor.sv(233) @ 1871000: uvm_test_top.m_env.m_master_agent.m_monitor [axi4_monitor] Write Complete: ID=9, ADDR=0x10001808, RESP=OKAY, Latency=7 cycles
UVM_INFO sv/axi4_monitor.sv(233) @ 1879000: uvm_test_top.m_env.m_master_agent.m_monitor [axi4_monitor] Write Complete: ID=9, ADDR=0x10001824, RESP=OKAY, Latency=7 cycles
"sv/axi4_interface.sv", 223: axi4_tb_top.axi4_vif.unnamed$$_18: started at 1888500ps failed at 1888500ps
	Offending '(w_beat_count == expected_awlen_arr[awlen_head])'
UVM_ERROR sv/axi4_interface.sv(224) @ 1889000: reporter [AXI4_ASSERT] wlast must be asserted on the correct beat
UVM_INFO sv/axi4_monitor.sv(233) @ 1895000: uvm_test_top.m_env.m_master_agent.m_monitor [axi4_monitor] Write Complete: ID=6, ADDR=0x10001840, RESP=OKAY, Latency=15 cycles
"sv/axi4_interface.sv", 223: axi4_tb_top.axi4_vif.unnamed$$_18: started at 1905500ps failed at 1905500ps
	Offending '(w_beat_count == expected_awlen_arr[awlen_head])'
UVM_ERROR sv/axi4_interface.sv(224) @ 1906000: reporter [AXI4_ASSERT] wlast must be asserted on the correct beat
UVM_INFO sv/axi4_monitor.sv(233) @ 1912000: uvm_test_top.m_env.m_master_agent.m_monitor [axi4_monitor] Write Complete: ID=12, ADDR=0x1000187c, RESP=OKAY, Latency=16 cycles
"sv/axi4_interface.sv", 223: axi4_tb_top.axi4_vif.unnamed$$_18: started at 1913500ps failed at 1913500ps
	Offending '(w_beat_count == expected_awlen_arr[awlen_head])'
UVM_ERROR sv/axi4_interface.sv(224) @ 1914000: reporter [AXI4_ASSERT] wlast must be asserted on the correct beat
"sv/axi4_interface.sv", 223: axi4_tb_top.axi4_vif.unnamed$$_18: started at 1917500ps failed at 1917500ps
	Offending '(w_beat_count == expected_awlen_arr[awlen_head])'
UVM_ERROR sv/axi4_interface.sv(224) @ 1918000: reporter [AXI4_ASSERT] wlast must be asserted on the correct beat
UVM_INFO sv/axi4_monitor.sv(233) @ 1920000: uvm_test_top.m_env.m_master_agent.m_monitor [axi4_monitor] Write Complete: ID=1, ADDR=0x100018bc, RESP=OKAY, Latency=7 cycles
UVM_INFO sv/axi4_monitor.sv(233) @ 1924000: uvm_test_top.m_env.m_master_agent.m_monitor [axi4_monitor] Write Complete: ID=12, ADDR=0x100018d8, RESP=OKAY, Latency=3 cycles
"sv/axi4_interface.sv", 223: axi4_tb_top.axi4_vif.unnamed$$_18: started at 1924500ps failed at 1924500ps
	Offending '(w_beat_count == expected_awlen_arr[awlen_head])'
UVM_ERROR sv/axi4_interface.sv(224) @ 1925000: reporter [AXI4_ASSERT] wlast must be asserted on the correct beat
UVM_INFO sv/axi4_monitor.sv(233) @ 1931000: uvm_test_top.m_env.m_master_agent.m_monitor [axi4_monitor] Write Complete: ID=15, ADDR=0x100018e4, RESP=OKAY, Latency=4 cycles
"sv/axi4_interface.sv", 223: axi4_tb_top.axi4_vif.unnamed$$_18: started at 1941500ps failed at 1941500ps
	Offending '(w_beat_count == expected_awlen_arr[awlen_head])'
UVM_ERROR sv/axi4_interface.sv(224) @ 1942000: reporter [AXI4_ASSERT] wlast must be asserted on the correct beat
UVM_INFO sv/axi4_monitor.sv(233) @ 1948000: uvm_test_top.m_env.m_master_agent.m_monitor [axi4_monitor] Write Complete: ID=14, ADDR=0x100018f4, RESP=OKAY, Latency=15 cycles
"sv/axi4_interface.sv", 223: axi4_tb_top.axi4_vif.unnamed$$_18: started at 1958500ps failed at 1958500ps
	Offending '(w_beat_count == expected_awlen_arr[awlen_head])'
UVM_ERROR sv/axi4_interface.sv(224) @ 1959000: reporter [AXI4_ASSERT] wlast must be asserted on the correct beat
"sv/axi4_interface.sv", 223: axi4_tb_top.axi4_vif.unnamed$$_18: started at 1962500ps failed at 1962500ps
	Offending '(w_beat_count == expected_awlen_arr[awlen_head])'
UVM_ERROR sv/axi4_interface.sv(224) @ 1963000: reporter [AXI4_ASSERT] wlast must be asserted on the correct beat
UVM_INFO sv/axi4_monitor.sv(233) @ 1965000: uvm_test_top.m_env.m_master_agent.m_monitor [axi4_monitor] Write Complete: ID=14, ADDR=0x10001930, RESP=OKAY, Latency=16 cycles
UVM_INFO sv/axi4_monitor.sv(233) @ 1969000: uvm_test_top.m_env.m_master_agent.m_monitor [axi4_monitor] Write Complete: ID=5, ADDR=0x10001970, RESP=OKAY, Latency=3 cycles
"sv/axi4_interface.sv", 223: axi4_tb_top.axi4_vif.unnamed$$_18: started at 1981500ps failed at 1981500ps
	Offending '(w_beat_count == expected_awlen_arr[awlen_head])'
UVM_ERROR sv/axi4_interface.sv(224) @ 1982000: reporter [AXI4_ASSERT] wlast must be asserted on the correct beat
UVM_INFO sv/axi4_monitor.sv(233) @ 1988000: uvm_test_top.m_env.m_master_agent.m_monitor [axi4_monitor] Write Complete: ID=3, ADDR=0x1000197c, RESP=OKAY, Latency=16 cycles
"sv/axi4_interface.sv", 223: axi4_tb_top.axi4_vif.unnamed$$_18: started at 1994500ps failed at 1994500ps
	Offending '(w_beat_count == expected_awlen_arr[awlen_head])'
UVM_ERROR sv/axi4_interface.sv(224) @ 1995000: reporter [AXI4_ASSERT] wlast must be asserted on the correct beat
UVM_INFO sv/axi4_monitor.sv(233) @ 2001000: uvm_test_top.m_env.m_master_agent.m_monitor [axi4_monitor] Write Complete: ID=1, ADDR=0x100019bc, RESP=OKAY, Latency=12 cycles
UVM_INFO sv/seq_lib.sv(3411) @ 2008000: uvm_test_top.m_env.m_master_agent.m_sequencer@@seq [axi4_data_first_sequence] Write progress: 200/500 transactions
UVM_INFO sv/axi4_monitor.sv(233) @ 2014000: uvm_test_top.m_env.m_master_agent.m_monitor [axi4_monitor] Write Complete: ID=5, ADDR=0x100019ec, RESP=OKAY, Latency=12 cycles
"sv/axi4_interface.sv", 223: axi4_tb_top.axi4_vif.unnamed$$_18: started at 2017500ps failed at 2017500ps
	Offending '(w_beat_count == expected_awlen_arr[awlen_head])'
UVM_ERROR sv/axi4_interface.sv(224) @ 2018000: reporter [AXI4_ASSERT] wlast must be asserted on the correct beat
UVM_INFO sv/axi4_monitor.sv(233) @ 2024000: uvm_test_top.m_env.m_master_agent.m_monitor [axi4_monitor] Write Complete: ID=1, ADDR=0x10001a1c, RESP=OKAY, Latency=9 cycles
"sv/axi4_interface.sv", 223: axi4_tb_top.axi4_vif.unnamed$$_18: started at 2023500ps failed at 2023500ps
	Offending '(w_beat_count == expected_awlen_arr[awlen_head])'
UVM_ERROR sv/axi4_interface.sv(224) @ 2024000: reporter [AXI4_ASSERT] wlast must be asserted on the correct beat
UVM_INFO sv/axi4_monitor.sv(233) @ 2030000: uvm_test_top.m_env.m_master_agent.m_monitor [axi4_monitor] Write Complete: ID=14, ADDR=0x10001a40, RESP=OKAY, Latency=5 cycles
"sv/axi4_interface.sv", 223: axi4_tb_top.axi4_vif.unnamed$$_18: started at 2032500ps failed at 2032500ps
	Offending '(w_beat_count == expected_awlen_arr[awlen_head])'
UVM_ERROR sv/axi4_interface.sv(224) @ 2033000: reporter [AXI4_ASSERT] wlast must be asserted on the correct beat
UVM_INFO sv/axi4_monitor.sv(233) @ 2039000: uvm_test_top.m_env.m_master_agent.m_monitor [axi4_monitor] Write Complete: ID=1, ADDR=0x10001a54, RESP=OKAY, Latency=8 cycles
"sv/axi4_interface.sv", 223: axi4_tb_top.axi4_vif.unnamed$$_18: started at 2040500ps failed at 2040500ps
	Offending '(w_beat_count == expected_awlen_arr[awlen_head])'
UVM_ERROR sv/axi4_interface.sv(224) @ 2041000: reporter [AXI4_ASSERT] wlast must be asserted on the correct beat
UVM_INFO sv/axi4_monitor.sv(233) @ 2047000: uvm_test_top.m_env.m_master_agent.m_monitor [axi4_monitor] Write Complete: ID=10, ADDR=0x10001a74, RESP=OKAY, Latency=7 cycles
UVM_INFO sv/axi4_monitor.sv(233) @ 2055000: uvm_test_top.m_env.m_master_agent.m_monitor [axi4_monitor] Write Complete: ID=13, ADDR=0x10001a90, RESP=OKAY, Latency=7 cycles
"sv/axi4_interface.sv", 223: axi4_tb_top.axi4_vif.unnamed$$_18: started at 2054500ps failed at 2054500ps
	Offending '(w_beat_count == expected_awlen_arr[awlen_head])'
UVM_ERROR sv/axi4_interface.sv(224) @ 2055000: reporter [AXI4_ASSERT] wlast must be asserted on the correct beat
UVM_INFO sv/axi4_monitor.sv(233) @ 2061000: uvm_test_top.m_env.m_master_agent.m_monitor [axi4_monitor] Write Complete: ID=5, ADDR=0x10001aac, RESP=OKAY, Latency=5 cycles
"sv/axi4_interface.sv", 223: axi4_tb_top.axi4_vif.unnamed$$_18: started at 2062500ps failed at 2062500ps
	Offending '(w_beat_count == expected_awlen_arr[awlen_head])'
UVM_ERROR sv/axi4_interface.sv(224) @ 2063000: reporter [AXI4_ASSERT] wlast must be asserted on the correct beat
UVM_INFO sv/axi4_monitor.sv(233) @ 2069000: uvm_test_top.m_env.m_master_agent.m_monitor [axi4_monitor] Write Complete: ID=10, ADDR=0x10001ac0, RESP=OKAY, Latency=7 cycles
"sv/axi4_interface.sv", 223: axi4_tb_top.axi4_vif.unnamed$$_18: started at 2073500ps failed at 2073500ps
	Offending '(w_beat_count == expected_awlen_arr[awlen_head])'
UVM_ERROR sv/axi4_interface.sv(224) @ 2074000: reporter [AXI4_ASSERT] wlast must be asserted on the correct beat
UVM_INFO sv/axi4_monitor.sv(233) @ 2080000: uvm_test_top.m_env.m_master_agent.m_monitor [axi4_monitor] Write Complete: ID=9, ADDR=0x10001adc, RESP=OKAY, Latency=10 cycles
"sv/axi4_interface.sv", 223: axi4_tb_top.axi4_vif.unnamed$$_18: started at 2079500ps failed at 2079500ps
	Offending '(w_beat_count == expected_awlen_arr[awlen_head])'
UVM_ERROR sv/axi4_interface.sv(224) @ 2080000: reporter [AXI4_ASSERT] wlast must be asserted on the correct beat
"sv/axi4_interface.sv", 223: axi4_tb_top.axi4_vif.unnamed$$_18: started at 2082500ps failed at 2082500ps
	Offending '(w_beat_count == expected_awlen_arr[awlen_head])'
UVM_ERROR sv/axi4_interface.sv(224) @ 2083000: reporter [AXI4_ASSERT] wlast must be asserted on the correct beat
UVM_INFO sv/axi4_monitor.sv(233) @ 2086000: uvm_test_top.m_env.m_master_agent.m_monitor [axi4_monitor] Write Complete: ID=1, ADDR=0x10001b04, RESP=OKAY, Latency=5 cycles
UVM_INFO sv/axi4_monitor.sv(233) @ 2089000: uvm_test_top.m_env.m_master_agent.m_monitor [axi4_monitor] Write Complete: ID=15, ADDR=0x10001b18, RESP=OKAY, Latency=2 cycles
"sv/axi4_interface.sv", 223: axi4_tb_top.axi4_vif.unnamed$$_18: started at 2102500ps failed at 2102500ps
	Offending '(w_beat_count == expected_awlen_arr[awlen_head])'
UVM_ERROR sv/axi4_interface.sv(224) @ 2103000: reporter [AXI4_ASSERT] wlast must be asserted on the correct beat
"sv/axi4_interface.sv", 223: axi4_tb_top.axi4_vif.unnamed$$_18: started at 2105500ps failed at 2105500ps
	Offending '(w_beat_count == expected_awlen_arr[awlen_head])'
UVM_ERROR sv/axi4_interface.sv(224) @ 2106000: reporter [AXI4_ASSERT] wlast must be asserted on the correct beat
UVM_INFO sv/axi4_monitor.sv(233) @ 2109000: uvm_test_top.m_env.m_master_agent.m_monitor [axi4_monitor] Write Complete: ID=0, ADDR=0x10001b20, RESP=OKAY, Latency=16 cycles
UVM_INFO sv/axi4_monitor.sv(233) @ 2112000: uvm_test_top.m_env.m_master_agent.m_monitor [axi4_monitor] Write Complete: ID=6, ADDR=0x10001b60, RESP=OKAY, Latency=2 cycles
"sv/axi4_interface.sv", 223: axi4_tb_top.axi4_vif.unnamed$$_18: started at 2114500ps failed at 2114500ps
	Offending '(w_beat_count == expected_awlen_arr[awlen_head])'
UVM_ERROR sv/axi4_interface.sv(224) @ 2115000: reporter [AXI4_ASSERT] wlast must be asserted on the correct beat
UVM_INFO sv/axi4_monitor.sv(233) @ 2121000: uvm_test_top.m_env.m_master_agent.m_monitor [axi4_monitor] Write Complete: ID=15, ADDR=0x10001b68, RESP=OKAY, Latency=5 cycles
"sv/axi4_interface.sv", 223: axi4_tb_top.axi4_vif.unnamed$$_18: started at 2125500ps failed at 2125500ps
	Offending '(w_beat_count == expected_awlen_arr[awlen_head])'
UVM_ERROR sv/axi4_interface.sv(224) @ 2126000: reporter [AXI4_ASSERT] wlast must be asserted on the correct beat
"sv/axi4_interface.sv", 223: axi4_tb_top.axi4_vif.unnamed$$_18: started at 2129500ps failed at 2129500ps
	Offending '(w_beat_count == expected_awlen_arr[awlen_head])'
UVM_ERROR sv/axi4_interface.sv(224) @ 2130000: reporter [AXI4_ASSERT] wlast must be asserted on the correct beat
UVM_INFO sv/axi4_monitor.sv(233) @ 2132000: uvm_test_top.m_env.m_master_agent.m_monitor [axi4_monitor] Write Complete: ID=12, ADDR=0x10001b7c, RESP=OKAY, Latency=10 cycles
UVM_INFO sv/axi4_monitor.sv(233) @ 2136000: uvm_test_top.m_env.m_master_agent.m_monitor [axi4_monitor] Write Complete: ID=1, ADDR=0x10001ba4, RESP=OKAY, Latency=3 cycles
"sv/axi4_interface.sv", 223: axi4_tb_top.axi4_vif.unnamed$$_18: started at 2137500ps failed at 2137500ps
	Offending '(w_beat_count == expected_awlen_arr[awlen_head])'
