Command: /home/xingchangchang/ai_evaluation/claude_code/axi4_vip/ai_cc_glm5_axi4_vip/./simv_axi4_data_first_test +UVM_TESTNAME=axi4_data_first_test +UVM_VERBOSITY=UVM_MEDIUM -l sim_axi4_data_first_test.log +ntb_random_seed=1
Chronologic VCS simulator copyright 1991-2018
Contains Synopsys proprietary information.
Compiler version O-2018.09-SP2_Full64; Runtime version O-2018.09-SP2_Full64;  Apr  9 16:59 2026
UVM_INFO /home/xingchangchang/ProgramFiles/vcs_verdi2018/synopsys/vcs_201809/vcs/O-2018.09-SP2/etc/uvm-1.2/base/uvm_root.svh(402) @ 0: reporter [UVM/RELNOTES] 
----------------------------------------------------------------
UVM-1.2.Synopsys
(C) 2007-2014 Mentor Graphics Corporation
(C) 2007-2014 Cadence Design Systems, Inc.
(C) 2006-2014 Synopsys, Inc.
(C) 2011-2013 Cypress Semiconductor Corp.
(C) 2013-2014 NVIDIA Corporation
----------------------------------------------------------------

  ***********       IMPORTANT RELEASE NOTES         ************

  You are using a version of the UVM library that has been compiled
  with `UVM_NO_DEPRECATED undefined.
  See http://www.eda.org/svdb/view.php?id=3313 for more details.

  You are using a version of the UVM library that has been compiled
  with `UVM_OBJECT_DO_NOT_NEED_CONSTRUCTOR undefined.
  See http://www.eda.org/svdb/view.php?id=3770 for more details.

      (Specify +UVM_NO_RELNOTES to turn off this notice)

*Verdi* Loading libsscore_vcs201809.so
FSDB Dumper for VCS, Release Verdi_O-2018.09-SP2, Linux x86_64/64bit, 02/21/2019
(C) 1996 - 2019 by Synopsys, Inc.
*Verdi* FSDB WARNING: The FSDB file already exists. Overwriting the FSDB file may crash the programs that are using this file.
*Verdi* : Create FSDB file 'sim.fsdb'
*Verdi* : Begin traversing the scope (axi4_tb_top), layer (0).
*Verdi* : End of traversing.
UVM_INFO @ 0: reporter [RNTST] Running test axi4_data_first_test...
UVM_INFO sv/test_lib.sv(757) @ 0: uvm_test_top [axi4_data_first_test] Data-before-addr mode ENABLED with OSD=4
UVM_INFO sv/axi4_env.sv(58) @ 0: uvm_test_top.m_env [axi4_env] AXI4 VIP Topology:
UVM_INFO /home/xingchangchang/ProgramFiles/vcs_verdi2018/synopsys/vcs_201809/vcs/O-2018.09-SP2/etc/uvm-1.2/base/uvm_root.svh(589) @ 0: reporter [UVMTOP] UVM testbench topology:
--------------------------------------------------------------
Name                       Type                    Size  Value
--------------------------------------------------------------
uvm_test_top               axi4_data_first_test    -     @342 
  m_env                    axi4_env                -     @366 
    m_ap                   uvm_analysis_port       -     @387 
    m_master_agent         axi4_master_agent       -     @378 
      m_ap                 uvm_analysis_port       -     @584 
      m_driver             axi4_master_driver      -     @418 
        rsp_port           uvm_analysis_port       -     @437 
        seq_item_port      uvm_seq_item_pull_port  -     @427 
      m_monitor            axi4_monitor            -     @399 
        m_ap               uvm_analysis_port       -     @408 
      m_sequencer          axi4_sequencer          -     @447 
        rsp_export         uvm_analysis_export     -     @456 
        seq_item_export    uvm_seq_item_pull_imp   -     @574 
        arbitration_queue  array                   0     -    
        lock_queue         array                   0     -    
        num_last_reqs      integral                32    'd1  
        num_last_rsps      integral                32    'd1  
--------------------------------------------------------------

UVM_INFO sv/test_lib.sv(766) @ 0: uvm_test_top [axi4_data_first_test] ===========================================
UVM_INFO sv/test_lib.sv(767) @ 0: uvm_test_top [axi4_data_first_test]        AXI4 DATA FIRST TEST
UVM_INFO sv/test_lib.sv(768) @ 0: uvm_test_top [axi4_data_first_test] ===========================================
UVM_INFO sv/test_lib.sv(769) @ 0: uvm_test_top [axi4_data_first_test] Test Configuration:
UVM_INFO sv/test_lib.sv(770) @ 0: uvm_test_top [axi4_data_first_test]   - Burst Length: random [1:16] beats
UVM_INFO sv/test_lib.sv(771) @ 0: uvm_test_top [axi4_data_first_test]   - Transfer Size: 4 bytes (SIZE=2)
UVM_INFO sv/test_lib.sv(772) @ 0: uvm_test_top [axi4_data_first_test]   - Burst Type: INCR
UVM_INFO sv/test_lib.sv(773) @ 0: uvm_test_top [axi4_data_first_test]   - Start Address: 0x1000_0000 (aligned)
UVM_INFO sv/test_lib.sv(774) @ 0: uvm_test_top [axi4_data_first_test]   - Number of Transactions: 500
UVM_INFO sv/test_lib.sv(775) @ 0: uvm_test_top [axi4_data_first_test]   - Data Before Addr: ENABLED
UVM_INFO sv/test_lib.sv(776) @ 0: uvm_test_top [axi4_data_first_test]   - Data Before Addr OSD: 4
UVM_INFO sv/test_lib.sv(777) @ 0: uvm_test_top [axi4_data_first_test] ===========================================
UVM_INFO sv/seq_lib.sv(3347) @ 0: uvm_test_top.m_env.m_master_agent.m_sequencer@@seq [axi4_data_first_sequence] ===========================================
UVM_INFO sv/seq_lib.sv(3348) @ 0: uvm_test_top.m_env.m_master_agent.m_sequencer@@seq [axi4_data_first_sequence]        DATA FIRST TEST SEQUENCE
UVM_INFO sv/seq_lib.sv(3349) @ 0: uvm_test_top.m_env.m_master_agent.m_sequencer@@seq [axi4_data_first_sequence] ===========================================
UVM_INFO sv/seq_lib.sv(3350) @ 0: uvm_test_top.m_env.m_master_agent.m_sequencer@@seq [axi4_data_first_sequence] Test Configuration:
UVM_INFO sv/seq_lib.sv(3351) @ 0: uvm_test_top.m_env.m_master_agent.m_sequencer@@seq [axi4_data_first_sequence]   - Burst Length: random [1:16] beats
UVM_INFO sv/seq_lib.sv(3353) @ 0: uvm_test_top.m_env.m_master_agent.m_sequencer@@seq [axi4_data_first_sequence]   - Transfer Size: 4 bytes (SIZE=2)
UVM_INFO sv/seq_lib.sv(3355) @ 0: uvm_test_top.m_env.m_master_agent.m_sequencer@@seq [axi4_data_first_sequence]   - Burst Type: INCR
UVM_INFO sv/seq_lib.sv(3357) @ 0: uvm_test_top.m_env.m_master_agent.m_sequencer@@seq [axi4_data_first_sequence]   - Start Address: 0x10000000 (aligned)
UVM_INFO sv/seq_lib.sv(3359) @ 0: uvm_test_top.m_env.m_master_agent.m_sequencer@@seq [axi4_data_first_sequence]   - Number of Transactions: 500
UVM_INFO sv/seq_lib.sv(3361) @ 0: uvm_test_top.m_env.m_master_agent.m_sequencer@@seq [axi4_data_first_sequence]   - Data Before Addr: ENABLED
UVM_INFO sv/seq_lib.sv(3363) @ 0: uvm_test_top.m_env.m_master_agent.m_sequencer@@seq [axi4_data_first_sequence] ===========================================
UVM_INFO sv/seq_lib.sv(3368) @ 0: uvm_test_top.m_env.m_master_agent.m_sequencer@@seq [axi4_data_first_sequence] === Phase 1: Sending WRITE transactions ===
UVM_INFO sv/axi4_monitor.sv(286) @ 18000: uvm_test_top.m_env.m_master_agent.m_monitor [axi4_monitor] Write Complete: ID=2, ADDR=0x10000000, RESP=OKAY, Latency=1 cycles
UVM_INFO sv/axi4_monitor.sv(286) @ 29000: uvm_test_top.m_env.m_master_agent.m_monitor [axi4_monitor] Write Complete: ID=4, ADDR=0x10000004, RESP=OKAY, Latency=6 cycles
UVM_INFO sv/axi4_monitor.sv(286) @ 34000: uvm_test_top.m_env.m_master_agent.m_monitor [axi4_monitor] Write Complete: ID=0, ADDR=0x1000001c, RESP=OKAY, Latency=4 cycles
UVM_INFO sv/axi4_monitor.sv(286) @ 50000: uvm_test_top.m_env.m_master_agent.m_monitor [axi4_monitor] Write Complete: ID=12, ADDR=0x1000002c, RESP=OKAY, Latency=14 cycles
UVM_INFO sv/axi4_monitor.sv(286) @ 60000: uvm_test_top.m_env.m_master_agent.m_monitor [axi4_monitor] Write Complete: ID=3, ADDR=0x10000064, RESP=OKAY, Latency=9 cycles
UVM_INFO sv/axi4_monitor.sv(286) @ 66000: uvm_test_top.m_env.m_master_agent.m_monitor [axi4_monitor] Write Complete: ID=11, ADDR=0x10000088, RESP=OKAY, Latency=5 cycles
UVM_INFO sv/axi4_monitor.sv(286) @ 71000: uvm_test_top.m_env.m_master_agent.m_monitor [axi4_monitor] Write Complete: ID=8, ADDR=0x1000009c, RESP=OKAY, Latency=4 cycles
UVM_INFO sv/axi4_monitor.sv(286) @ 88000: uvm_test_top.m_env.m_master_agent.m_monitor [axi4_monitor] Write Complete: ID=10, ADDR=0x100000ac, RESP=OKAY, Latency=15 cycles
UVM_INFO sv/axi4_monitor.sv(286) @ 105000: uvm_test_top.m_env.m_master_agent.m_monitor [axi4_monitor] Write Complete: ID=1, ADDR=0x100000e8, RESP=OKAY, Latency=16 cycles
UVM_INFO sv/axi4_monitor.sv(286) @ 120000: uvm_test_top.m_env.m_master_agent.m_monitor [axi4_monitor] Write Complete: ID=2, ADDR=0x10000128, RESP=OKAY, Latency=14 cycles
UVM_INFO sv/axi4_monitor.sv(286) @ 122000: uvm_test_top.m_env.m_master_agent.m_monitor [axi4_monitor] Write Complete: ID=12, ADDR=0x10000160, RESP=OKAY, Latency=1 cycles
UVM_INFO sv/axi4_monitor.sv(286) @ 143000: uvm_test_top.m_env.m_master_agent.m_monitor [axi4_monitor] Write Complete: ID=3, ADDR=0x10000164, RESP=OKAY, Latency=16 cycles
UVM_INFO sv/axi4_monitor.sv(286) @ 151000: uvm_test_top.m_env.m_master_agent.m_monitor [axi4_monitor] Write Complete: ID=13, ADDR=0x100001a4, RESP=OKAY, Latency=7 cycles
UVM_INFO sv/axi4_monitor.sv(286) @ 168000: uvm_test_top.m_env.m_master_agent.m_monitor [axi4_monitor] Write Complete: ID=0, ADDR=0x100001c0, RESP=OKAY, Latency=16 cycles
UVM_INFO sv/axi4_monitor.sv(286) @ 182000: uvm_test_top.m_env.m_master_agent.m_monitor [axi4_monitor] Write Complete: ID=6, ADDR=0x10000200, RESP=OKAY, Latency=13 cycles
UVM_INFO sv/axi4_monitor.sv(286) @ 190000: uvm_test_top.m_env.m_master_agent.m_monitor [axi4_monitor] Write Complete: ID=9, ADDR=0x10000234, RESP=OKAY, Latency=7 cycles
UVM_INFO sv/axi4_monitor.sv(286) @ 197000: uvm_test_top.m_env.m_master_agent.m_monitor [axi4_monitor] Write Complete: ID=2, ADDR=0x10000250, RESP=OKAY, Latency=6 cycles
UVM_INFO sv/axi4_monitor.sv(286) @ 204000: uvm_test_top.m_env.m_master_agent.m_monitor [axi4_monitor] Write Complete: ID=11, ADDR=0x10000268, RESP=OKAY, Latency=6 cycles
UVM_INFO sv/axi4_monitor.sv(286) @ 219000: uvm_test_top.m_env.m_master_agent.m_monitor [axi4_monitor] Write Complete: ID=6, ADDR=0x10000280, RESP=OKAY, Latency=14 cycles
UVM_INFO sv/axi4_monitor.sv(286) @ 224000: uvm_test_top.m_env.m_master_agent.m_monitor [axi4_monitor] Write Complete: ID=14, ADDR=0x100002b8, RESP=OKAY, Latency=4 cycles
UVM_INFO sv/axi4_monitor.sv(286) @ 228000: uvm_test_top.m_env.m_master_agent.m_monitor [axi4_monitor] Write Complete: ID=5, ADDR=0x100002c8, RESP=OKAY, Latency=2 cycles
UVM_INFO sv/axi4_monitor.sv(286) @ 243000: uvm_test_top.m_env.m_master_agent.m_monitor [axi4_monitor] Write Complete: ID=7, ADDR=0x100002d0, RESP=OKAY, Latency=11 cycles
UVM_INFO sv/axi4_monitor.sv(286) @ 253000: uvm_test_top.m_env.m_master_agent.m_monitor [axi4_monitor] Write Complete: ID=14, ADDR=0x100002fc, RESP=OKAY, Latency=9 cycles
UVM_INFO sv/axi4_monitor.sv(286) @ 256000: uvm_test_top.m_env.m_master_agent.m_monitor [axi4_monitor] Write Complete: ID=14, ADDR=0x10000320, RESP=OKAY, Latency=2 cycles
UVM_INFO sv/axi4_monitor.sv(286) @ 271000: uvm_test_top.m_env.m_master_agent.m_monitor [axi4_monitor] Write Complete: ID=2, ADDR=0x10000328, RESP=OKAY, Latency=11 cycles
UVM_INFO sv/axi4_monitor.sv(286) @ 287000: uvm_test_top.m_env.m_master_agent.m_monitor [axi4_monitor] Write Complete: ID=2, ADDR=0x10000354, RESP=OKAY, Latency=15 cycles
UVM_INFO sv/axi4_monitor.sv(286) @ 290000: uvm_test_top.m_env.m_master_agent.m_monitor [axi4_monitor] Write Complete: ID=0, ADDR=0x10000390, RESP=OKAY, Latency=2 cycles
UVM_INFO sv/axi4_monitor.sv(286) @ 298000: uvm_test_top.m_env.m_master_agent.m_monitor [axi4_monitor] Write Complete: ID=9, ADDR=0x10000398, RESP=OKAY, Latency=4 cycles
UVM_INFO sv/axi4_monitor.sv(286) @ 303000: uvm_test_top.m_env.m_master_agent.m_monitor [axi4_monitor] Write Complete: ID=2, ADDR=0x100003a8, RESP=OKAY, Latency=3 cycles
UVM_INFO sv/axi4_monitor.sv(286) @ 322000: uvm_test_top.m_env.m_master_agent.m_monitor [axi4_monitor] Write Complete: ID=1, ADDR=0x100003b4, RESP=OKAY, Latency=16 cycles
UVM_INFO sv/axi4_monitor.sv(286) @ 327000: uvm_test_top.m_env.m_master_agent.m_monitor [axi4_monitor] Write Complete: ID=13, ADDR=0x100003f4, RESP=OKAY, Latency=4 cycles
UVM_INFO sv/axi4_monitor.sv(286) @ 336000: uvm_test_top.m_env.m_master_agent.m_monitor [axi4_monitor] Write Complete: ID=15, ADDR=0x10000404, RESP=OKAY, Latency=7 cycles
UVM_INFO sv/axi4_monitor.sv(286) @ 349000: uvm_test_top.m_env.m_master_agent.m_monitor [axi4_monitor] Write Complete: ID=1, ADDR=0x10000420, RESP=OKAY, Latency=12 cycles
UVM_INFO sv/axi4_monitor.sv(286) @ 358000: uvm_test_top.m_env.m_master_agent.m_monitor [axi4_monitor] Write Complete: ID=3, ADDR=0x10000450, RESP=OKAY, Latency=8 cycles
UVM_INFO sv/axi4_monitor.sv(286) @ 361000: uvm_test_top.m_env.m_master_agent.m_monitor [axi4_monitor] Write Complete: ID=13, ADDR=0x10000470, RESP=OKAY, Latency=2 cycles
UVM_INFO sv/axi4_monitor.sv(286) @ 368000: uvm_test_top.m_env.m_master_agent.m_monitor [axi4_monitor] Write Complete: ID=0, ADDR=0x10000478, RESP=OKAY, Latency=3 cycles
UVM_INFO sv/axi4_monitor.sv(286) @ 380000: uvm_test_top.m_env.m_master_agent.m_monitor [axi4_monitor] Write Complete: ID=4, ADDR=0x10000484, RESP=OKAY, Latency=9 cycles
UVM_INFO sv/axi4_monitor.sv(286) @ 386000: uvm_test_top.m_env.m_master_agent.m_monitor [axi4_monitor] Write Complete: ID=7, ADDR=0x100004a8, RESP=OKAY, Latency=5 cycles
UVM_INFO sv/axi4_monitor.sv(286) @ 392000: uvm_test_top.m_env.m_master_agent.m_monitor [axi4_monitor] Write Complete: ID=0, ADDR=0x100004bc, RESP=OKAY, Latency=5 cycles
UVM_INFO sv/axi4_monitor.sv(286) @ 399000: uvm_test_top.m_env.m_master_agent.m_monitor [axi4_monitor] Write Complete: ID=5, ADDR=0x100004d0, RESP=OKAY, Latency=6 cycles
UVM_INFO sv/axi4_monitor.sv(286) @ 404000: uvm_test_top.m_env.m_master_agent.m_monitor [axi4_monitor] Write Complete: ID=7, ADDR=0x100004e8, RESP=OKAY, Latency=4 cycles
UVM_INFO sv/axi4_monitor.sv(286) @ 418000: uvm_test_top.m_env.m_master_agent.m_monitor [axi4_monitor] Write Complete: ID=10, ADDR=0x100004f8, RESP=OKAY, Latency=12 cycles
UVM_INFO sv/axi4_monitor.sv(286) @ 423000: uvm_test_top.m_env.m_master_agent.m_monitor [axi4_monitor] Write Complete: ID=5, ADDR=0x10000528, RESP=OKAY, Latency=4 cycles
UVM_INFO sv/axi4_monitor.sv(286) @ 429000: uvm_test_top.m_env.m_master_agent.m_monitor [axi4_monitor] Write Complete: ID=13, ADDR=0x10000538, RESP=OKAY, Latency=4 cycles
UVM_INFO sv/axi4_monitor.sv(286) @ 439000: uvm_test_top.m_env.m_master_agent.m_monitor [axi4_monitor] Write Complete: ID=1, ADDR=0x10000548, RESP=OKAY, Latency=8 cycles
UVM_INFO sv/axi4_monitor.sv(286) @ 444000: uvm_test_top.m_env.m_master_agent.m_monitor [axi4_monitor] Write Complete: ID=7, ADDR=0x10000568, RESP=OKAY, Latency=4 cycles
UVM_INFO sv/axi4_monitor.sv(286) @ 458000: uvm_test_top.m_env.m_master_agent.m_monitor [axi4_monitor] Write Complete: ID=10, ADDR=0x10000578, RESP=OKAY, Latency=12 cycles
UVM_INFO sv/axi4_monitor.sv(286) @ 473000: uvm_test_top.m_env.m_master_agent.m_monitor [axi4_monitor] Write Complete: ID=0, ADDR=0x100005a8, RESP=OKAY, Latency=14 cycles
UVM_INFO sv/axi4_monitor.sv(286) @ 476000: uvm_test_top.m_env.m_master_agent.m_monitor [axi4_monitor] Write Complete: ID=13, ADDR=0x100005e0, RESP=OKAY, Latency=2 cycles
UVM_INFO sv/axi4_monitor.sv(286) @ 492000: uvm_test_top.m_env.m_master_agent.m_monitor [axi4_monitor] Write Complete: ID=7, ADDR=0x100005e8, RESP=OKAY, Latency=12 cycles
UVM_INFO sv/axi4_monitor.sv(286) @ 501000: uvm_test_top.m_env.m_master_agent.m_monitor [axi4_monitor] Write Complete: ID=10, ADDR=0x10000618, RESP=OKAY, Latency=8 cycles
UVM_INFO sv/axi4_monitor.sv(286) @ 506000: uvm_test_top.m_env.m_master_agent.m_monitor [axi4_monitor] Write Complete: ID=7, ADDR=0x10000638, RESP=OKAY, Latency=4 cycles
UVM_INFO sv/axi4_monitor.sv(286) @ 524000: uvm_test_top.m_env.m_master_agent.m_monitor [axi4_monitor] Write Complete: ID=15, ADDR=0x10000648, RESP=OKAY, Latency=16 cycles
UVM_INFO sv/axi4_monitor.sv(286) @ 537000: uvm_test_top.m_env.m_master_agent.m_monitor [axi4_monitor] Write Complete: ID=1, ADDR=0x10000688, RESP=OKAY, Latency=12 cycles
UVM_INFO sv/axi4_monitor.sv(286) @ 544000: uvm_test_top.m_env.m_master_agent.m_monitor [axi4_monitor] Write Complete: ID=3, ADDR=0x100006b8, RESP=OKAY, Latency=6 cycles
UVM_INFO sv/axi4_monitor.sv(286) @ 556000: uvm_test_top.m_env.m_master_agent.m_monitor [axi4_monitor] Write Complete: ID=5, ADDR=0x100006d0, RESP=OKAY, Latency=11 cycles
UVM_INFO sv/axi4_monitor.sv(286) @ 572000: uvm_test_top.m_env.m_master_agent.m_monitor [axi4_monitor] Write Complete: ID=11, ADDR=0x100006fc, RESP=OKAY, Latency=15 cycles
UVM_INFO sv/axi4_monitor.sv(286) @ 587000: uvm_test_top.m_env.m_master_agent.m_monitor [axi4_monitor] Write Complete: ID=8, ADDR=0x10000738, RESP=OKAY, Latency=14 cycles
UVM_INFO sv/axi4_monitor.sv(286) @ 591000: uvm_test_top.m_env.m_master_agent.m_monitor [axi4_monitor] Write Complete: ID=1, ADDR=0x10000770, RESP=OKAY, Latency=3 cycles
UVM_INFO sv/axi4_monitor.sv(286) @ 609000: uvm_test_top.m_env.m_master_agent.m_monitor [axi4_monitor] Write Complete: ID=10, ADDR=0x1000077c, RESP=OKAY, Latency=15 cycles
UVM_INFO sv/axi4_monitor.sv(286) @ 617000: uvm_test_top.m_env.m_master_agent.m_monitor [axi4_monitor] Write Complete: ID=6, ADDR=0x100007b8, RESP=OKAY, Latency=7 cycles
UVM_INFO sv/axi4_monitor.sv(286) @ 629000: uvm_test_top.m_env.m_master_agent.m_monitor [axi4_monitor] Write Complete: ID=1, ADDR=0x100007d4, RESP=OKAY, Latency=11 cycles
UVM_INFO sv/axi4_monitor.sv(286) @ 633000: uvm_test_top.m_env.m_master_agent.m_monitor [axi4_monitor] Write Complete: ID=4, ADDR=0x10000800, RESP=OKAY, Latency=3 cycles
UVM_INFO sv/axi4_monitor.sv(286) @ 639000: uvm_test_top.m_env.m_master_agent.m_monitor [axi4_monitor] Write Complete: ID=14, ADDR=0x1000080c, RESP=OKAY, Latency=3 cycles
UVM_INFO sv/axi4_monitor.sv(286) @ 655000: uvm_test_top.m_env.m_master_agent.m_monitor [axi4_monitor] Write Complete: ID=11, ADDR=0x10000818, RESP=OKAY, Latency=13 cycles
UVM_INFO sv/axi4_monitor.sv(286) @ 659000: uvm_test_top.m_env.m_master_agent.m_monitor [axi4_monitor] Write Complete: ID=1, ADDR=0x1000084c, RESP=OKAY, Latency=3 cycles
UVM_INFO sv/axi4_monitor.sv(286) @ 670000: uvm_test_top.m_env.m_master_agent.m_monitor [axi4_monitor] Write Complete: ID=8, ADDR=0x10000858, RESP=OKAY, Latency=8 cycles
UVM_INFO sv/axi4_monitor.sv(286) @ 676000: uvm_test_top.m_env.m_master_agent.m_monitor [axi4_monitor] Write Complete: ID=6, ADDR=0x10000878, RESP=OKAY, Latency=5 cycles
UVM_INFO sv/axi4_monitor.sv(286) @ 679000: uvm_test_top.m_env.m_master_agent.m_monitor [axi4_monitor] Write Complete: ID=1, ADDR=0x1000088c, RESP=OKAY, Latency=2 cycles
UVM_INFO sv/axi4_monitor.sv(286) @ 695000: uvm_test_top.m_env.m_master_agent.m_monitor [axi4_monitor] Write Complete: ID=11, ADDR=0x10000894, RESP=OKAY, Latency=12 cycles
UVM_INFO sv/axi4_monitor.sv(286) @ 708000: uvm_test_top.m_env.m_master_agent.m_monitor [axi4_monitor] Write Complete: ID=8, ADDR=0x100008c4, RESP=OKAY, Latency=12 cycles
UVM_INFO sv/axi4_monitor.sv(286) @ 714000: uvm_test_top.m_env.m_master_agent.m_monitor [axi4_monitor] Write Complete: ID=8, ADDR=0x100008f4, RESP=OKAY, Latency=5 cycles
UVM_INFO sv/axi4_monitor.sv(286) @ 720000: uvm_test_top.m_env.m_master_agent.m_monitor [axi4_monitor] Write Complete: ID=4, ADDR=0x10000908, RESP=OKAY, Latency=5 cycles
UVM_INFO sv/axi4_monitor.sv(286) @ 724000: uvm_test_top.m_env.m_master_agent.m_monitor [axi4_monitor] Write Complete: ID=4, ADDR=0x1000091c, RESP=OKAY, Latency=3 cycles
UVM_INFO sv/axi4_monitor.sv(286) @ 733000: uvm_test_top.m_env.m_master_agent.m_monitor [axi4_monitor] Write Complete: ID=2, ADDR=0x10000928, RESP=OKAY, Latency=6 cycles
UVM_INFO sv/axi4_monitor.sv(286) @ 736000: uvm_test_top.m_env.m_master_agent.m_monitor [axi4_monitor] Write Complete: ID=14, ADDR=0x10000940, RESP=OKAY, Latency=2 cycles
UVM_INFO sv/axi4_monitor.sv(286) @ 744000: uvm_test_top.m_env.m_master_agent.m_monitor [axi4_monitor] Write Complete: ID=12, ADDR=0x10000948, RESP=OKAY, Latency=4 cycles
UVM_INFO sv/axi4_monitor.sv(286) @ 755000: uvm_test_top.m_env.m_master_agent.m_monitor [axi4_monitor] Write Complete: ID=11, ADDR=0x10000958, RESP=OKAY, Latency=9 cycles
UVM_INFO sv/axi4_monitor.sv(286) @ 761000: uvm_test_top.m_env.m_master_agent.m_monitor [axi4_monitor] Write Complete: ID=13, ADDR=0x1000097c, RESP=OKAY, Latency=5 cycles
UVM_INFO sv/axi4_monitor.sv(286) @ 767000: uvm_test_top.m_env.m_master_agent.m_monitor [axi4_monitor] Write Complete: ID=10, ADDR=0x10000990, RESP=OKAY, Latency=5 cycles
UVM_INFO sv/axi4_monitor.sv(286) @ 770000: uvm_test_top.m_env.m_master_agent.m_monitor [axi4_monitor] Write Complete: ID=2, ADDR=0x100009a4, RESP=OKAY, Latency=2 cycles
UVM_INFO sv/axi4_monitor.sv(286) @ 785000: uvm_test_top.m_env.m_master_agent.m_monitor [axi4_monitor] Write Complete: ID=9, ADDR=0x100009ac, RESP=OKAY, Latency=11 cycles
UVM_INFO sv/axi4_monitor.sv(286) @ 793000: uvm_test_top.m_env.m_master_agent.m_monitor [axi4_monitor] Write Complete: ID=6, ADDR=0x100009d8, RESP=OKAY, Latency=7 cycles
UVM_INFO sv/axi4_monitor.sv(286) @ 795000: uvm_test_top.m_env.m_master_agent.m_monitor [axi4_monitor] Write Complete: ID=12, ADDR=0x100009f4, RESP=OKAY, Latency=1 cycles
UVM_INFO sv/axi4_monitor.sv(286) @ 816000: uvm_test_top.m_env.m_master_agent.m_monitor [axi4_monitor] Write Complete: ID=13, ADDR=0x100009f8, RESP=OKAY, Latency=16 cycles
UVM_INFO sv/axi4_monitor.sv(286) @ 829000: uvm_test_top.m_env.m_master_agent.m_monitor [axi4_monitor] Write Complete: ID=7, ADDR=0x10000a38, RESP=OKAY, Latency=12 cycles
UVM_INFO sv/axi4_monitor.sv(286) @ 841000: uvm_test_top.m_env.m_master_agent.m_monitor [axi4_monitor] Write Complete: ID=3, ADDR=0x10000a68, RESP=OKAY, Latency=11 cycles
UVM_INFO sv/axi4_monitor.sv(286) @ 854000: uvm_test_top.m_env.m_master_agent.m_monitor [axi4_monitor] Write Complete: ID=6, ADDR=0x10000a94, RESP=OKAY, Latency=12 cycles
UVM_INFO sv/axi4_monitor.sv(286) @ 859000: uvm_test_top.m_env.m_master_agent.m_monitor [axi4_monitor] Write Complete: ID=14, ADDR=0x10000ac4, RESP=OKAY, Latency=4 cycles
UVM_INFO sv/axi4_monitor.sv(286) @ 867000: uvm_test_top.m_env.m_master_agent.m_monitor [axi4_monitor] Write Complete: ID=10, ADDR=0x10000ad4, RESP=OKAY, Latency=6 cycles
UVM_INFO sv/axi4_monitor.sv(286) @ 873000: uvm_test_top.m_env.m_master_agent.m_monitor [axi4_monitor] Write Complete: ID=1, ADDR=0x10000aec, RESP=OKAY, Latency=5 cycles
UVM_INFO sv/axi4_monitor.sv(286) @ 877000: uvm_test_top.m_env.m_master_agent.m_monitor [axi4_monitor] Write Complete: ID=9, ADDR=0x10000b00, RESP=OKAY, Latency=3 cycles
UVM_INFO sv/axi4_monitor.sv(286) @ 892000: uvm_test_top.m_env.m_master_agent.m_monitor [axi4_monitor] Write Complete: ID=8, ADDR=0x10000b0c, RESP=OKAY, Latency=12 cycles
UVM_INFO sv/axi4_monitor.sv(286) @ 897000: uvm_test_top.m_env.m_master_agent.m_monitor [axi4_monitor] Write Complete: ID=12, ADDR=0x10000b3c, RESP=OKAY, Latency=4 cycles
UVM_INFO sv/axi4_monitor.sv(286) @ 912000: uvm_test_top.m_env.m_master_agent.m_monitor [axi4_monitor] Write Complete: ID=6, ADDR=0x10000b4c, RESP=OKAY, Latency=13 cycles
UVM_INFO sv/axi4_monitor.sv(286) @ 919000: uvm_test_top.m_env.m_master_agent.m_monitor [axi4_monitor] Write Complete: ID=8, ADDR=0x10000b80, RESP=OKAY, Latency=6 cycles
UVM_INFO sv/axi4_monitor.sv(286) @ 936000: uvm_test_top.m_env.m_master_agent.m_monitor [axi4_monitor] Write Complete: ID=7, ADDR=0x10000b98, RESP=OKAY, Latency=16 cycles
UVM_INFO sv/axi4_monitor.sv(286) @ 945000: uvm_test_top.m_env.m_master_agent.m_monitor [axi4_monitor] Write Complete: ID=6, ADDR=0x10000bd8, RESP=OKAY, Latency=8 cycles
UVM_INFO sv/axi4_monitor.sv(286) @ 956000: uvm_test_top.m_env.m_master_agent.m_monitor [axi4_monitor] Write Complete: ID=4, ADDR=0x10000bf8, RESP=OKAY, Latency=10 cycles
UVM_INFO sv/seq_lib.sv(3411) @ 956000: uvm_test_top.m_env.m_master_agent.m_sequencer@@seq [axi4_data_first_sequence] Write progress: 100/500 transactions
UVM_INFO sv/axi4_monitor.sv(286) @ 961000: uvm_test_top.m_env.m_master_agent.m_monitor [axi4_monitor] Write Complete: ID=3, ADDR=0x10000c20, RESP=OKAY, Latency=4 cycles
UVM_INFO sv/axi4_monitor.sv(286) @ 977000: uvm_test_top.m_env.m_master_agent.m_monitor [axi4_monitor] Write Complete: ID=12, ADDR=0x10000c30, RESP=OKAY, Latency=14 cycles
UVM_INFO sv/axi4_monitor.sv(286) @ 981000: uvm_test_top.m_env.m_master_agent.m_monitor [axi4_monitor] Write Complete: ID=10, ADDR=0x10000c68, RESP=OKAY, Latency=3 cycles
UVM_INFO sv/axi4_monitor.sv(286) @ 996000: uvm_test_top.m_env.m_master_agent.m_monitor [axi4_monitor] Write Complete: ID=11, ADDR=0x10000c74, RESP=OKAY, Latency=12 cycles
UVM_INFO sv/axi4_monitor.sv(286) @ 1002000: uvm_test_top.m_env.m_master_agent.m_monitor [axi4_monitor] Write Complete: ID=0, ADDR=0x10000ca4, RESP=OKAY, Latency=5 cycles
UVM_INFO sv/axi4_monitor.sv(286) @ 1004000: uvm_test_top.m_env.m_master_agent.m_monitor [axi4_monitor] Write Complete: ID=13, ADDR=0x10000cb8, RESP=OKAY, Latency=1 cycles
UVM_INFO sv/axi4_monitor.sv(286) @ 1021000: uvm_test_top.m_env.m_master_agent.m_monitor [axi4_monitor] Write Complete: ID=10, ADDR=0x10000cbc, RESP=OKAY, Latency=12 cycles
UVM_INFO sv/axi4_monitor.sv(286) @ 1032000: uvm_test_top.m_env.m_master_agent.m_monitor [axi4_monitor] Write Complete: ID=15, ADDR=0x10000cec, RESP=OKAY, Latency=10 cycles
UVM_INFO sv/axi4_monitor.sv(286) @ 1049000: uvm_test_top.m_env.m_master_agent.m_monitor [axi4_monitor] Write Complete: ID=14, ADDR=0x10000d14, RESP=OKAY, Latency=16 cycles
UVM_INFO sv/axi4_monitor.sv(286) @ 1063000: uvm_test_top.m_env.m_master_agent.m_monitor [axi4_monitor] Write Complete: ID=3, ADDR=0x10000d54, RESP=OKAY, Latency=13 cycles
UVM_INFO sv/axi4_monitor.sv(286) @ 1080000: uvm_test_top.m_env.m_master_agent.m_monitor [axi4_monitor] Write Complete: ID=10, ADDR=0x10000d88, RESP=OKAY, Latency=16 cycles
UVM_INFO sv/axi4_monitor.sv(286) @ 1096000: uvm_test_top.m_env.m_master_agent.m_monitor [axi4_monitor] Write Complete: ID=15, ADDR=0x10000dc8, RESP=OKAY, Latency=15 cycles
UVM_INFO sv/axi4_monitor.sv(286) @ 1106000: uvm_test_top.m_env.m_master_agent.m_monitor [axi4_monitor] Write Complete: ID=15, ADDR=0x10000e04, RESP=OKAY, Latency=9 cycles
UVM_INFO sv/axi4_monitor.sv(286) @ 1115000: uvm_test_top.m_env.m_master_agent.m_monitor [axi4_monitor] Write Complete: ID=7, ADDR=0x10000e28, RESP=OKAY, Latency=8 cycles
UVM_INFO sv/axi4_monitor.sv(286) @ 1124000: uvm_test_top.m_env.m_master_agent.m_monitor [axi4_monitor] Write Complete: ID=2, ADDR=0x10000e48, RESP=OKAY, Latency=8 cycles
UVM_INFO sv/axi4_monitor.sv(286) @ 1132000: uvm_test_top.m_env.m_master_agent.m_monitor [axi4_monitor] Write Complete: ID=5, ADDR=0x10000e68, RESP=OKAY, Latency=7 cycles
UVM_INFO sv/axi4_monitor.sv(286) @ 1147000: uvm_test_top.m_env.m_master_agent.m_monitor [axi4_monitor] Write Complete: ID=10, ADDR=0x10000e84, RESP=OKAY, Latency=14 cycles
UVM_INFO sv/axi4_monitor.sv(286) @ 1161000: uvm_test_top.m_env.m_master_agent.m_monitor [axi4_monitor] Write Complete: ID=14, ADDR=0x10000ebc, RESP=OKAY, Latency=13 cycles
UVM_INFO sv/axi4_monitor.sv(286) @ 1163000: uvm_test_top.m_env.m_master_agent.m_monitor [axi4_monitor] Write Complete: ID=7, ADDR=0x10000ef0, RESP=OKAY, Latency=1 cycles
UVM_INFO sv/axi4_monitor.sv(286) @ 1180000: uvm_test_top.m_env.m_master_agent.m_monitor [axi4_monitor] Write Complete: ID=2, ADDR=0x10000ef4, RESP=OKAY, Latency=12 cycles
UVM_INFO sv/axi4_monitor.sv(286) @ 1195000: uvm_test_top.m_env.m_master_agent.m_monitor [axi4_monitor] Write Complete: ID=3, ADDR=0x10000f24, RESP=OKAY, Latency=14 cycles
UVM_INFO sv/axi4_monitor.sv(286) @ 1207000: uvm_test_top.m_env.m_master_agent.m_monitor [axi4_monitor] Write Complete: ID=9, ADDR=0x10000f5c, RESP=OKAY, Latency=11 cycles
UVM_INFO sv/axi4_monitor.sv(286) @ 1209000: uvm_test_top.m_env.m_master_agent.m_monitor [axi4_monitor] Write Complete: ID=1, ADDR=0x10000f88, RESP=OKAY, Latency=1 cycles
UVM_INFO sv/axi4_monitor.sv(286) @ 1216000: uvm_test_top.m_env.m_master_agent.m_monitor [axi4_monitor] Write Complete: ID=4, ADDR=0x10000f8c, RESP=OKAY, Latency=2 cycles
UVM_INFO sv/axi4_monitor.sv(286) @ 1233000: uvm_test_top.m_env.m_master_agent.m_monitor [axi4_monitor] Write Complete: ID=6, ADDR=0x10000f94, RESP=OKAY, Latency=13 cycles
UVM_INFO sv/axi4_master_driver.sv(177) @ 1240000: uvm_test_top.m_env.m_master_agent.m_driver [axi4_master_driver] Splitting burst into 2 sub-bursts
UVM_INFO sv/axi4_monitor.sv(286) @ 1245000: uvm_test_top.m_env.m_master_agent.m_monitor [axi4_monitor] Write Complete: ID=9, ADDR=0x10000fc8, RESP=OKAY, Latency=11 cycles
UVM_INFO sv/axi4_monitor.sv(286) @ 1249000: uvm_test_top.m_env.m_master_agent.m_monitor [axi4_monitor] Write Complete: ID=0, ADDR=0x10000ff4, RESP=OKAY, Latency=3 cycles
UVM_INFO sv/axi4_monitor.sv(286) @ 1252000: uvm_test_top.m_env.m_master_agent.m_monitor [axi4_monitor] Write Complete: ID=1, ADDR=0x10001000, RESP=OKAY, Latency=1 cycles
UVM_INFO sv/axi4_monitor.sv(286) @ 1265000: uvm_test_top.m_env.m_master_agent.m_monitor [axi4_monitor] Write Complete: ID=1, ADDR=0x10001004, RESP=OKAY, Latency=8 cycles
UVM_INFO sv/axi4_monitor.sv(286) @ 1279000: uvm_test_top.m_env.m_master_agent.m_monitor [axi4_monitor] Write Complete: ID=12, ADDR=0x10001024, RESP=OKAY, Latency=13 cycles
UVM_INFO sv/axi4_monitor.sv(286) @ 1293000: uvm_test_top.m_env.m_master_agent.m_monitor [axi4_monitor] Write Complete: ID=11, ADDR=0x10001058, RESP=OKAY, Latency=13 cycles
UVM_INFO sv/axi4_monitor.sv(286) @ 1296000: uvm_test_top.m_env.m_master_agent.m_monitor [axi4_monitor] Write Complete: ID=8, ADDR=0x1000108c, RESP=OKAY, Latency=2 cycles
UVM_INFO sv/axi4_monitor.sv(286) @ 1309000: uvm_test_top.m_env.m_master_agent.m_monitor [axi4_monitor] Write Complete: ID=1, ADDR=0x10001094, RESP=OKAY, Latency=9 cycles
UVM_INFO sv/axi4_monitor.sv(286) @ 1320000: uvm_test_top.m_env.m_master_agent.m_monitor [axi4_monitor] Write Complete: ID=3, ADDR=0x100010b8, RESP=OKAY, Latency=10 cycles
UVM_INFO sv/axi4_monitor.sv(286) @ 1334000: uvm_test_top.m_env.m_master_agent.m_monitor [axi4_monitor] Write Complete: ID=11, ADDR=0x100010e0, RESP=OKAY, Latency=13 cycles
UVM_INFO sv/axi4_monitor.sv(286) @ 1339000: uvm_test_top.m_env.m_master_agent.m_monitor [axi4_monitor] Write Complete: ID=8, ADDR=0x10001114, RESP=OKAY, Latency=4 cycles
UVM_INFO sv/axi4_monitor.sv(286) @ 1356000: uvm_test_top.m_env.m_master_agent.m_monitor [axi4_monitor] Write Complete: ID=14, ADDR=0x10001124, RESP=OKAY, Latency=15 cycles
UVM_INFO sv/axi4_monitor.sv(286) @ 1364000: uvm_test_top.m_env.m_master_agent.m_monitor [axi4_monitor] Write Complete: ID=13, ADDR=0x10001160, RESP=OKAY, Latency=7 cycles
UVM_INFO sv/axi4_monitor.sv(286) @ 1371000: uvm_test_top.m_env.m_master_agent.m_monitor [axi4_monitor] Write Complete: ID=4, ADDR=0x1000117c, RESP=OKAY, Latency=6 cycles
UVM_INFO sv/axi4_monitor.sv(286) @ 1377000: uvm_test_top.m_env.m_master_agent.m_monitor [axi4_monitor] Write Complete: ID=8, ADDR=0x10001194, RESP=OKAY, Latency=5 cycles
UVM_INFO sv/axi4_monitor.sv(286) @ 1384000: uvm_test_top.m_env.m_master_agent.m_monitor [axi4_monitor] Write Complete: ID=1, ADDR=0x100011a8, RESP=OKAY, Latency=6 cycles
UVM_INFO sv/axi4_monitor.sv(286) @ 1397000: uvm_test_top.m_env.m_master_agent.m_monitor [axi4_monitor] Write Complete: ID=12, ADDR=0x100011c0, RESP=OKAY, Latency=12 cycles
UVM_INFO sv/axi4_monitor.sv(286) @ 1404000: uvm_test_top.m_env.m_master_agent.m_monitor [axi4_monitor] Write Complete: ID=9, ADDR=0x100011f0, RESP=OKAY, Latency=6 cycles
UVM_INFO sv/axi4_monitor.sv(286) @ 1406000: uvm_test_top.m_env.m_master_agent.m_monitor [axi4_monitor] Write Complete: ID=7, ADDR=0x10001208, RESP=OKAY, Latency=1 cycles
UVM_INFO sv/axi4_monitor.sv(286) @ 1420000: uvm_test_top.m_env.m_master_agent.m_monitor [axi4_monitor] Write Complete: ID=8, ADDR=0x1000120c, RESP=OKAY, Latency=9 cycles
UVM_INFO sv/axi4_monitor.sv(286) @ 1427000: uvm_test_top.m_env.m_master_agent.m_monitor [axi4_monitor] Write Complete: ID=4, ADDR=0x10001230, RESP=OKAY, Latency=6 cycles
UVM_INFO sv/axi4_monitor.sv(286) @ 1432000: uvm_test_top.m_env.m_master_agent.m_monitor [axi4_monitor] Write Complete: ID=9, ADDR=0x10001248, RESP=OKAY, Latency=4 cycles
UVM_INFO sv/axi4_monitor.sv(286) @ 1435000: uvm_test_top.m_env.m_master_agent.m_monitor [axi4_monitor] Write Complete: ID=3, ADDR=0x10001258, RESP=OKAY, Latency=1 cycles
UVM_INFO sv/axi4_monitor.sv(286) @ 1454000: uvm_test_top.m_env.m_master_agent.m_monitor [axi4_monitor] Write Complete: ID=5, ADDR=0x1000125c, RESP=OKAY, Latency=14 cycles
UVM_INFO sv/axi4_monitor.sv(286) @ 1466000: uvm_test_top.m_env.m_master_agent.m_monitor [axi4_monitor] Write Complete: ID=3, ADDR=0x10001294, RESP=OKAY, Latency=11 cycles
UVM_INFO sv/axi4_monitor.sv(286) @ 1480000: uvm_test_top.m_env.m_master_agent.m_monitor [axi4_monitor] Write Complete: ID=13, ADDR=0x100012c0, RESP=OKAY, Latency=13 cycles
UVM_INFO sv/axi4_monitor.sv(286) @ 1493000: uvm_test_top.m_env.m_master_agent.m_monitor [axi4_monitor] Write Complete: ID=2, ADDR=0x100012f4, RESP=OKAY, Latency=12 cycles
UVM_INFO sv/axi4_monitor.sv(286) @ 1502000: uvm_test_top.m_env.m_master_agent.m_monitor [axi4_monitor] Write Complete: ID=11, ADDR=0x10001324, RESP=OKAY, Latency=8 cycles
UVM_INFO sv/axi4_monitor.sv(286) @ 1507000: uvm_test_top.m_env.m_master_agent.m_monitor [axi4_monitor] Write Complete: ID=9, ADDR=0x10001344, RESP=OKAY, Latency=4 cycles
UVM_INFO sv/axi4_monitor.sv(286) @ 1525000: uvm_test_top.m_env.m_master_agent.m_monitor [axi4_monitor] Write Complete: ID=8, ADDR=0x10001354, RESP=OKAY, Latency=16 cycles
UVM_INFO sv/axi4_monitor.sv(286) @ 1531000: uvm_test_top.m_env.m_master_agent.m_monitor [axi4_monitor] Write Complete: ID=11, ADDR=0x10001394, RESP=OKAY, Latency=5 cycles
UVM_INFO sv/axi4_monitor.sv(286) @ 1546000: uvm_test_top.m_env.m_master_agent.m_monitor [axi4_monitor] Write Complete: ID=7, ADDR=0x100013a8, RESP=OKAY, Latency=14 cycles
UVM_INFO sv/axi4_monitor.sv(286) @ 1560000: uvm_test_top.m_env.m_master_agent.m_monitor [axi4_monitor] Write Complete: ID=12, ADDR=0x100013e0, RESP=OKAY, Latency=13 cycles
UVM_INFO sv/axi4_monitor.sv(286) @ 1566000: uvm_test_top.m_env.m_master_agent.m_monitor [axi4_monitor] Write Complete: ID=10, ADDR=0x10001414, RESP=OKAY, Latency=5 cycles
UVM_INFO sv/axi4_monitor.sv(286) @ 1573000: uvm_test_top.m_env.m_master_agent.m_monitor [axi4_monitor] Write Complete: ID=2, ADDR=0x10001428, RESP=OKAY, Latency=6 cycles
UVM_INFO sv/axi4_monitor.sv(286) @ 1583000: uvm_test_top.m_env.m_master_agent.m_monitor [axi4_monitor] Write Complete: ID=12, ADDR=0x10001440, RESP=OKAY, Latency=9 cycles
UVM_INFO sv/axi4_monitor.sv(286) @ 1589000: uvm_test_top.m_env.m_master_agent.m_monitor [axi4_monitor] Write Complete: ID=2, ADDR=0x10001464, RESP=OKAY, Latency=5 cycles
UVM_INFO sv/axi4_monitor.sv(286) @ 1598000: uvm_test_top.m_env.m_master_agent.m_monitor [axi4_monitor] Write Complete: ID=2, ADDR=0x10001478, RESP=OKAY, Latency=8 cycles
UVM_INFO sv/axi4_monitor.sv(286) @ 1614000: uvm_test_top.m_env.m_master_agent.m_monitor [axi4_monitor] Write Complete: ID=15, ADDR=0x10001498, RESP=OKAY, Latency=15 cycles
UVM_INFO sv/axi4_monitor.sv(286) @ 1626000: uvm_test_top.m_env.m_master_agent.m_monitor [axi4_monitor] Write Complete: ID=12, ADDR=0x100014d4, RESP=OKAY, Latency=11 cycles
UVM_INFO sv/axi4_monitor.sv(286) @ 1632000: uvm_test_top.m_env.m_master_agent.m_monitor [axi4_monitor] Write Complete: ID=0, ADDR=0x10001500, RESP=OKAY, Latency=5 cycles
UVM_INFO sv/axi4_monitor.sv(286) @ 1644000: uvm_test_top.m_env.m_master_agent.m_monitor [axi4_monitor] Write Complete: ID=15, ADDR=0x10001514, RESP=OKAY, Latency=11 cycles
UVM_INFO sv/axi4_monitor.sv(286) @ 1647000: uvm_test_top.m_env.m_master_agent.m_monitor [axi4_monitor] Write Complete: ID=4, ADDR=0x10001540, RESP=OKAY, Latency=2 cycles
UVM_INFO sv/axi4_monitor.sv(286) @ 1661000: uvm_test_top.m_env.m_master_agent.m_monitor [axi4_monitor] Write Complete: ID=11, ADDR=0x10001548, RESP=OKAY, Latency=10 cycles
UVM_INFO sv/axi4_monitor.sv(286) @ 1663000: uvm_test_top.m_env.m_master_agent.m_monitor [axi4_monitor] Write Complete: ID=2, ADDR=0x10001570, RESP=OKAY, Latency=1 cycles
UVM_INFO sv/axi4_monitor.sv(286) @ 1672000: uvm_test_top.m_env.m_master_agent.m_monitor [axi4_monitor] Write Complete: ID=8, ADDR=0x10001574, RESP=OKAY, Latency=4 cycles
UVM_INFO sv/axi4_monitor.sv(286) @ 1686000: uvm_test_top.m_env.m_master_agent.m_monitor [axi4_monitor] Write Complete: ID=4, ADDR=0x10001584, RESP=OKAY, Latency=12 cycles
UVM_INFO sv/axi4_monitor.sv(286) @ 1698000: uvm_test_top.m_env.m_master_agent.m_monitor [axi4_monitor] Write Complete: ID=6, ADDR=0x100015b4, RESP=OKAY, Latency=11 cycles
UVM_INFO sv/axi4_monitor.sv(286) @ 1710000: uvm_test_top.m_env.m_master_agent.m_monitor [axi4_monitor] Write Complete: ID=4, ADDR=0x100015e0, RESP=OKAY, Latency=11 cycles
UVM_INFO sv/axi4_monitor.sv(286) @ 1721000: uvm_test_top.m_env.m_master_agent.m_monitor [axi4_monitor] Write Complete: ID=2, ADDR=0x1000160c, RESP=OKAY, Latency=10 cycles
UVM_INFO sv/axi4_monitor.sv(286) @ 1738000: uvm_test_top.m_env.m_master_agent.m_monitor [axi4_monitor] Write Complete: ID=3, ADDR=0x10001634, RESP=OKAY, Latency=16 cycles
UVM_INFO sv/axi4_monitor.sv(286) @ 1740000: uvm_test_top.m_env.m_master_agent.m_monitor [axi4_monitor] Write Complete: ID=15, ADDR=0x10001674, RESP=OKAY, Latency=1 cycles
UVM_INFO sv/axi4_monitor.sv(286) @ 1750000: uvm_test_top.m_env.m_master_agent.m_monitor [axi4_monitor] Write Complete: ID=10, ADDR=0x10001678, RESP=OKAY, Latency=5 cycles
UVM_INFO sv/axi4_monitor.sv(286) @ 1752000: uvm_test_top.m_env.m_master_agent.m_monitor [axi4_monitor] Write Complete: ID=15, ADDR=0x1000168c, RESP=OKAY, Latency=1 cycles
UVM_INFO sv/axi4_monitor.sv(286) @ 1768000: uvm_test_top.m_env.m_master_agent.m_monitor [axi4_monitor] Write Complete: ID=13, ADDR=0x10001690, RESP=OKAY, Latency=11 cycles
UVM_INFO sv/axi4_monitor.sv(286) @ 1775000: uvm_test_top.m_env.m_master_agent.m_monitor [axi4_monitor] Write Complete: ID=0, ADDR=0x100016bc, RESP=OKAY, Latency=6 cycles
UVM_INFO sv/axi4_monitor.sv(286) @ 1790000: uvm_test_top.m_env.m_master_agent.m_monitor [axi4_monitor] Write Complete: ID=7, ADDR=0x100016d4, RESP=OKAY, Latency=14 cycles
UVM_INFO sv/axi4_monitor.sv(286) @ 1804000: uvm_test_top.m_env.m_master_agent.m_monitor [axi4_monitor] Write Complete: ID=7, ADDR=0x1000170c, RESP=OKAY, Latency=13 cycles
UVM_INFO sv/axi4_monitor.sv(286) @ 1813000: uvm_test_top.m_env.m_master_agent.m_monitor [axi4_monitor] Write Complete: ID=0, ADDR=0x10001740, RESP=OKAY, Latency=8 cycles
UVM_INFO sv/axi4_monitor.sv(286) @ 1830000: uvm_test_top.m_env.m_master_agent.m_monitor [axi4_monitor] Write Complete: ID=11, ADDR=0x10001760, RESP=OKAY, Latency=16 cycles
UVM_INFO sv/axi4_monitor.sv(286) @ 1842000: uvm_test_top.m_env.m_master_agent.m_monitor [axi4_monitor] Write Complete: ID=5, ADDR=0x100017a0, RESP=OKAY, Latency=11 cycles
UVM_INFO sv/axi4_monitor.sv(286) @ 1850000: uvm_test_top.m_env.m_master_agent.m_monitor [axi4_monitor] Write Complete: ID=15, ADDR=0x100017cc, RESP=OKAY, Latency=7 cycles
UVM_INFO sv/axi4_monitor.sv(286) @ 1857000: uvm_test_top.m_env.m_master_agent.m_monitor [axi4_monitor] Write Complete: ID=13, ADDR=0x100017e8, RESP=OKAY, Latency=6 cycles
UVM_INFO sv/axi4_monitor.sv(286) @ 1860000: uvm_test_top.m_env.m_master_agent.m_monitor [axi4_monitor] Write Complete: ID=9, ADDR=0x10001800, RESP=OKAY, Latency=2 cycles
UVM_INFO sv/axi4_monitor.sv(286) @ 1871000: uvm_test_top.m_env.m_master_agent.m_monitor [axi4_monitor] Write Complete: ID=9, ADDR=0x10001808, RESP=OKAY, Latency=7 cycles
UVM_INFO sv/axi4_monitor.sv(286) @ 1879000: uvm_test_top.m_env.m_master_agent.m_monitor [axi4_monitor] Write Complete: ID=9, ADDR=0x10001824, RESP=OKAY, Latency=7 cycles
UVM_INFO sv/axi4_monitor.sv(286) @ 1895000: uvm_test_top.m_env.m_master_agent.m_monitor [axi4_monitor] Write Complete: ID=6, ADDR=0x10001840, RESP=OKAY, Latency=15 cycles
UVM_INFO sv/axi4_monitor.sv(286) @ 1912000: uvm_test_top.m_env.m_master_agent.m_monitor [axi4_monitor] Write Complete: ID=12, ADDR=0x1000187c, RESP=OKAY, Latency=16 cycles
UVM_INFO sv/axi4_monitor.sv(286) @ 1920000: uvm_test_top.m_env.m_master_agent.m_monitor [axi4_monitor] Write Complete: ID=1, ADDR=0x100018bc, RESP=OKAY, Latency=7 cycles
UVM_INFO sv/axi4_monitor.sv(286) @ 1924000: uvm_test_top.m_env.m_master_agent.m_monitor [axi4_monitor] Write Complete: ID=12, ADDR=0x100018d8, RESP=OKAY, Latency=3 cycles
UVM_INFO sv/axi4_monitor.sv(286) @ 1931000: uvm_test_top.m_env.m_master_agent.m_monitor [axi4_monitor] Write Complete: ID=15, ADDR=0x100018e4, RESP=OKAY, Latency=4 cycles
UVM_INFO sv/axi4_monitor.sv(286) @ 1948000: uvm_test_top.m_env.m_master_agent.m_monitor [axi4_monitor] Write Complete: ID=14, ADDR=0x100018f4, RESP=OKAY, Latency=15 cycles
UVM_INFO sv/axi4_monitor.sv(286) @ 1965000: uvm_test_top.m_env.m_master_agent.m_monitor [axi4_monitor] Write Complete: ID=14, ADDR=0x10001930, RESP=OKAY, Latency=16 cycles
UVM_INFO sv/axi4_monitor.sv(286) @ 1969000: uvm_test_top.m_env.m_master_agent.m_monitor [axi4_monitor] Write Complete: ID=5, ADDR=0x10001970, RESP=OKAY, Latency=3 cycles
UVM_INFO sv/axi4_monitor.sv(286) @ 1988000: uvm_test_top.m_env.m_master_agent.m_monitor [axi4_monitor] Write Complete: ID=3, ADDR=0x1000197c, RESP=OKAY, Latency=16 cycles
UVM_INFO sv/axi4_monitor.sv(286) @ 2001000: uvm_test_top.m_env.m_master_agent.m_monitor [axi4_monitor] Write Complete: ID=1, ADDR=0x100019bc, RESP=OKAY, Latency=12 cycles
UVM_INFO sv/seq_lib.sv(3411) @ 2008000: uvm_test_top.m_env.m_master_agent.m_sequencer@@seq [axi4_data_first_sequence] Write progress: 200/500 transactions
UVM_INFO sv/axi4_monitor.sv(286) @ 2014000: uvm_test_top.m_env.m_master_agent.m_monitor [axi4_monitor] Write Complete: ID=5, ADDR=0x100019ec, RESP=OKAY, Latency=12 cycles
UVM_INFO sv/axi4_monitor.sv(286) @ 2024000: uvm_test_top.m_env.m_master_agent.m_monitor [axi4_monitor] Write Complete: ID=1, ADDR=0x10001a1c, RESP=OKAY, Latency=9 cycles
UVM_INFO sv/axi4_monitor.sv(286) @ 2030000: uvm_test_top.m_env.m_master_agent.m_monitor [axi4_monitor] Write Complete: ID=14, ADDR=0x10001a40, RESP=OKAY, Latency=5 cycles
UVM_INFO sv/axi4_monitor.sv(286) @ 2039000: uvm_test_top.m_env.m_master_agent.m_monitor [axi4_monitor] Write Complete: ID=1, ADDR=0x10001a54, RESP=OKAY, Latency=8 cycles
UVM_INFO sv/axi4_monitor.sv(286) @ 2047000: uvm_test_top.m_env.m_master_agent.m_monitor [axi4_monitor] Write Complete: ID=10, ADDR=0x10001a74, RESP=OKAY, Latency=7 cycles
UVM_INFO sv/axi4_monitor.sv(286) @ 2055000: uvm_test_top.m_env.m_master_agent.m_monitor [axi4_monitor] Write Complete: ID=13, ADDR=0x10001a90, RESP=OKAY, Latency=7 cycles
UVM_INFO sv/axi4_monitor.sv(286) @ 2061000: uvm_test_top.m_env.m_master_agent.m_monitor [axi4_monitor] Write Complete: ID=5, ADDR=0x10001aac, RESP=OKAY, Latency=5 cycles
UVM_INFO sv/axi4_monitor.sv(286) @ 2069000: uvm_test_top.m_env.m_master_agent.m_monitor [axi4_monitor] Write Complete: ID=10, ADDR=0x10001ac0, RESP=OKAY, Latency=7 cycles
UVM_INFO sv/axi4_monitor.sv(286) @ 2080000: uvm_test_top.m_env.m_master_agent.m_monitor [axi4_monitor] Write Complete: ID=9, ADDR=0x10001adc, RESP=OKAY, Latency=10 cycles
UVM_INFO sv/axi4_monitor.sv(286) @ 2086000: uvm_test_top.m_env.m_master_agent.m_monitor [axi4_monitor] Write Complete: ID=1, ADDR=0x10001b04, RESP=OKAY, Latency=5 cycles
UVM_INFO sv/axi4_monitor.sv(286) @ 2089000: uvm_test_top.m_env.m_master_agent.m_monitor [axi4_monitor] Write Complete: ID=15, ADDR=0x10001b18, RESP=OKAY, Latency=2 cycles
UVM_INFO sv/axi4_monitor.sv(286) @ 2109000: uvm_test_top.m_env.m_master_agent.m_monitor [axi4_monitor] Write Complete: ID=0, ADDR=0x10001b20, RESP=OKAY, Latency=16 cycles
UVM_INFO sv/axi4_monitor.sv(286) @ 2112000: uvm_test_top.m_env.m_master_agent.m_monitor [axi4_monitor] Write Complete: ID=6, ADDR=0x10001b60, RESP=OKAY, Latency=2 cycles
UVM_INFO sv/axi4_monitor.sv(286) @ 2121000: uvm_test_top.m_env.m_master_agent.m_monitor [axi4_monitor] Write Complete: ID=15, ADDR=0x10001b68, RESP=OKAY, Latency=5 cycles
UVM_INFO sv/axi4_monitor.sv(286) @ 2132000: uvm_test_top.m_env.m_master_agent.m_monitor [axi4_monitor] Write Complete: ID=12, ADDR=0x10001b7c, RESP=OKAY, Latency=10 cycles
UVM_INFO sv/axi4_monitor.sv(286) @ 2136000: uvm_test_top.m_env.m_master_agent.m_monitor [axi4_monitor] Write Complete: ID=1, ADDR=0x10001ba4, RESP=OKAY, Latency=3 cycles
UVM_INFO sv/axi4_monitor.sv(286) @ 2144000: uvm_test_top.m_env.m_master_agent.m_monitor [axi4_monitor] Write Complete: ID=13, ADDR=0x10001bb0, RESP=OKAY, Latency=5 cycles
UVM_INFO sv/axi4_monitor.sv(286) @ 2149000: uvm_test_top.m_env.m_master_agent.m_monitor [axi4_monitor] Write Complete: ID=13, ADDR=0x10001bc4, RESP=OKAY, Latency=4 cycles
UVM_INFO sv/axi4_monitor.sv(286) @ 2166000: uvm_test_top.m_env.m_master_agent.m_monitor [axi4_monitor] Write Complete: ID=14, ADDR=0x10001bd4, RESP=OKAY, Latency=15 cycles
UVM_INFO sv/axi4_monitor.sv(286) @ 2173000: uvm_test_top.m_env.m_master_agent.m_monitor [axi4_monitor] Write Complete: ID=8, ADDR=0x10001c10, RESP=OKAY, Latency=6 cycles
UVM_INFO sv/axi4_monitor.sv(286) @ 2178000: uvm_test_top.m_env.m_master_agent.m_monitor [axi4_monitor] Write Complete: ID=15, ADDR=0x10001c28, RESP=OKAY, Latency=4 cycles
UVM_INFO sv/axi4_monitor.sv(286) @ 2192000: uvm_test_top.m_env.m_master_agent.m_monitor [axi4_monitor] Write Complete: ID=8, ADDR=0x10001c38, RESP=OKAY, Latency=12 cycles
UVM_INFO sv/axi4_monitor.sv(286) @ 2199000: uvm_test_top.m_env.m_master_agent.m_monitor [axi4_monitor] Write Complete: ID=6, ADDR=0x10001c68, RESP=OKAY, Latency=6 cycles
UVM_INFO sv/axi4_monitor.sv(286) @ 2205000: uvm_test_top.m_env.m_master_agent.m_monitor [axi4_monitor] Write Complete: ID=4, ADDR=0x10001c80, RESP=OKAY, Latency=5 cycles
UVM_INFO sv/axi4_monitor.sv(286) @ 2221000: uvm_test_top.m_env.m_master_agent.m_monitor [axi4_monitor] Write Complete: ID=11, ADDR=0x10001c94, RESP=OKAY, Latency=15 cycles
UVM_INFO sv/axi4_monitor.sv(286) @ 2224000: uvm_test_top.m_env.m_master_agent.m_monitor [axi4_monitor] Write Complete: ID=5, ADDR=0x10001cd0, RESP=OKAY, Latency=2 cycles
UVM_INFO sv/axi4_monitor.sv(286) @ 2243000: uvm_test_top.m_env.m_master_agent.m_monitor [axi4_monitor] Write Complete: ID=9, ADDR=0x10001cd8, RESP=OKAY, Latency=15 cycles
UVM_INFO sv/axi4_monitor.sv(286) @ 2252000: uvm_test_top.m_env.m_master_agent.m_monitor [axi4_monitor] Write Complete: ID=11, ADDR=0x10001d14, RESP=OKAY, Latency=8 cycles
UVM_INFO sv/axi4_monitor.sv(286) @ 2254000: uvm_test_top.m_env.m_master_agent.m_monitor [axi4_monitor] Write Complete: ID=6, ADDR=0x10001d34, RESP=OKAY, Latency=1 cycles
UVM_INFO sv/axi4_monitor.sv(286) @ 2273000: uvm_test_top.m_env.m_master_agent.m_monitor [axi4_monitor] Write Complete: ID=13, ADDR=0x10001d38, RESP=OKAY, Latency=14 cycles
UVM_INFO sv/axi4_monitor.sv(286) @ 2284000: uvm_test_top.m_env.m_master_agent.m_monitor [axi4_monitor] Write Complete: ID=5, ADDR=0x10001d70, RESP=OKAY, Latency=10 cycles
UVM_INFO sv/axi4_monitor.sv(286) @ 2287000: uvm_test_top.m_env.m_master_agent.m_monitor [axi4_monitor] Write Complete: ID=4, ADDR=0x10001d98, RESP=OKAY, Latency=2 cycles
UVM_INFO sv/axi4_monitor.sv(286) @ 2300000: uvm_test_top.m_env.m_master_agent.m_monitor [axi4_monitor] Write Complete: ID=6, ADDR=0x10001da0, RESP=OKAY, Latency=9 cycles
UVM_INFO sv/axi4_monitor.sv(286) @ 2303000: uvm_test_top.m_env.m_master_agent.m_monitor [axi4_monitor] Write Complete: ID=10, ADDR=0x10001dc4, RESP=OKAY, Latency=2 cycles
UVM_INFO sv/axi4_monitor.sv(286) @ 2309000: uvm_test_top.m_env.m_master_agent.m_monitor [axi4_monitor] Write Complete: ID=9, ADDR=0x10001dcc, RESP=OKAY, Latency=2 cycles
UVM_INFO sv/axi4_monitor.sv(286) @ 2319000: uvm_test_top.m_env.m_master_agent.m_monitor [axi4_monitor] Write Complete: ID=8, ADDR=0x10001dd4, RESP=OKAY, Latency=6 cycles
UVM_INFO sv/axi4_monitor.sv(286) @ 2336000: uvm_test_top.m_env.m_master_agent.m_monitor [axi4_monitor] Write Complete: ID=6, ADDR=0x10001dec, RESP=OKAY, Latency=16 cycles
UVM_INFO sv/axi4_monitor.sv(286) @ 2340000: uvm_test_top.m_env.m_master_agent.m_monitor [axi4_monitor] Write Complete: ID=4, ADDR=0x10001e2c, RESP=OKAY, Latency=3 cycles
UVM_INFO sv/axi4_monitor.sv(286) @ 2344000: uvm_test_top.m_env.m_master_agent.m_monitor [axi4_monitor] Write Complete: ID=8, ADDR=0x10001e38, RESP=OKAY, Latency=1 cycles
UVM_INFO sv/axi4_monitor.sv(286) @ 2363000: uvm_test_top.m_env.m_master_agent.m_monitor [axi4_monitor] Write Complete: ID=13, ADDR=0x10001e3c, RESP=OKAY, Latency=14 cycles
UVM_INFO sv/axi4_monitor.sv(286) @ 2380000: uvm_test_top.m_env.m_master_agent.m_monitor [axi4_monitor] Write Complete: ID=12, ADDR=0x10001e74, RESP=OKAY, Latency=16 cycles
UVM_INFO sv/axi4_monitor.sv(286) @ 2396000: uvm_test_top.m_env.m_master_agent.m_monitor [axi4_monitor] Write Complete: ID=0, ADDR=0x10001eb4, RESP=OKAY, Latency=15 cycles
UVM_INFO sv/axi4_monitor.sv(286) @ 2400000: uvm_test_top.m_env.m_master_agent.m_monitor [axi4_monitor] Write Complete: ID=14, ADDR=0x10001ef0, RESP=OKAY, Latency=3 cycles
UVM_INFO sv/axi4_monitor.sv(286) @ 2405000: uvm_test_top.m_env.m_master_agent.m_monitor [axi4_monitor] Write Complete: ID=9, ADDR=0x10001efc, RESP=OKAY, Latency=2 cycles
UVM_INFO sv/axi4_monitor.sv(286) @ 2422000: uvm_test_top.m_env.m_master_agent.m_monitor [axi4_monitor] Write Complete: ID=14, ADDR=0x10001f04, RESP=OKAY, Latency=13 cycles
UVM_INFO sv/axi4_monitor.sv(286) @ 2436000: uvm_test_top.m_env.m_master_agent.m_monitor [axi4_monitor] Write Complete: ID=6, ADDR=0x10001f38, RESP=OKAY, Latency=13 cycles
UVM_INFO sv/axi4_monitor.sv(286) @ 2441000: uvm_test_top.m_env.m_master_agent.m_monitor [axi4_monitor] Write Complete: ID=9, ADDR=0x10001f6c, RESP=OKAY, Latency=4 cycles
UVM_INFO sv/axi4_monitor.sv(286) @ 2449000: uvm_test_top.m_env.m_master_agent.m_monitor [axi4_monitor] Write Complete: ID=12, ADDR=0x10001f7c, RESP=OKAY, Latency=6 cycles
UVM_INFO sv/axi4_monitor.sv(286) @ 2452000: uvm_test_top.m_env.m_master_agent.m_monitor [axi4_monitor] Write Complete: ID=9, ADDR=0x10001f94, RESP=OKAY, Latency=2 cycles
UVM_INFO sv/axi4_monitor.sv(286) @ 2463000: uvm_test_top.m_env.m_master_agent.m_monitor [axi4_monitor] Write Complete: ID=1, ADDR=0x10001f9c, RESP=OKAY, Latency=7 cycles
UVM_INFO sv/axi4_monitor.sv(286) @ 2465000: uvm_test_top.m_env.m_master_agent.m_monitor [axi4_monitor] Write Complete: ID=13, ADDR=0x10001fb8, RESP=OKAY, Latency=1 cycles
UVM_INFO sv/axi4_monitor.sv(286) @ 2480000: uvm_test_top.m_env.m_master_agent.m_monitor [axi4_monitor] Write Complete: ID=14, ADDR=0x10001fbc, RESP=OKAY, Latency=10 cycles
UVM_INFO sv/axi4_master_driver.sv(177) @ 2481000: uvm_test_top.m_env.m_master_agent.m_driver [axi4_master_driver] Splitting burst into 2 sub-bursts
UVM_INFO sv/axi4_monitor.sv(286) @ 2485000: uvm_test_top.m_env.m_master_agent.m_monitor [axi4_monitor] Write Complete: ID=9, ADDR=0x10001fe4, RESP=OKAY, Latency=4 cycles
UVM_INFO sv/axi4_monitor.sv(286) @ 2490000: uvm_test_top.m_env.m_master_agent.m_monitor [axi4_monitor] Write Complete: ID=2, ADDR=0x10001ff4, RESP=OKAY, Latency=3 cycles
UVM_INFO sv/axi4_monitor.sv(286) @ 2493000: uvm_test_top.m_env.m_master_agent.m_monitor [axi4_monitor] Write Complete: ID=3, ADDR=0x10002000, RESP=OKAY, Latency=1 cycles
UVM_INFO sv/axi4_monitor.sv(286) @ 2513000: uvm_test_top.m_env.m_master_agent.m_monitor [axi4_monitor] Write Complete: ID=5, ADDR=0x10002004, RESP=OKAY, Latency=15 cycles
UVM_INFO sv/axi4_monitor.sv(286) @ 2520000: uvm_test_top.m_env.m_master_agent.m_monitor [axi4_monitor] Write Complete: ID=1, ADDR=0x10002040, RESP=OKAY, Latency=6 cycles
UVM_INFO sv/axi4_monitor.sv(286) @ 2532000: uvm_test_top.m_env.m_master_agent.m_monitor [axi4_monitor] Write Complete: ID=12, ADDR=0x10002058, RESP=OKAY, Latency=11 cycles
UVM_INFO sv/axi4_monitor.sv(286) @ 2547000: uvm_test_top.m_env.m_master_agent.m_monitor [axi4_monitor] Write Complete: ID=11, ADDR=0x10002084, RESP=OKAY, Latency=14 cycles
UVM_INFO sv/axi4_monitor.sv(286) @ 2558000: uvm_test_top.m_env.m_master_agent.m_monitor [axi4_monitor] Write Complete: ID=9, ADDR=0x100020bc, RESP=OKAY, Latency=10 cycles
UVM_INFO sv/axi4_monitor.sv(286) @ 2562000: uvm_test_top.m_env.m_master_agent.m_monitor [axi4_monitor] Write Complete: ID=4, ADDR=0x100020e4, RESP=OKAY, Latency=3 cycles
UVM_INFO sv/axi4_monitor.sv(286) @ 2570000: uvm_test_top.m_env.m_master_agent.m_monitor [axi4_monitor] Write Complete: ID=0, ADDR=0x100020f0, RESP=OKAY, Latency=5 cycles
UVM_INFO sv/axi4_monitor.sv(286) @ 2583000: uvm_test_top.m_env.m_master_agent.m_monitor [axi4_monitor] Write Complete: ID=12, ADDR=0x10002104, RESP=OKAY, Latency=12 cycles
UVM_INFO sv/axi4_monitor.sv(286) @ 2588000: uvm_test_top.m_env.m_master_agent.m_monitor [axi4_monitor] Write Complete: ID=2, ADDR=0x10002134, RESP=OKAY, Latency=4 cycles
UVM_INFO sv/axi4_monitor.sv(286) @ 2594000: uvm_test_top.m_env.m_master_agent.m_monitor [axi4_monitor] Write Complete: ID=8, ADDR=0x10002144, RESP=OKAY, Latency=4 cycles
UVM_INFO sv/axi4_monitor.sv(286) @ 2599000: uvm_test_top.m_env.m_master_agent.m_monitor [axi4_monitor] Write Complete: ID=12, ADDR=0x10002154, RESP=OKAY, Latency=3 cycles
UVM_INFO sv/axi4_monitor.sv(286) @ 2604000: uvm_test_top.m_env.m_master_agent.m_monitor [axi4_monitor] Write Complete: ID=14, ADDR=0x10002160, RESP=OKAY, Latency=2 cycles
UVM_INFO sv/axi4_monitor.sv(286) @ 2617000: uvm_test_top.m_env.m_master_agent.m_monitor [axi4_monitor] Write Complete: ID=1, ADDR=0x10002168, RESP=OKAY, Latency=9 cycles
UVM_INFO sv/axi4_monitor.sv(286) @ 2622000: uvm_test_top.m_env.m_master_agent.m_monitor [axi4_monitor] Write Complete: ID=6, ADDR=0x1000218c, RESP=OKAY, Latency=4 cycles
UVM_INFO sv/axi4_monitor.sv(286) @ 2639000: uvm_test_top.m_env.m_master_agent.m_monitor [axi4_monitor] Write Complete: ID=9, ADDR=0x1000219c, RESP=OKAY, Latency=15 cycles
UVM_INFO sv/axi4_monitor.sv(286) @ 2646000: uvm_test_top.m_env.m_master_agent.m_monitor [axi4_monitor] Write Complete: ID=1, ADDR=0x100021d8, RESP=OKAY, Latency=6 cycles
UVM_INFO sv/axi4_monitor.sv(286) @ 2662000: uvm_test_top.m_env.m_master_agent.m_monitor [axi4_monitor] Write Complete: ID=6, ADDR=0x100021f0, RESP=OKAY, Latency=15 cycles
UVM_INFO sv/axi4_monitor.sv(286) @ 2676000: uvm_test_top.m_env.m_master_agent.m_monitor [axi4_monitor] Write Complete: ID=3, ADDR=0x1000222c, RESP=OKAY, Latency=13 cycles
UVM_INFO sv/axi4_monitor.sv(286) @ 2693000: uvm_test_top.m_env.m_master_agent.m_monitor [axi4_monitor] Write Complete: ID=10, ADDR=0x10002260, RESP=OKAY, Latency=16 cycles
UVM_INFO sv/axi4_monitor.sv(286) @ 2695000: uvm_test_top.m_env.m_master_agent.m_monitor [axi4_monitor] Write Complete: ID=8, ADDR=0x100022a0, RESP=OKAY, Latency=1 cycles
UVM_INFO sv/axi4_monitor.sv(286) @ 2709000: uvm_test_top.m_env.m_master_agent.m_monitor [axi4_monitor] Write Complete: ID=5, ADDR=0x100022a4, RESP=OKAY, Latency=9 cycles
UVM_INFO sv/axi4_monitor.sv(286) @ 2725000: uvm_test_top.m_env.m_master_agent.m_monitor [axi4_monitor] Write Complete: ID=5, ADDR=0x100022c8, RESP=OKAY, Latency=15 cycles
UVM_INFO sv/axi4_monitor.sv(286) @ 2734000: uvm_test_top.m_env.m_master_agent.m_monitor [axi4_monitor] Write Complete: ID=15, ADDR=0x10002304, RESP=OKAY, Latency=8 cycles
UVM_INFO sv/axi4_monitor.sv(286) @ 2741000: uvm_test_top.m_env.m_master_agent.m_monitor [axi4_monitor] Write Complete: ID=0, ADDR=0x10002324, RESP=OKAY, Latency=6 cycles
UVM_INFO sv/axi4_monitor.sv(286) @ 2749000: uvm_test_top.m_env.m_master_agent.m_monitor [axi4_monitor] Write Complete: ID=14, ADDR=0x1000233c, RESP=OKAY, Latency=7 cycles
UVM_INFO sv/axi4_monitor.sv(286) @ 2751000: uvm_test_top.m_env.m_master_agent.m_monitor [axi4_monitor] Write Complete: ID=13, ADDR=0x10002358, RESP=OKAY, Latency=1 cycles
UVM_INFO sv/axi4_monitor.sv(286) @ 2758000: uvm_test_top.m_env.m_master_agent.m_monitor [axi4_monitor] Write Complete: ID=2, ADDR=0x1000235c, RESP=OKAY, Latency=2 cycles
UVM_INFO sv/axi4_monitor.sv(286) @ 2765000: uvm_test_top.m_env.m_master_agent.m_monitor [axi4_monitor] Write Complete: ID=7, ADDR=0x10002364, RESP=OKAY, Latency=3 cycles
UVM_INFO sv/axi4_monitor.sv(286) @ 2777000: uvm_test_top.m_env.m_master_agent.m_monitor [axi4_monitor] Write Complete: ID=0, ADDR=0x10002370, RESP=OKAY, Latency=9 cycles
UVM_INFO sv/axi4_monitor.sv(286) @ 2791000: uvm_test_top.m_env.m_master_agent.m_monitor [axi4_monitor] Write Complete: ID=3, ADDR=0x10002394, RESP=OKAY, Latency=13 cycles
UVM_INFO sv/axi4_monitor.sv(286) @ 2801000: uvm_test_top.m_env.m_master_agent.m_monitor [axi4_monitor] Write Complete: ID=5, ADDR=0x100023c8, RESP=OKAY, Latency=9 cycles
UVM_INFO sv/axi4_monitor.sv(286) @ 2816000: uvm_test_top.m_env.m_master_agent.m_monitor [axi4_monitor] Write Complete: ID=5, ADDR=0x100023ec, RESP=OKAY, Latency=14 cycles
UVM_INFO sv/axi4_monitor.sv(286) @ 2831000: uvm_test_top.m_env.m_master_agent.m_monitor [axi4_monitor] Write Complete: ID=9, ADDR=0x10002424, RESP=OKAY, Latency=14 cycles
UVM_INFO sv/axi4_monitor.sv(286) @ 2848000: uvm_test_top.m_env.m_master_agent.m_monitor [axi4_monitor] Write Complete: ID=3, ADDR=0x1000245c, RESP=OKAY, Latency=16 cycles
UVM_INFO sv/axi4_monitor.sv(286) @ 2861000: uvm_test_top.m_env.m_master_agent.m_monitor [axi4_monitor] Write Complete: ID=15, ADDR=0x1000249c, RESP=OKAY, Latency=12 cycles
UVM_INFO sv/axi4_monitor.sv(286) @ 2877000: uvm_test_top.m_env.m_master_agent.m_monitor [axi4_monitor] Write Complete: ID=14, ADDR=0x100024cc, RESP=OKAY, Latency=15 cycles
UVM_INFO sv/axi4_monitor.sv(286) @ 2894000: uvm_test_top.m_env.m_master_agent.m_monitor [axi4_monitor] Write Complete: ID=14, ADDR=0x10002508, RESP=OKAY, Latency=16 cycles
UVM_INFO sv/axi4_monitor.sv(286) @ 2900000: uvm_test_top.m_env.m_master_agent.m_monitor [axi4_monitor] Write Complete: ID=0, ADDR=0x10002548, RESP=OKAY, Latency=5 cycles
UVM_INFO sv/axi4_monitor.sv(286) @ 2914000: uvm_test_top.m_env.m_master_agent.m_monitor [axi4_monitor] Write Complete: ID=11, ADDR=0x1000255c, RESP=OKAY, Latency=13 cycles
UVM_INFO sv/axi4_monitor.sv(286) @ 2928000: uvm_test_top.m_env.m_master_agent.m_monitor [axi4_monitor] Write Complete: ID=11, ADDR=0x10002590, RESP=OKAY, Latency=13 cycles
UVM_INFO sv/axi4_monitor.sv(286) @ 2941000: uvm_test_top.m_env.m_master_agent.m_monitor [axi4_monitor] Write Complete: ID=4, ADDR=0x100025c4, RESP=OKAY, Latency=12 cycles
UVM_INFO sv/axi4_monitor.sv(286) @ 2956000: uvm_test_top.m_env.m_master_agent.m_monitor [axi4_monitor] Write Complete: ID=2, ADDR=0x100025f4, RESP=OKAY, Latency=14 cycles
UVM_INFO sv/axi4_monitor.sv(286) @ 2959000: uvm_test_top.m_env.m_master_agent.m_monitor [axi4_monitor] Write Complete: ID=7, ADDR=0x1000262c, RESP=OKAY, Latency=2 cycles
UVM_INFO sv/axi4_monitor.sv(286) @ 2979000: uvm_test_top.m_env.m_master_agent.m_monitor [axi4_monitor] Write Complete: ID=11, ADDR=0x10002634, RESP=OKAY, Latency=16 cycles
UVM_INFO sv/axi4_monitor.sv(286) @ 2994000: uvm_test_top.m_env.m_master_agent.m_monitor [axi4_monitor] Write Complete: ID=5, ADDR=0x10002674, RESP=OKAY, Latency=14 cycles
UVM_INFO sv/axi4_monitor.sv(286) @ 3010000: uvm_test_top.m_env.m_master_agent.m_monitor [axi4_monitor] Write Complete: ID=13, ADDR=0x100026ac, RESP=OKAY, Latency=15 cycles
UVM_INFO sv/seq_lib.sv(3411) @ 3018000: uvm_test_top.m_env.m_master_agent.m_sequencer@@seq [axi4_data_first_sequence] Write progress: 300/500 transactions
UVM_INFO sv/axi4_monitor.sv(286) @ 3024000: uvm_test_top.m_env.m_master_agent.m_monitor [axi4_monitor] Write Complete: ID=9, ADDR=0x100026e8, RESP=OKAY, Latency=13 cycles
UVM_INFO sv/axi4_monitor.sv(286) @ 3037000: uvm_test_top.m_env.m_master_agent.m_monitor [axi4_monitor] Write Complete: ID=2, ADDR=0x1000271c, RESP=OKAY, Latency=12 cycles
UVM_INFO sv/axi4_monitor.sv(286) @ 3047000: uvm_test_top.m_env.m_master_agent.m_monitor [axi4_monitor] Write Complete: ID=7, ADDR=0x1000274c, RESP=OKAY, Latency=9 cycles
UVM_INFO sv/axi4_monitor.sv(286) @ 3063000: uvm_test_top.m_env.m_master_agent.m_monitor [axi4_monitor] Write Complete: ID=13, ADDR=0x10002770, RESP=OKAY, Latency=15 cycles
UVM_INFO sv/axi4_master_driver.sv(177) @ 3074000: uvm_test_top.m_env.m_master_agent.m_driver [axi4_master_driver] Splitting burst into 2 sub-bursts
UVM_INFO sv/axi4_monitor.sv(286) @ 3079000: uvm_test_top.m_env.m_master_agent.m_monitor [axi4_monitor] Write Complete: ID=0, ADDR=0x100027ac, RESP=OKAY, Latency=15 cycles
UVM_INFO sv/axi4_monitor.sv(286) @ 3086000: uvm_test_top.m_env.m_master_agent.m_monitor [axi4_monitor] Write Complete: ID=4, ADDR=0x100027e8, RESP=OKAY, Latency=6 cycles
UVM_INFO sv/axi4_monitor.sv(286) @ 3101000: uvm_test_top.m_env.m_master_agent.m_monitor [axi4_monitor] Write Complete: ID=4, ADDR=0x10002804, RESP=OKAY, Latency=9 cycles
UVM_INFO sv/axi4_monitor.sv(286) @ 3111000: uvm_test_top.m_env.m_master_agent.m_monitor [axi4_monitor] Write Complete: ID=6, ADDR=0x10002828, RESP=OKAY, Latency=9 cycles
UVM_INFO sv/axi4_monitor.sv(286) @ 3125000: uvm_test_top.m_env.m_master_agent.m_monitor [axi4_monitor] Write Complete: ID=4, ADDR=0x1000284c, RESP=OKAY, Latency=13 cycles
UVM_INFO sv/axi4_monitor.sv(286) @ 3128000: uvm_test_top.m_env.m_master_agent.m_monitor [axi4_monitor] Write Complete: ID=9, ADDR=0x10002880, RESP=OKAY, Latency=2 cycles
UVM_INFO sv/axi4_monitor.sv(286) @ 3139000: uvm_test_top.m_env.m_master_agent.m_monitor [axi4_monitor] Write Complete: ID=7, ADDR=0x10002888, RESP=OKAY, Latency=7 cycles
UVM_INFO sv/axi4_monitor.sv(286) @ 3152000: uvm_test_top.m_env.m_master_agent.m_monitor [axi4_monitor] Write Complete: ID=5, ADDR=0x10002800, RESP=OKAY, Latency=66 cycles
UVM_INFO sv/axi4_monitor.sv(286) @ 3167000: uvm_test_top.m_env.m_master_agent.m_monitor [axi4_monitor] Write Complete: ID=0, ADDR=0x100028d4, RESP=OKAY, Latency=14 cycles
UVM_INFO sv/axi4_monitor.sv(286) @ 3173000: uvm_test_top.m_env.m_master_agent.m_monitor [axi4_monitor] Write Complete: ID=5, ADDR=0x100028a4, RESP=OKAY, Latency=33 cycles
UVM_INFO sv/axi4_monitor.sv(286) @ 3177000: uvm_test_top.m_env.m_master_agent.m_monitor [axi4_monitor] Write Complete: ID=11, ADDR=0x10002920, RESP=OKAY, Latency=3 cycles
UVM_INFO sv/axi4_monitor.sv(286) @ 3190000: uvm_test_top.m_env.m_master_agent.m_monitor [axi4_monitor] Write Complete: ID=14, ADDR=0x1000292c, RESP=OKAY, Latency=10 cycles
UVM_INFO sv/axi4_monitor.sv(286) @ 3206000: uvm_test_top.m_env.m_master_agent.m_monitor [axi4_monitor] Write Complete: ID=11, ADDR=0x10002954, RESP=OKAY, Latency=15 cycles
UVM_INFO sv/axi4_monitor.sv(286) @ 3212000: uvm_test_top.m_env.m_master_agent.m_monitor [axi4_monitor] Write Complete: ID=2, ADDR=0x10002990, RESP=OKAY, Latency=5 cycles
UVM_INFO sv/axi4_monitor.sv(286) @ 3215000: uvm_test_top.m_env.m_master_agent.m_monitor [axi4_monitor] Write Complete: ID=9, ADDR=0x100029a4, RESP=OKAY, Latency=2 cycles
UVM_INFO sv/axi4_monitor.sv(286) @ 3220000: uvm_test_top.m_env.m_master_agent.m_monitor [axi4_monitor] Write Complete: ID=6, ADDR=0x100029ac, RESP=OKAY, Latency=1 cycles
UVM_INFO sv/axi4_monitor.sv(286) @ 3227000: uvm_test_top.m_env.m_master_agent.m_monitor [axi4_monitor] Write Complete: ID=10, ADDR=0x100029b0, RESP=OKAY, Latency=2 cycles
UVM_INFO sv/axi4_monitor.sv(286) @ 3244000: uvm_test_top.m_env.m_master_agent.m_monitor [axi4_monitor] Write Complete: ID=4, ADDR=0x100029b8, RESP=OKAY, Latency=13 cycles
UVM_INFO sv/axi4_monitor.sv(286) @ 3257000: uvm_test_top.m_env.m_master_agent.m_monitor [axi4_monitor] Write Complete: ID=15, ADDR=0x100029ec, RESP=OKAY, Latency=12 cycles
UVM_INFO sv/axi4_monitor.sv(286) @ 3259000: uvm_test_top.m_env.m_master_agent.m_monitor [axi4_monitor] Write Complete: ID=7, ADDR=0x10002a1c, RESP=OKAY, Latency=1 cycles
UVM_INFO sv/axi4_monitor.sv(286) @ 3270000: uvm_test_top.m_env.m_master_agent.m_monitor [axi4_monitor] Write Complete: ID=15, ADDR=0x10002a20, RESP=OKAY, Latency=6 cycles
UVM_INFO sv/axi4_monitor.sv(286) @ 3273000: uvm_test_top.m_env.m_master_agent.m_monitor [axi4_monitor] Write Complete: ID=14, ADDR=0x10002a38, RESP=OKAY, Latency=2 cycles
UVM_INFO sv/axi4_monitor.sv(286) @ 3282000: uvm_test_top.m_env.m_master_agent.m_monitor [axi4_monitor] Write Complete: ID=7, ADDR=0x10002a40, RESP=OKAY, Latency=5 cycles
UVM_INFO sv/axi4_monitor.sv(286) @ 3287000: uvm_test_top.m_env.m_master_agent.m_monitor [axi4_monitor] Write Complete: ID=12, ADDR=0x10002a54, RESP=OKAY, Latency=4 cycles
UVM_INFO sv/axi4_monitor.sv(286) @ 3297000: uvm_test_top.m_env.m_master_agent.m_monitor [axi4_monitor] Write Complete: ID=13, ADDR=0x10002a64, RESP=OKAY, Latency=8 cycles
UVM_INFO sv/axi4_monitor.sv(286) @ 3311000: uvm_test_top.m_env.m_master_agent.m_monitor [axi4_monitor] Write Complete: ID=12, ADDR=0x10002a84, RESP=OKAY, Latency=13 cycles
UVM_INFO sv/axi4_monitor.sv(286) @ 3323000: uvm_test_top.m_env.m_master_agent.m_monitor [axi4_monitor] Write Complete: ID=10, ADDR=0x10002ab8, RESP=OKAY, Latency=11 cycles
UVM_INFO sv/axi4_monitor.sv(286) @ 3336000: uvm_test_top.m_env.m_master_agent.m_monitor [axi4_monitor] Write Complete: ID=7, ADDR=0x10002ae4, RESP=OKAY, Latency=12 cycles
UVM_INFO sv/axi4_monitor.sv(286) @ 3342000: uvm_test_top.m_env.m_master_agent.m_monitor [axi4_monitor] Write Complete: ID=12, ADDR=0x10002b14, RESP=OKAY, Latency=5 cycles
UVM_INFO sv/axi4_monitor.sv(286) @ 3344000: uvm_test_top.m_env.m_master_agent.m_monitor [axi4_monitor] Write Complete: ID=7, ADDR=0x10002b28, RESP=OKAY, Latency=1 cycles
UVM_INFO sv/axi4_monitor.sv(286) @ 3363000: uvm_test_top.m_env.m_master_agent.m_monitor [axi4_monitor] Write Complete: ID=5, ADDR=0x1000290c, RESP=OKAY, Latency=195 cycles
UVM_INFO sv/axi4_monitor.sv(286) @ 3368000: uvm_test_top.m_env.m_master_agent.m_monitor [axi4_monitor] Write Complete: ID=6, ADDR=0x10002b64, RESP=OKAY, Latency=4 cycles
UVM_INFO sv/axi4_monitor.sv(286) @ 3380000: uvm_test_top.m_env.m_master_agent.m_monitor [axi4_monitor] Write Complete: ID=14, ADDR=0x10002b74, RESP=OKAY, Latency=10 cycles
UVM_INFO sv/axi4_monitor.sv(286) @ 3382000: uvm_test_top.m_env.m_master_agent.m_monitor [axi4_monitor] Write Complete: ID=11, ADDR=0x10002b9c, RESP=OKAY, Latency=1 cycles
UVM_INFO sv/axi4_monitor.sv(286) @ 3389000: uvm_test_top.m_env.m_master_agent.m_monitor [axi4_monitor] Write Complete: ID=12, ADDR=0x10002ba0, RESP=OKAY, Latency=2 cycles
UVM_INFO sv/axi4_monitor.sv(286) @ 3401000: uvm_test_top.m_env.m_master_agent.m_monitor [axi4_monitor] Write Complete: ID=6, ADDR=0x10002ba8, RESP=OKAY, Latency=8 cycles
UVM_INFO sv/axi4_monitor.sv(286) @ 3404000: uvm_test_top.m_env.m_master_agent.m_monitor [axi4_monitor] Write Complete: ID=8, ADDR=0x10002bc8, RESP=OKAY, Latency=2 cycles
UVM_INFO sv/axi4_monitor.sv(286) @ 3411000: uvm_test_top.m_env.m_master_agent.m_monitor [axi4_monitor] Write Complete: ID=13, ADDR=0x10002bd0, RESP=OKAY, Latency=3 cycles
UVM_INFO sv/axi4_monitor.sv(286) @ 3417000: uvm_test_top.m_env.m_master_agent.m_monitor [axi4_monitor] Write Complete: ID=2, ADDR=0x10002bdc, RESP=OKAY, Latency=3 cycles
UVM_INFO sv/axi4_monitor.sv(286) @ 3430000: uvm_test_top.m_env.m_master_agent.m_monitor [axi4_monitor] Write Complete: ID=4, ADDR=0x10002be8, RESP=OKAY, Latency=10 cycles
UVM_INFO sv/axi4_monitor.sv(286) @ 3439000: uvm_test_top.m_env.m_master_agent.m_monitor [axi4_monitor] Write Complete: ID=14, ADDR=0x10002c10, RESP=OKAY, Latency=8 cycles
UVM_INFO sv/axi4_monitor.sv(286) @ 3450000: uvm_test_top.m_env.m_master_agent.m_monitor [axi4_monitor] Write Complete: ID=3, ADDR=0x10002c30, RESP=OKAY, Latency=10 cycles
UVM_INFO sv/axi4_monitor.sv(286) @ 3457000: uvm_test_top.m_env.m_master_agent.m_monitor [axi4_monitor] Write Complete: ID=8, ADDR=0x10002c58, RESP=OKAY, Latency=6 cycles
UVM_INFO sv/axi4_monitor.sv(286) @ 3461000: uvm_test_top.m_env.m_master_agent.m_monitor [axi4_monitor] Write Complete: ID=10, ADDR=0x10002c70, RESP=OKAY, Latency=3 cycles
UVM_INFO sv/axi4_monitor.sv(286) @ 3467000: uvm_test_top.m_env.m_master_agent.m_monitor [axi4_monitor] Write Complete: ID=2, ADDR=0x10002c7c, RESP=OKAY, Latency=3 cycles
UVM_INFO sv/axi4_monitor.sv(286) @ 3485000: uvm_test_top.m_env.m_master_agent.m_monitor [axi4_monitor] Write Complete: ID=6, ADDR=0x10002c88, RESP=OKAY, Latency=15 cycles
UVM_INFO sv/axi4_monitor.sv(286) @ 3489000: uvm_test_top.m_env.m_master_agent.m_monitor [axi4_monitor] Write Complete: ID=5, ADDR=0x10002b2c, RESP=OKAY, Latency=140 cycles
UVM_INFO sv/axi4_monitor.sv(286) @ 3494000: uvm_test_top.m_env.m_master_agent.m_monitor [axi4_monitor] Write Complete: ID=1, ADDR=0x10002cd0, RESP=OKAY, Latency=2 cycles
UVM_INFO sv/axi4_monitor.sv(286) @ 3502000: uvm_test_top.m_env.m_master_agent.m_monitor [axi4_monitor] Write Complete: ID=15, ADDR=0x10002cd8, RESP=OKAY, Latency=4 cycles
UVM_INFO sv/axi4_monitor.sv(286) @ 3520000: uvm_test_top.m_env.m_master_agent.m_monitor [axi4_monitor] Write Complete: ID=3, ADDR=0x10002ce8, RESP=OKAY, Latency=16 cycles
UVM_INFO sv/axi4_monitor.sv(286) @ 3530000: uvm_test_top.m_env.m_master_agent.m_monitor [axi4_monitor] Write Complete: ID=4, ADDR=0x10002d28, RESP=OKAY, Latency=9 cycles
UVM_INFO sv/axi4_monitor.sv(286) @ 3540000: uvm_test_top.m_env.m_master_agent.m_monitor [axi4_monitor] Write Complete: ID=4, ADDR=0x10002d4c, RESP=OKAY, Latency=9 cycles
UVM_INFO sv/axi4_monitor.sv(286) @ 3553000: uvm_test_top.m_env.m_master_agent.m_monitor [axi4_monitor] Write Complete: ID=9, ADDR=0x10002d70, RESP=OKAY, Latency=12 cycles
UVM_INFO sv/axi4_monitor.sv(286) @ 3561000: uvm_test_top.m_env.m_master_agent.m_monitor [axi4_monitor] Write Complete: ID=9, ADDR=0x10002da0, RESP=OKAY, Latency=7 cycles
UVM_INFO sv/axi4_monitor.sv(286) @ 3576000: uvm_test_top.m_env.m_master_agent.m_monitor [axi4_monitor] Write Complete: ID=11, ADDR=0x10002dbc, RESP=OKAY, Latency=14 cycles
UVM_INFO sv/axi4_monitor.sv(286) @ 3593000: uvm_test_top.m_env.m_master_agent.m_monitor [axi4_monitor] Write Complete: ID=12, ADDR=0x10002df4, RESP=OKAY, Latency=16 cycles
UVM_INFO sv/axi4_monitor.sv(286) @ 3597000: uvm_test_top.m_env.m_master_agent.m_monitor [axi4_monitor] Write Complete: ID=4, ADDR=0x10002e34, RESP=OKAY, Latency=3 cycles
UVM_INFO sv/axi4_monitor.sv(286) @ 3607000: uvm_test_top.m_env.m_master_agent.m_monitor [axi4_monitor] Write Complete: ID=15, ADDR=0x10002e40, RESP=OKAY, Latency=7 cycles
UVM_INFO sv/axi4_monitor.sv(286) @ 3613000: uvm_test_top.m_env.m_master_agent.m_monitor [axi4_monitor] Write Complete: ID=8, ADDR=0x10002e5c, RESP=OKAY, Latency=5 cycles
UVM_INFO sv/axi4_monitor.sv(286) @ 3625000: uvm_test_top.m_env.m_master_agent.m_monitor [axi4_monitor] Write Complete: ID=4, ADDR=0x10002e70, RESP=OKAY, Latency=11 cycles
UVM_INFO sv/axi4_monitor.sv(286) @ 3639000: uvm_test_top.m_env.m_master_agent.m_monitor [axi4_monitor] Write Complete: ID=1, ADDR=0x10002e9c, RESP=OKAY, Latency=13 cycles
UVM_INFO sv/axi4_monitor.sv(286) @ 3647000: uvm_test_top.m_env.m_master_agent.m_monitor [axi4_monitor] Write Complete: ID=10, ADDR=0x10002ed0, RESP=OKAY, Latency=7 cycles
UVM_INFO sv/axi4_monitor.sv(286) @ 3656000: uvm_test_top.m_env.m_master_agent.m_monitor [axi4_monitor] Write Complete: ID=13, ADDR=0x10002eec, RESP=OKAY, Latency=8 cycles
UVM_INFO sv/axi4_monitor.sv(286) @ 3664000: uvm_test_top.m_env.m_master_agent.m_monitor [axi4_monitor] Write Complete: ID=4, ADDR=0x10002f0c, RESP=OKAY, Latency=7 cycles
UVM_INFO sv/axi4_monitor.sv(286) @ 3667000: uvm_test_top.m_env.m_master_agent.m_monitor [axi4_monitor] Write Complete: ID=12, ADDR=0x10002f28, RESP=OKAY, Latency=2 cycles
UVM_INFO sv/axi4_monitor.sv(286) @ 3674000: uvm_test_top.m_env.m_master_agent.m_monitor [axi4_monitor] Write Complete: ID=1, ADDR=0x10002f30, RESP=OKAY, Latency=3 cycles
UVM_INFO sv/axi4_monitor.sv(286) @ 3679000: uvm_test_top.m_env.m_master_agent.m_monitor [axi4_monitor] Write Complete: ID=3, ADDR=0x10002f3c, RESP=OKAY, Latency=2 cycles
UVM_INFO sv/axi4_monitor.sv(286) @ 3687000: uvm_test_top.m_env.m_master_agent.m_monitor [axi4_monitor] Write Complete: ID=4, ADDR=0x10002f44, RESP=OKAY, Latency=4 cycles
UVM_INFO sv/axi4_monitor.sv(286) @ 3700000: uvm_test_top.m_env.m_master_agent.m_monitor [axi4_monitor] Write Complete: ID=15, ADDR=0x10002f54, RESP=OKAY, Latency=11 cycles
UVM_INFO sv/axi4_monitor.sv(286) @ 3714000: uvm_test_top.m_env.m_master_agent.m_monitor [axi4_monitor] Write Complete: ID=8, ADDR=0x10002f80, RESP=OKAY, Latency=13 cycles
UVM_INFO sv/axi4_monitor.sv(286) @ 3721000: uvm_test_top.m_env.m_master_agent.m_monitor [axi4_monitor] Write Complete: ID=13, ADDR=0x10002fb4, RESP=OKAY, Latency=6 cycles
UVM_INFO sv/axi4_master_driver.sv(177) @ 3722000: uvm_test_top.m_env.m_master_agent.m_driver [axi4_master_driver] Splitting burst into 2 sub-bursts
UVM_INFO sv/axi4_monitor.sv(286) @ 3726000: uvm_test_top.m_env.m_master_agent.m_monitor [axi4_monitor] Write Complete: ID=7, ADDR=0x10002fcc, RESP=OKAY, Latency=4 cycles
UVM_INFO sv/axi4_monitor.sv(286) @ 3737000: uvm_test_top.m_env.m_master_agent.m_monitor [axi4_monitor] Write Complete: ID=6, ADDR=0x10002fdc, RESP=OKAY, Latency=9 cycles
UVM_INFO sv/axi4_monitor.sv(286) @ 3740000: uvm_test_top.m_env.m_master_agent.m_monitor [axi4_monitor] Write Complete: ID=7, ADDR=0x10003000, RESP=OKAY, Latency=3 cycles
UVM_INFO sv/axi4_monitor.sv(286) @ 3747000: uvm_test_top.m_env.m_master_agent.m_monitor [axi4_monitor] Write Complete: ID=9, ADDR=0x1000300c, RESP=OKAY, Latency=4 cycles
UVM_INFO sv/axi4_monitor.sv(286) @ 3764000: uvm_test_top.m_env.m_master_agent.m_monitor [axi4_monitor] Write Complete: ID=3, ADDR=0x1000301c, RESP=OKAY, Latency=15 cycles
UVM_INFO sv/axi4_monitor.sv(286) @ 3778000: uvm_test_top.m_env.m_master_agent.m_monitor [axi4_monitor] Write Complete: ID=15, ADDR=0x10003058, RESP=OKAY, Latency=13 cycles
UVM_INFO sv/axi4_monitor.sv(286) @ 3786000: uvm_test_top.m_env.m_master_agent.m_monitor [axi4_monitor] Write Complete: ID=0, ADDR=0x1000308c, RESP=OKAY, Latency=7 cycles
UVM_INFO sv/axi4_monitor.sv(286) @ 3792000: uvm_test_top.m_env.m_master_agent.m_monitor [axi4_monitor] Write Complete: ID=2, ADDR=0x100030a8, RESP=OKAY, Latency=5 cycles
UVM_INFO sv/axi4_monitor.sv(286) @ 3797000: uvm_test_top.m_env.m_master_agent.m_monitor [axi4_monitor] Write Complete: ID=0, ADDR=0x100030bc, RESP=OKAY, Latency=4 cycles
UVM_INFO sv/axi4_monitor.sv(286) @ 3812000: uvm_test_top.m_env.m_master_agent.m_monitor [axi4_monitor] Write Complete: ID=9, ADDR=0x100030cc, RESP=OKAY, Latency=13 cycles
UVM_INFO sv/axi4_monitor.sv(286) @ 3827000: uvm_test_top.m_env.m_master_agent.m_monitor [axi4_monitor] Write Complete: ID=1, ADDR=0x10003100, RESP=OKAY, Latency=14 cycles
UVM_INFO sv/axi4_monitor.sv(286) @ 3843000: uvm_test_top.m_env.m_master_agent.m_monitor [axi4_monitor] Write Complete: ID=0, ADDR=0x10003138, RESP=OKAY, Latency=15 cycles
UVM_INFO sv/axi4_monitor.sv(286) @ 3858000: uvm_test_top.m_env.m_master_agent.m_monitor [axi4_monitor] Write Complete: ID=13, ADDR=0x10003174, RESP=OKAY, Latency=14 cycles
UVM_INFO sv/axi4_monitor.sv(286) @ 3868000: uvm_test_top.m_env.m_master_agent.m_monitor [axi4_monitor] Write Complete: ID=5, ADDR=0x10002cc4, RESP=OKAY, Latency=382 cycles
UVM_INFO sv/axi4_monitor.sv(286) @ 3881000: uvm_test_top.m_env.m_master_agent.m_monitor [axi4_monitor] Write Complete: ID=2, ADDR=0x100031d0, RESP=OKAY, Latency=12 cycles
UVM_INFO sv/axi4_monitor.sv(286) @ 3894000: uvm_test_top.m_env.m_master_agent.m_monitor [axi4_monitor] Write Complete: ID=12, ADDR=0x10003200, RESP=OKAY, Latency=12 cycles
UVM_INFO sv/axi4_monitor.sv(286) @ 3910000: uvm_test_top.m_env.m_master_agent.m_monitor [axi4_monitor] Write Complete: ID=12, ADDR=0x10003230, RESP=OKAY, Latency=15 cycles
UVM_INFO sv/axi4_monitor.sv(286) @ 3923000: uvm_test_top.m_env.m_master_agent.m_monitor [axi4_monitor] Write Complete: ID=1, ADDR=0x1000326c, RESP=OKAY, Latency=12 cycles
UVM_INFO sv/axi4_monitor.sv(286) @ 3927000: uvm_test_top.m_env.m_master_agent.m_monitor [axi4_monitor] Write Complete: ID=5, ADDR=0x100031ac, RESP=OKAY, Latency=68 cycles
UVM_INFO sv/axi4_monitor.sv(286) @ 3939000: uvm_test_top.m_env.m_master_agent.m_monitor [axi4_monitor] Write Complete: ID=5, ADDR=0x1000329c, RESP=OKAY, Latency=15 cycles
UVM_INFO sv/axi4_monitor.sv(286) @ 3941000: uvm_test_top.m_env.m_master_agent.m_monitor [axi4_monitor] Write Complete: ID=7, ADDR=0x100032cc, RESP=OKAY, Latency=1 cycles
UVM_INFO sv/axi4_monitor.sv(286) @ 3947000: uvm_test_top.m_env.m_master_agent.m_monitor [axi4_monitor] Write Complete: ID=6, ADDR=0x100032d0, RESP=OKAY, Latency=1 cycles
UVM_INFO sv/axi4_monitor.sv(286) @ 3964000: uvm_test_top.m_env.m_master_agent.m_monitor [axi4_monitor] Write Complete: ID=13, ADDR=0x100032d4, RESP=OKAY, Latency=12 cycles
UVM_INFO sv/axi4_monitor.sv(286) @ 3980000: uvm_test_top.m_env.m_master_agent.m_monitor [axi4_monitor] Write Complete: ID=7, ADDR=0x10003304, RESP=OKAY, Latency=15 cycles
UVM_INFO sv/axi4_monitor.sv(286) @ 3989000: uvm_test_top.m_env.m_master_agent.m_monitor [axi4_monitor] Write Complete: ID=11, ADDR=0x10003340, RESP=OKAY, Latency=8 cycles
UVM_INFO sv/axi4_monitor.sv(286) @ 3992000: uvm_test_top.m_env.m_master_agent.m_monitor [axi4_monitor] Write Complete: ID=2, ADDR=0x10003360, RESP=OKAY, Latency=2 cycles
UVM_INFO sv/seq_lib.sv(3411) @ 4006000: uvm_test_top.m_env.m_master_agent.m_sequencer@@seq [axi4_data_first_sequence] Write progress: 400/500 transactions
UVM_INFO sv/axi4_monitor.sv(286) @ 4012000: uvm_test_top.m_env.m_master_agent.m_monitor [axi4_monitor] Write Complete: ID=7, ADDR=0x10003368, RESP=OKAY, Latency=16 cycles
UVM_INFO sv/axi4_monitor.sv(286) @ 4020000: uvm_test_top.m_env.m_master_agent.m_monitor [axi4_monitor] Write Complete: ID=15, ADDR=0x100033a8, RESP=OKAY, Latency=7 cycles
UVM_INFO sv/axi4_monitor.sv(286) @ 4035000: uvm_test_top.m_env.m_master_agent.m_monitor [axi4_monitor] Write Complete: ID=2, ADDR=0x100033c4, RESP=OKAY, Latency=14 cycles
UVM_INFO sv/axi4_monitor.sv(286) @ 4048000: uvm_test_top.m_env.m_master_agent.m_monitor [axi4_monitor] Write Complete: ID=4, ADDR=0x100033fc, RESP=OKAY, Latency=12 cycles
UVM_INFO sv/axi4_monitor.sv(286) @ 4063000: uvm_test_top.m_env.m_master_agent.m_monitor [axi4_monitor] Write Complete: ID=12, ADDR=0x1000342c, RESP=OKAY, Latency=14 cycles
UVM_INFO sv/axi4_monitor.sv(286) @ 4066000: uvm_test_top.m_env.m_master_agent.m_monitor [axi4_monitor] Write Complete: ID=12, ADDR=0x10003464, RESP=OKAY, Latency=2 cycles
UVM_INFO sv/axi4_monitor.sv(286) @ 4078000: uvm_test_top.m_env.m_master_agent.m_monitor [axi4_monitor] Write Complete: ID=3, ADDR=0x1000346c, RESP=OKAY, Latency=8 cycles
UVM_INFO sv/axi4_monitor.sv(286) @ 4081000: uvm_test_top.m_env.m_master_agent.m_monitor [axi4_monitor] Write Complete: ID=8, ADDR=0x1000348c, RESP=OKAY, Latency=2 cycles
UVM_INFO sv/axi4_monitor.sv(286) @ 4090000: uvm_test_top.m_env.m_master_agent.m_monitor [axi4_monitor] Write Complete: ID=5, ADDR=0x100032a8, RESP=OKAY, Latency=160 cycles
UVM_INFO sv/axi4_monitor.sv(286) @ 4104000: uvm_test_top.m_env.m_master_agent.m_monitor [axi4_monitor] Write Complete: ID=4, ADDR=0x100034a8, RESP=OKAY, Latency=13 cycles
UVM_INFO sv/axi4_monitor.sv(286) @ 4110000: uvm_test_top.m_env.m_master_agent.m_monitor [axi4_monitor] Write Complete: ID=8, ADDR=0x100034dc, RESP=OKAY, Latency=5 cycles
UVM_INFO sv/axi4_monitor.sv(286) @ 4125000: uvm_test_top.m_env.m_master_agent.m_monitor [axi4_monitor] Write Complete: ID=12, ADDR=0x100034f0, RESP=OKAY, Latency=14 cycles
UVM_INFO sv/axi4_monitor.sv(286) @ 4132000: uvm_test_top.m_env.m_master_agent.m_monitor [axi4_monitor] Write Complete: ID=9, ADDR=0x10003528, RESP=OKAY, Latency=6 cycles
UVM_INFO sv/axi4_monitor.sv(286) @ 4149000: uvm_test_top.m_env.m_master_agent.m_monitor [axi4_monitor] Write Complete: ID=1, ADDR=0x10003540, RESP=OKAY, Latency=16 cycles
UVM_INFO sv/axi4_monitor.sv(286) @ 4159000: uvm_test_top.m_env.m_master_agent.m_monitor [axi4_monitor] Write Complete: ID=11, ADDR=0x10003580, RESP=OKAY, Latency=9 cycles
UVM_INFO sv/axi4_monitor.sv(286) @ 4172000: uvm_test_top.m_env.m_master_agent.m_monitor [axi4_monitor] Write Complete: ID=5, ADDR=0x10003494, RESP=OKAY, Latency=87 cycles
UVM_INFO sv/axi4_monitor.sv(286) @ 4179000: uvm_test_top.m_env.m_master_agent.m_monitor [axi4_monitor] Write Complete: ID=15, ADDR=0x100035d4, RESP=OKAY, Latency=6 cycles
UVM_INFO sv/axi4_monitor.sv(286) @ 4192000: uvm_test_top.m_env.m_master_agent.m_monitor [axi4_monitor] Write Complete: ID=10, ADDR=0x100035ec, RESP=OKAY, Latency=12 cycles
UVM_INFO sv/axi4_monitor.sv(286) @ 4204000: uvm_test_top.m_env.m_master_agent.m_monitor [axi4_monitor] Write Complete: ID=13, ADDR=0x1000361c, RESP=OKAY, Latency=11 cycles
UVM_INFO sv/axi4_monitor.sv(286) @ 4219000: uvm_test_top.m_env.m_master_agent.m_monitor [axi4_monitor] Write Complete: ID=1, ADDR=0x10003648, RESP=OKAY, Latency=14 cycles
UVM_INFO sv/axi4_monitor.sv(286) @ 4227000: uvm_test_top.m_env.m_master_agent.m_monitor [axi4_monitor] Write Complete: ID=2, ADDR=0x10003680, RESP=OKAY, Latency=7 cycles
UVM_INFO sv/axi4_monitor.sv(286) @ 4240000: uvm_test_top.m_env.m_master_agent.m_monitor [axi4_monitor] Write Complete: ID=4, ADDR=0x1000369c, RESP=OKAY, Latency=12 cycles
UVM_INFO sv/axi4_monitor.sv(286) @ 4245000: uvm_test_top.m_env.m_master_agent.m_monitor [axi4_monitor] Write Complete: ID=12, ADDR=0x100036cc, RESP=OKAY, Latency=4 cycles
UVM_INFO sv/axi4_monitor.sv(286) @ 4248000: uvm_test_top.m_env.m_master_agent.m_monitor [axi4_monitor] Write Complete: ID=11, ADDR=0x100036dc, RESP=OKAY, Latency=1 cycles
UVM_INFO sv/axi4_monitor.sv(286) @ 4254000: uvm_test_top.m_env.m_master_agent.m_monitor [axi4_monitor] Write Complete: ID=3, ADDR=0x100036e0, RESP=OKAY, Latency=1 cycles
UVM_INFO sv/axi4_monitor.sv(286) @ 4274000: uvm_test_top.m_env.m_master_agent.m_monitor [axi4_monitor] Write Complete: ID=12, ADDR=0x100036e4, RESP=OKAY, Latency=15 cycles
UVM_INFO sv/axi4_monitor.sv(286) @ 4281000: uvm_test_top.m_env.m_master_agent.m_monitor [axi4_monitor] Write Complete: ID=7, ADDR=0x10003720, RESP=OKAY, Latency=6 cycles
UVM_INFO sv/axi4_monitor.sv(286) @ 4295000: uvm_test_top.m_env.m_master_agent.m_monitor [axi4_monitor] Write Complete: ID=12, ADDR=0x10003738, RESP=OKAY, Latency=13 cycles
UVM_INFO sv/axi4_monitor.sv(286) @ 4310000: uvm_test_top.m_env.m_master_agent.m_monitor [axi4_monitor] Write Complete: ID=13, ADDR=0x1000376c, RESP=OKAY, Latency=14 cycles
UVM_INFO sv/axi4_monitor.sv(286) @ 4318000: uvm_test_top.m_env.m_master_agent.m_monitor [axi4_monitor] Write Complete: ID=4, ADDR=0x100037a4, RESP=OKAY, Latency=7 cycles
UVM_INFO sv/axi4_master_driver.sv(177) @ 4323000: uvm_test_top.m_env.m_master_agent.m_driver [axi4_master_driver] Splitting burst into 2 sub-bursts
UVM_INFO sv/axi4_monitor.sv(286) @ 4328000: uvm_test_top.m_env.m_master_agent.m_monitor [axi4_monitor] Write Complete: ID=8, ADDR=0x100037c0, RESP=OKAY, Latency=9 cycles
UVM_INFO sv/axi4_monitor.sv(286) @ 4336000: uvm_test_top.m_env.m_master_agent.m_monitor [axi4_monitor] Write Complete: ID=8, ADDR=0x100037e4, RESP=OKAY, Latency=7 cycles
UVM_INFO sv/axi4_monitor.sv(286) @ 4342000: uvm_test_top.m_env.m_master_agent.m_monitor [axi4_monitor] Write Complete: ID=9, ADDR=0x10003800, RESP=OKAY, Latency=6 cycles
UVM_INFO sv/axi4_monitor.sv(286) @ 4356000: uvm_test_top.m_env.m_master_agent.m_monitor [axi4_monitor] Write Complete: ID=10, ADDR=0x10003818, RESP=OKAY, Latency=13 cycles
UVM_INFO sv/axi4_monitor.sv(286) @ 4373000: uvm_test_top.m_env.m_master_agent.m_monitor [axi4_monitor] Write Complete: ID=9, ADDR=0x1000384c, RESP=OKAY, Latency=16 cycles
UVM_INFO sv/axi4_monitor.sv(286) @ 4375000: uvm_test_top.m_env.m_master_agent.m_monitor [axi4_monitor] Write Complete: ID=3, ADDR=0x1000388c, RESP=OKAY, Latency=1 cycles
UVM_INFO sv/axi4_monitor.sv(286) @ 4389000: uvm_test_top.m_env.m_master_agent.m_monitor [axi4_monitor] Write Complete: ID=10, ADDR=0x10003890, RESP=OKAY, Latency=9 cycles
UVM_INFO sv/axi4_monitor.sv(286) @ 4392000: uvm_test_top.m_env.m_master_agent.m_monitor [axi4_monitor] Write Complete: ID=12, ADDR=0x100038b4, RESP=OKAY, Latency=2 cycles
UVM_INFO sv/axi4_monitor.sv(286) @ 4406000: uvm_test_top.m_env.m_master_agent.m_monitor [axi4_monitor] Write Complete: ID=1, ADDR=0x100038bc, RESP=OKAY, Latency=10 cycles
UVM_INFO sv/axi4_monitor.sv(286) @ 4413000: uvm_test_top.m_env.m_master_agent.m_monitor [axi4_monitor] Write Complete: ID=3, ADDR=0x100038e4, RESP=OKAY, Latency=6 cycles
UVM_INFO sv/axi4_monitor.sv(286) @ 4428000: uvm_test_top.m_env.m_master_agent.m_monitor [axi4_monitor] Write Complete: ID=1, ADDR=0x100038fc, RESP=OKAY, Latency=14 cycles
UVM_INFO sv/axi4_monitor.sv(286) @ 4430000: uvm_test_top.m_env.m_master_agent.m_monitor [axi4_monitor] Write Complete: ID=3, ADDR=0x10003934, RESP=OKAY, Latency=1 cycles
UVM_INFO sv/axi4_monitor.sv(286) @ 4447000: uvm_test_top.m_env.m_master_agent.m_monitor [axi4_monitor] Write Complete: ID=8, ADDR=0x10003938, RESP=OKAY, Latency=12 cycles
UVM_INFO sv/axi4_monitor.sv(286) @ 4460000: uvm_test_top.m_env.m_master_agent.m_monitor [axi4_monitor] Write Complete: ID=6, ADDR=0x10003968, RESP=OKAY, Latency=12 cycles
UVM_INFO sv/axi4_monitor.sv(286) @ 4471000: uvm_test_top.m_env.m_master_agent.m_monitor [axi4_monitor] Write Complete: ID=6, ADDR=0x10003998, RESP=OKAY, Latency=10 cycles
UVM_INFO sv/axi4_monitor.sv(286) @ 4485000: uvm_test_top.m_env.m_master_agent.m_monitor [axi4_monitor] Write Complete: ID=4, ADDR=0x100039c0, RESP=OKAY, Latency=13 cycles
UVM_INFO sv/axi4_monitor.sv(286) @ 4492000: uvm_test_top.m_env.m_master_agent.m_monitor [axi4_monitor] Write Complete: ID=7, ADDR=0x100039f4, RESP=OKAY, Latency=6 cycles
UVM_INFO sv/axi4_monitor.sv(286) @ 4502000: uvm_test_top.m_env.m_master_agent.m_monitor [axi4_monitor] Write Complete: ID=11, ADDR=0x10003a0c, RESP=OKAY, Latency=9 cycles
UVM_INFO sv/axi4_monitor.sv(286) @ 4519000: uvm_test_top.m_env.m_master_agent.m_monitor [axi4_monitor] Write Complete: ID=14, ADDR=0x10003a30, RESP=OKAY, Latency=16 cycles
UVM_INFO sv/axi4_monitor.sv(286) @ 4529000: uvm_test_top.m_env.m_master_agent.m_monitor [axi4_monitor] Write Complete: ID=15, ADDR=0x10003a70, RESP=OKAY, Latency=9 cycles
UVM_INFO sv/axi4_monitor.sv(286) @ 4543000: uvm_test_top.m_env.m_master_agent.m_monitor [axi4_monitor] Write Complete: ID=9, ADDR=0x10003a94, RESP=OKAY, Latency=13 cycles
UVM_INFO sv/axi4_monitor.sv(286) @ 4545000: uvm_test_top.m_env.m_master_agent.m_monitor [axi4_monitor] Write Complete: ID=12, ADDR=0x10003ac8, RESP=OKAY, Latency=1 cycles
UVM_INFO sv/axi4_monitor.sv(286) @ 4551000: uvm_test_top.m_env.m_master_agent.m_monitor [axi4_monitor] Write Complete: ID=1, ADDR=0x10003acc, RESP=OKAY, Latency=1 cycles
UVM_INFO sv/axi4_monitor.sv(286) @ 4561000: uvm_test_top.m_env.m_master_agent.m_monitor [axi4_monitor] Write Complete: ID=8, ADDR=0x10003ad0, RESP=OKAY, Latency=5 cycles
UVM_INFO sv/axi4_monitor.sv(286) @ 4577000: uvm_test_top.m_env.m_master_agent.m_monitor [axi4_monitor] Write Complete: ID=7, ADDR=0x10003ae4, RESP=OKAY, Latency=15 cycles
UVM_INFO sv/axi4_monitor.sv(286) @ 4586000: uvm_test_top.m_env.m_master_agent.m_monitor [axi4_monitor] Write Complete: ID=4, ADDR=0x10003b20, RESP=OKAY, Latency=8 cycles
UVM_INFO sv/axi4_monitor.sv(286) @ 4596000: uvm_test_top.m_env.m_master_agent.m_monitor [axi4_monitor] Write Complete: ID=11, ADDR=0x10003b40, RESP=OKAY, Latency=9 cycles
UVM_INFO sv/axi4_monitor.sv(286) @ 4609000: uvm_test_top.m_env.m_master_agent.m_monitor [axi4_monitor] Write Complete: ID=0, ADDR=0x10003b64, RESP=OKAY, Latency=12 cycles
UVM_INFO sv/axi4_monitor.sv(286) @ 4612000: uvm_test_top.m_env.m_master_agent.m_monitor [axi4_monitor] Write Complete: ID=8, ADDR=0x10003b94, RESP=OKAY, Latency=2 cycles
UVM_INFO sv/axi4_monitor.sv(286) @ 4626000: uvm_test_top.m_env.m_master_agent.m_monitor [axi4_monitor] Write Complete: ID=10, ADDR=0x10003b9c, RESP=OKAY, Latency=10 cycles
UVM_INFO sv/axi4_monitor.sv(286) @ 4633000: uvm_test_top.m_env.m_master_agent.m_monitor [axi4_monitor] Write Complete: ID=3, ADDR=0x10003bc4, RESP=OKAY, Latency=6 cycles
UVM_INFO sv/axi4_monitor.sv(286) @ 4637000: uvm_test_top.m_env.m_master_agent.m_monitor [axi4_monitor] Write Complete: ID=7, ADDR=0x10003bdc, RESP=OKAY, Latency=3 cycles
UVM_INFO sv/axi4_monitor.sv(286) @ 4648000: uvm_test_top.m_env.m_master_agent.m_monitor [axi4_monitor] Write Complete: ID=12, ADDR=0x10003be8, RESP=OKAY, Latency=8 cycles
UVM_INFO sv/axi4_monitor.sv(286) @ 4652000: uvm_test_top.m_env.m_master_agent.m_monitor [axi4_monitor] Write Complete: ID=11, ADDR=0x10003c08, RESP=OKAY, Latency=3 cycles
UVM_INFO sv/axi4_monitor.sv(286) @ 4658000: uvm_test_top.m_env.m_master_agent.m_monitor [axi4_monitor] Write Complete: ID=9, ADDR=0x10003c14, RESP=OKAY, Latency=3 cycles
UVM_INFO sv/axi4_monitor.sv(286) @ 4671000: uvm_test_top.m_env.m_master_agent.m_monitor [axi4_monitor] Write Complete: ID=6, ADDR=0x10003c20, RESP=OKAY, Latency=10 cycles
UVM_INFO sv/axi4_monitor.sv(286) @ 4683000: uvm_test_top.m_env.m_master_agent.m_monitor [axi4_monitor] Write Complete: ID=12, ADDR=0x10003c48, RESP=OKAY, Latency=11 cycles
UVM_INFO sv/axi4_monitor.sv(286) @ 4690000: uvm_test_top.m_env.m_master_agent.m_monitor [axi4_monitor] Write Complete: ID=7, ADDR=0x10003c74, RESP=OKAY, Latency=6 cycles
UVM_INFO sv/axi4_monitor.sv(286) @ 4697000: uvm_test_top.m_env.m_master_agent.m_monitor [axi4_monitor] Write Complete: ID=7, ADDR=0x10003c8c, RESP=OKAY, Latency=6 cycles
UVM_INFO sv/axi4_monitor.sv(286) @ 4706000: uvm_test_top.m_env.m_master_agent.m_monitor [axi4_monitor] Write Complete: ID=14, ADDR=0x10003ca4, RESP=OKAY, Latency=8 cycles
UVM_INFO sv/axi4_monitor.sv(286) @ 4720000: uvm_test_top.m_env.m_master_agent.m_monitor [axi4_monitor] Write Complete: ID=1, ADDR=0x10003cc4, RESP=OKAY, Latency=13 cycles
UVM_INFO sv/axi4_monitor.sv(286) @ 4726000: uvm_test_top.m_env.m_master_agent.m_monitor [axi4_monitor] Write Complete: ID=13, ADDR=0x10003cf8, RESP=OKAY, Latency=5 cycles
UVM_INFO sv/axi4_monitor.sv(286) @ 4737000: uvm_test_top.m_env.m_master_agent.m_monitor [axi4_monitor] Write Complete: ID=14, ADDR=0x10003d0c, RESP=OKAY, Latency=10 cycles
UVM_INFO sv/axi4_monitor.sv(286) @ 4745000: uvm_test_top.m_env.m_master_agent.m_monitor [axi4_monitor] Write Complete: ID=2, ADDR=0x10003d34, RESP=OKAY, Latency=7 cycles
UVM_INFO sv/axi4_monitor.sv(286) @ 4761000: uvm_test_top.m_env.m_master_agent.m_monitor [axi4_monitor] Write Complete: ID=14, ADDR=0x10003d50, RESP=OKAY, Latency=15 cycles
UVM_INFO sv/axi4_monitor.sv(286) @ 4766000: uvm_test_top.m_env.m_master_agent.m_monitor [axi4_monitor] Write Complete: ID=0, ADDR=0x10003d8c, RESP=OKAY, Latency=4 cycles
UVM_INFO sv/axi4_monitor.sv(286) @ 4769000: uvm_test_top.m_env.m_master_agent.m_monitor [axi4_monitor] Write Complete: ID=4, ADDR=0x10003d9c, RESP=OKAY, Latency=1 cycles
UVM_INFO sv/axi4_monitor.sv(286) @ 4777000: uvm_test_top.m_env.m_master_agent.m_monitor [axi4_monitor] Write Complete: ID=6, ADDR=0x10003da0, RESP=OKAY, Latency=3 cycles
UVM_INFO sv/axi4_monitor.sv(286) @ 4786000: uvm_test_top.m_env.m_master_agent.m_monitor [axi4_monitor] Write Complete: ID=6, ADDR=0x10003dac, RESP=OKAY, Latency=6 cycles
UVM_INFO sv/axi4_monitor.sv(286) @ 4799000: uvm_test_top.m_env.m_master_agent.m_monitor [axi4_monitor] Write Complete: ID=12, ADDR=0x10003dc4, RESP=OKAY, Latency=12 cycles
UVM_INFO sv/axi4_monitor.sv(286) @ 4801000: uvm_test_top.m_env.m_master_agent.m_monitor [axi4_monitor] Write Complete: ID=1, ADDR=0x10003df4, RESP=OKAY, Latency=1 cycles
UVM_INFO sv/axi4_monitor.sv(286) @ 4814000: uvm_test_top.m_env.m_master_agent.m_monitor [axi4_monitor] Write Complete: ID=0, ADDR=0x10003df8, RESP=OKAY, Latency=8 cycles
UVM_INFO sv/axi4_monitor.sv(286) @ 4816000: uvm_test_top.m_env.m_master_agent.m_monitor [axi4_monitor] Write Complete: ID=2, ADDR=0x10003e18, RESP=OKAY, Latency=1 cycles
UVM_INFO sv/axi4_monitor.sv(286) @ 4827000: uvm_test_top.m_env.m_master_agent.m_monitor [axi4_monitor] Write Complete: ID=4, ADDR=0x10003e1c, RESP=OKAY, Latency=6 cycles
UVM_INFO sv/axi4_monitor.sv(286) @ 4834000: uvm_test_top.m_env.m_master_agent.m_monitor [axi4_monitor] Write Complete: ID=3, ADDR=0x10003e34, RESP=OKAY, Latency=6 cycles
UVM_INFO sv/axi4_monitor.sv(286) @ 4841000: uvm_test_top.m_env.m_master_agent.m_monitor [axi4_monitor] Write Complete: ID=12, ADDR=0x10003e4c, RESP=OKAY, Latency=6 cycles
UVM_INFO sv/axi4_monitor.sv(286) @ 4852000: uvm_test_top.m_env.m_master_agent.m_monitor [axi4_monitor] Write Complete: ID=7, ADDR=0x10003e64, RESP=OKAY, Latency=10 cycles
UVM_INFO sv/axi4_monitor.sv(286) @ 4868000: uvm_test_top.m_env.m_master_agent.m_monitor [axi4_monitor] Write Complete: ID=1, ADDR=0x10003e8c, RESP=OKAY, Latency=15 cycles
UVM_INFO sv/axi4_monitor.sv(286) @ 4870000: uvm_test_top.m_env.m_master_agent.m_monitor [axi4_monitor] Write Complete: ID=9, ADDR=0x10003ec8, RESP=OKAY, Latency=1 cycles
UVM_INFO sv/axi4_monitor.sv(286) @ 4881000: uvm_test_top.m_env.m_master_agent.m_monitor [axi4_monitor] Write Complete: ID=1, ADDR=0x10003ecc, RESP=OKAY, Latency=6 cycles
UVM_INFO sv/axi4_monitor.sv(286) @ 4894000: uvm_test_top.m_env.m_master_agent.m_monitor [axi4_monitor] Write Complete: ID=6, ADDR=0x10003ee4, RESP=OKAY, Latency=12 cycles
UVM_INFO sv/axi4_monitor.sv(286) @ 4906000: uvm_test_top.m_env.m_master_agent.m_monitor [axi4_monitor] Write Complete: ID=14, ADDR=0x10003f14, RESP=OKAY, Latency=11 cycles
UVM_INFO sv/axi4_monitor.sv(286) @ 4915000: uvm_test_top.m_env.m_master_agent.m_monitor [axi4_monitor] Write Complete: ID=15, ADDR=0x10003f40, RESP=OKAY, Latency=8 cycles
UVM_INFO sv/axi4_monitor.sv(286) @ 4926000: uvm_test_top.m_env.m_master_agent.m_monitor [axi4_monitor] Write Complete: ID=8, ADDR=0x10003f60, RESP=OKAY, Latency=10 cycles
UVM_INFO sv/axi4_monitor.sv(286) @ 4929000: uvm_test_top.m_env.m_master_agent.m_monitor [axi4_monitor] Write Complete: ID=9, ADDR=0x10003f88, RESP=OKAY, Latency=2 cycles
UVM_INFO sv/axi4_monitor.sv(286) @ 4939000: uvm_test_top.m_env.m_master_agent.m_monitor [axi4_monitor] Write Complete: ID=10, ADDR=0x10003f90, RESP=OKAY, Latency=6 cycles
UVM_INFO sv/axi4_monitor.sv(286) @ 4950000: uvm_test_top.m_env.m_master_agent.m_monitor [axi4_monitor] Write Complete: ID=8, ADDR=0x10003fa8, RESP=OKAY, Latency=10 cycles
UVM_INFO sv/axi4_master_driver.sv(177) @ 4955000: uvm_test_top.m_env.m_master_agent.m_driver [axi4_master_driver] Splitting burst into 2 sub-bursts
UVM_INFO sv/axi4_monitor.sv(286) @ 4960000: uvm_test_top.m_env.m_master_agent.m_monitor [axi4_monitor] Write Complete: ID=7, ADDR=0x10003fd0, RESP=OKAY, Latency=9 cycles
UVM_INFO sv/axi4_monitor.sv(286) @ 4964000: uvm_test_top.m_env.m_master_agent.m_monitor [axi4_monitor] Write Complete: ID=10, ADDR=0x10003ff4, RESP=OKAY, Latency=3 cycles
UVM_INFO sv/axi4_monitor.sv(286) @ 4972000: uvm_test_top.m_env.m_master_agent.m_monitor [axi4_monitor] Write Complete: ID=11, ADDR=0x10004000, RESP=OKAY, Latency=6 cycles
UVM_INFO sv/axi4_monitor.sv(286) @ 4983000: uvm_test_top.m_env.m_master_agent.m_monitor [axi4_monitor] Write Complete: ID=5, ADDR=0x100035a4, RESP=OKAY, Latency=823 cycles
UVM_INFO sv/axi4_monitor.sv(286) @ 4993000: uvm_test_top.m_env.m_master_agent.m_monitor [axi4_monitor] Write Complete: ID=9, ADDR=0x10004040, RESP=OKAY, Latency=9 cycles
UVM_INFO sv/seq_lib.sv(3411) @ 4993000: uvm_test_top.m_env.m_master_agent.m_sequencer@@seq [axi4_data_first_sequence] Write progress: 500/500 transactions
UVM_INFO sv/seq_lib.sv(3417) @ 4993000: uvm_test_top.m_env.m_master_agent.m_sequencer@@seq [axi4_data_first_sequence] Write phase completed: 500 transactions sent
UVM_INFO sv/seq_lib.sv(3423) @ 4993000: uvm_test_top.m_env.m_master_agent.m_sequencer@@seq [axi4_data_first_sequence] === Phase 2: READ-back and verification ===
UVM_INFO sv/axi4_monitor.sv(403) @ 4997000: uvm_test_top.m_env.m_master_agent.m_monitor [axi4_monitor] Read Complete: ID=4, ADDR=0x10000000, RESP=OKAY, Latency=1 cycles
UVM_INFO sv/axi4_monitor.sv(286) @ 4998000: uvm_test_top.m_env.m_master_agent.m_monitor [axi4_monitor] Write Complete: ID=8, ADDR=0x10004064, RESP=OKAY, Latency=4 cycles
UVM_INFO sv/axi4_monitor.sv(403) @ 5006000: uvm_test_top.m_env.m_master_agent.m_monitor [axi4_monitor] Read Complete: ID=10, ADDR=0x10000004, RESP=OKAY, Latency=6 cycles
UVM_INFO sv/axi4_monitor.sv(403) @ 5013000: uvm_test_top.m_env.m_master_agent.m_monitor [axi4_monitor] Read Complete: ID=12, ADDR=0x1000001c, RESP=OKAY, Latency=4 cycles
UVM_INFO sv/axi4_monitor.sv(403) @ 5030000: uvm_test_top.m_env.m_master_agent.m_monitor [axi4_monitor] Read Complete: ID=10, ADDR=0x1000002c, RESP=OKAY, Latency=14 cycles
UVM_INFO sv/axi4_monitor.sv(403) @ 5042000: uvm_test_top.m_env.m_master_agent.m_monitor [axi4_monitor] Read Complete: ID=15, ADDR=0x10000064, RESP=OKAY, Latency=9 cycles
UVM_INFO sv/axi4_monitor.sv(403) @ 5050000: uvm_test_top.m_env.m_master_agent.m_monitor [axi4_monitor] Read Complete: ID=14, ADDR=0x10000088, RESP=OKAY, Latency=5 cycles
UVM_INFO sv/axi4_monitor.sv(403) @ 5057000: uvm_test_top.m_env.m_master_agent.m_monitor [axi4_monitor] Read Complete: ID=8, ADDR=0x1000009c, RESP=OKAY, Latency=4 cycles
UVM_INFO sv/axi4_monitor.sv(403) @ 5075000: uvm_test_top.m_env.m_master_agent.m_monitor [axi4_monitor] Read Complete: ID=10, ADDR=0x100000ac, RESP=OKAY, Latency=15 cycles
UVM_INFO sv/axi4_monitor.sv(403) @ 5094000: uvm_test_top.m_env.m_master_agent.m_monitor [axi4_monitor] Read Complete: ID=9, ADDR=0x100000e8, RESP=OKAY, Latency=16 cycles
UVM_INFO sv/axi4_monitor.sv(403) @ 5111000: uvm_test_top.m_env.m_master_agent.m_monitor [axi4_monitor] Read Complete: ID=5, ADDR=0x10000128, RESP=OKAY, Latency=14 cycles
UVM_INFO sv/axi4_monitor.sv(403) @ 5115000: uvm_test_top.m_env.m_master_agent.m_monitor [axi4_monitor] Read Complete: ID=5, ADDR=0x10000160, RESP=OKAY, Latency=1 cycles
UVM_INFO sv/axi4_monitor.sv(403) @ 5134000: uvm_test_top.m_env.m_master_agent.m_monitor [axi4_monitor] Read Complete: ID=7, ADDR=0x10000164, RESP=OKAY, Latency=16 cycles
UVM_INFO sv/axi4_monitor.sv(403) @ 5144000: uvm_test_top.m_env.m_master_agent.m_monitor [axi4_monitor] Read Complete: ID=5, ADDR=0x100001a4, RESP=OKAY, Latency=7 cycles
UVM_INFO sv/axi4_monitor.sv(403) @ 5163000: uvm_test_top.m_env.m_master_agent.m_monitor [axi4_monitor] Read Complete: ID=9, ADDR=0x100001c0, RESP=OKAY, Latency=16 cycles
UVM_INFO sv/axi4_monitor.sv(403) @ 5179000: uvm_test_top.m_env.m_master_agent.m_monitor [axi4_monitor] Read Complete: ID=6, ADDR=0x10000200, RESP=OKAY, Latency=13 cycles
UVM_INFO sv/axi4_monitor.sv(403) @ 5189000: uvm_test_top.m_env.m_master_agent.m_monitor [axi4_monitor] Read Complete: ID=7, ADDR=0x10000234, RESP=OKAY, Latency=7 cycles
UVM_INFO sv/axi4_monitor.sv(403) @ 5198000: uvm_test_top.m_env.m_master_agent.m_monitor [axi4_monitor] Read Complete: ID=5, ADDR=0x10000250, RESP=OKAY, Latency=6 cycles
UVM_INFO sv/axi4_monitor.sv(403) @ 5207000: uvm_test_top.m_env.m_master_agent.m_monitor [axi4_monitor] Read Complete: ID=6, ADDR=0x10000268, RESP=OKAY, Latency=6 cycles
UVM_INFO sv/axi4_monitor.sv(403) @ 5224000: uvm_test_top.m_env.m_master_agent.m_monitor [axi4_monitor] Read Complete: ID=15, ADDR=0x10000280, RESP=OKAY, Latency=14 cycles
UVM_INFO sv/axi4_monitor.sv(403) @ 5231000: uvm_test_top.m_env.m_master_agent.m_monitor [axi4_monitor] Read Complete: ID=2, ADDR=0x100002b8, RESP=OKAY, Latency=4 cycles
UVM_INFO sv/axi4_monitor.sv(403) @ 5236000: uvm_test_top.m_env.m_master_agent.m_monitor [axi4_monitor] Read Complete: ID=13, ADDR=0x100002c8, RESP=OKAY, Latency=2 cycles
UVM_INFO sv/axi4_monitor.sv(403) @ 5250000: uvm_test_top.m_env.m_master_agent.m_monitor [axi4_monitor] Read Complete: ID=14, ADDR=0x100002d0, RESP=OKAY, Latency=11 cycles
UVM_INFO sv/axi4_monitor.sv(403) @ 5262000: uvm_test_top.m_env.m_master_agent.m_monitor [axi4_monitor] Read Complete: ID=9, ADDR=0x100002fc, RESP=OKAY, Latency=9 cycles
UVM_INFO sv/axi4_monitor.sv(403) @ 5267000: uvm_test_top.m_env.m_master_agent.m_monitor [axi4_monitor] Read Complete: ID=5, ADDR=0x10000320, RESP=OKAY, Latency=2 cycles
UVM_INFO sv/axi4_monitor.sv(403) @ 5281000: uvm_test_top.m_env.m_master_agent.m_monitor [axi4_monitor] Read Complete: ID=6, ADDR=0x10000328, RESP=OKAY, Latency=11 cycles
UVM_INFO sv/axi4_monitor.sv(403) @ 5299000: uvm_test_top.m_env.m_master_agent.m_monitor [axi4_monitor] Read Complete: ID=14, ADDR=0x10000354, RESP=OKAY, Latency=15 cycles
UVM_INFO sv/axi4_monitor.sv(403) @ 5304000: uvm_test_top.m_env.m_master_agent.m_monitor [axi4_monitor] Read Complete: ID=10, ADDR=0x10000390, RESP=OKAY, Latency=2 cycles
UVM_INFO sv/axi4_monitor.sv(403) @ 5311000: uvm_test_top.m_env.m_master_agent.m_monitor [axi4_monitor] Read Complete: ID=3, ADDR=0x10000398, RESP=OKAY, Latency=4 cycles
UVM_INFO sv/axi4_monitor.sv(403) @ 5317000: uvm_test_top.m_env.m_master_agent.m_monitor [axi4_monitor] Read Complete: ID=9, ADDR=0x100003a8, RESP=OKAY, Latency=3 cycles
UVM_INFO sv/axi4_monitor.sv(403) @ 5336000: uvm_test_top.m_env.m_master_agent.m_monitor [axi4_monitor] Read Complete: ID=9, ADDR=0x100003b4, RESP=OKAY, Latency=16 cycles
UVM_INFO sv/axi4_monitor.sv(403) @ 5343000: uvm_test_top.m_env.m_master_agent.m_monitor [axi4_monitor] Read Complete: ID=12, ADDR=0x100003f4, RESP=OKAY, Latency=4 cycles
