./simv_axi4_long_time_test +UVM_TESTNAME=axi4_long_time_test +UVM_VERBOSITY=UVM_MEDIUM \
	-l sim_axi4_long_time_test.log  +ntb_random_seed=1
Chronologic VCS simulator copyright 1991-2018
Contains Synopsys proprietary information.
Compiler version O-2018.09-SP2_Full64; Runtime version O-2018.09-SP2_Full64;  Apr 10 09:08 2026
UVM_INFO /home/xingchangchang/ProgramFiles/vcs_verdi2018/synopsys/vcs_201809/vcs/O-2018.09-SP2/etc/uvm-1.2/base/uvm_root.svh(402) @ 0: reporter [UVM/RELNOTES] 
----------------------------------------------------------------
UVM-1.2.Synopsys
(C) 2007-2014 Mentor Graphics Corporation
(C) 2007-2014 Cadence Design Systems, Inc.
(C) 2006-2014 Synopsys, Inc.
(C) 2011-2013 Cypress Semiconductor Corp.
(C) 2013-2014 NVIDIA Corporation
----------------------------------------------------------------

  ***********       IMPORTANT RELEASE NOTES         ************

  You are using a version of the UVM library that has been compiled
  with `UVM_NO_DEPRECATED undefined.
  See http://www.eda.org/svdb/view.php?id=3313 for more details.

  You are using a version of the UVM library that has been compiled
  with `UVM_OBJECT_DO_NOT_NEED_CONSTRUCTOR undefined.
  See http://www.eda.org/svdb/view.php?id=3770 for more details.

      (Specify +UVM_NO_RELNOTES to turn off this notice)

*Verdi* Loading libsscore_vcs201809.so
FSDB Dumper for VCS, Release Verdi_O-2018.09-SP2, Linux x86_64/64bit, 02/21/2019
(C) 1996 - 2019 by Synopsys, Inc.
*Verdi* FSDB WARNING: The FSDB file already exists. Overwriting the FSDB file may crash the programs that are using this file.
*Verdi* : Create FSDB file 'sim.fsdb'
*Verdi* : Begin traversing the scope (axi4_tb_top), layer (0).
*Verdi* : End of traversing.
UVM_INFO @ 0: reporter [RNTST] Running test axi4_long_time_test...
UVM_INFO sv/test_lib.sv(839) @ 0: uvm_test_top [axi4_long_time_test] Timeout configuration: WTIMEOUT=10000, RTIMEOUT=10000 cycles
UVM_INFO sv/axi4_env.sv(58) @ 0: uvm_test_top.m_env [axi4_env] AXI4 VIP Topology:
UVM_INFO /home/xingchangchang/ProgramFiles/vcs_verdi2018/synopsys/vcs_201809/vcs/O-2018.09-SP2/etc/uvm-1.2/base/uvm_root.svh(589) @ 0: reporter [UVMTOP] UVM testbench topology:
--------------------------------------------------------------
Name                       Type                    Size  Value
--------------------------------------------------------------
uvm_test_top               axi4_long_time_test     -     @342 
  m_env                    axi4_env                -     @366 
    m_ap                   uvm_analysis_port       -     @387 
    m_master_agent         axi4_master_agent       -     @378 
      m_ap                 uvm_analysis_port       -     @584 
      m_driver             axi4_master_driver      -     @418 
        rsp_port           uvm_analysis_port       -     @437 
        seq_item_port      uvm_seq_item_pull_port  -     @427 
      m_monitor            axi4_monitor            -     @399 
        m_ap               uvm_analysis_port       -     @408 
      m_sequencer          axi4_sequencer          -     @447 
        rsp_export         uvm_analysis_export     -     @456 
        seq_item_export    uvm_seq_item_pull_imp   -     @574 
        arbitration_queue  array                   0     -    
        lock_queue         array                   0     -    
        num_last_reqs      integral                32    'd1  
        num_last_rsps      integral                32    'd1  
--------------------------------------------------------------

UVM_INFO sv/test_lib.sv(848) @ 0: uvm_test_top [axi4_long_time_test] ===========================================
UVM_INFO sv/test_lib.sv(849) @ 0: uvm_test_top [axi4_long_time_test]        AXI4 LONG TIME TEST
UVM_INFO sv/test_lib.sv(850) @ 0: uvm_test_top [axi4_long_time_test] ===========================================
UVM_INFO sv/test_lib.sv(851) @ 0: uvm_test_top [axi4_long_time_test] Test Configuration:
UVM_INFO sv/test_lib.sv(852) @ 0: uvm_test_top [axi4_long_time_test]   - Burst Length: random [1:16] beats (LEN=0~15)
UVM_INFO sv/test_lib.sv(853) @ 0: uvm_test_top [axi4_long_time_test]   - Transfer Size: 4 bytes (SIZE=2)
UVM_INFO sv/test_lib.sv(854) @ 0: uvm_test_top [axi4_long_time_test]   - Burst Type: INCR
UVM_INFO sv/test_lib.sv(855) @ 0: uvm_test_top [axi4_long_time_test]   - Start Address: 0x1000_0000 (aligned)
UVM_INFO sv/test_lib.sv(856) @ 0: uvm_test_top [axi4_long_time_test]   - Number of Transactions: 500
UVM_INFO sv/test_lib.sv(857) @ 0: uvm_test_top [axi4_long_time_test]   - Write Timeout: 10000 cycles
UVM_INFO sv/test_lib.sv(858) @ 0: uvm_test_top [axi4_long_time_test]   - Read Timeout: 10000 cycles
UVM_INFO sv/test_lib.sv(859) @ 0: uvm_test_top [axi4_long_time_test] ===========================================
UVM_INFO sv/seq_lib.sv(3570) @ 0: uvm_test_top.m_env.m_master_agent.m_sequencer@@seq [axi4_long_time_sequence] Starting long time test sequence: 500 transactions, LEN=random[0:15], SIZE=2, ADDR=0x10000000
UVM_INFO sv/seq_lib.sv(3577) @ 0: uvm_test_top.m_env.m_master_agent.m_sequencer@@seq [axi4_long_time_sequence] === Phase 1: Sending back-to-back WRITE transactions ===
UVM_INFO sv/axi4_monitor.sv(296) @ 15000: uvm_test_top.m_env.m_master_agent.m_monitor [axi4_monitor] Write Complete: ID=2, ADDR=0x10000000, RESP=OKAY, Latency=2 cycles
UVM_INFO sv/axi4_monitor.sv(296) @ 23000: uvm_test_top.m_env.m_master_agent.m_monitor [axi4_monitor] Write Complete: ID=4, ADDR=0x10000004, RESP=OKAY, Latency=7 cycles
UVM_INFO sv/axi4_monitor.sv(296) @ 29000: uvm_test_top.m_env.m_master_agent.m_monitor [axi4_monitor] Write Complete: ID=0, ADDR=0x1000001c, RESP=OKAY, Latency=5 cycles
UVM_INFO sv/axi4_monitor.sv(296) @ 45000: uvm_test_top.m_env.m_master_agent.m_monitor [axi4_monitor] Write Complete: ID=12, ADDR=0x1000002c, RESP=OKAY, Latency=15 cycles
UVM_INFO sv/axi4_monitor.sv(296) @ 56000: uvm_test_top.m_env.m_master_agent.m_monitor [axi4_monitor] Write Complete: ID=3, ADDR=0x10000064, RESP=OKAY, Latency=10 cycles
UVM_INFO sv/axi4_monitor.sv(296) @ 63000: uvm_test_top.m_env.m_master_agent.m_monitor [axi4_monitor] Write Complete: ID=11, ADDR=0x10000088, RESP=OKAY, Latency=6 cycles
UVM_INFO sv/axi4_monitor.sv(296) @ 69000: uvm_test_top.m_env.m_master_agent.m_monitor [axi4_monitor] Write Complete: ID=8, ADDR=0x1000009c, RESP=OKAY, Latency=5 cycles
UVM_INFO sv/axi4_monitor.sv(296) @ 86000: uvm_test_top.m_env.m_master_agent.m_monitor [axi4_monitor] Write Complete: ID=10, ADDR=0x100000ac, RESP=OKAY, Latency=16 cycles
UVM_INFO sv/axi4_monitor.sv(296) @ 104000: uvm_test_top.m_env.m_master_agent.m_monitor [axi4_monitor] Write Complete: ID=1, ADDR=0x100000e8, RESP=OKAY, Latency=17 cycles
UVM_INFO sv/axi4_monitor.sv(296) @ 120000: uvm_test_top.m_env.m_master_agent.m_monitor [axi4_monitor] Write Complete: ID=2, ADDR=0x10000128, RESP=OKAY, Latency=15 cycles
UVM_INFO sv/axi4_monitor.sv(296) @ 123000: uvm_test_top.m_env.m_master_agent.m_monitor [axi4_monitor] Write Complete: ID=12, ADDR=0x10000160, RESP=OKAY, Latency=2 cycles
UVM_INFO sv/axi4_monitor.sv(296) @ 141000: uvm_test_top.m_env.m_master_agent.m_monitor [axi4_monitor] Write Complete: ID=3, ADDR=0x10000164, RESP=OKAY, Latency=17 cycles
UVM_INFO sv/axi4_monitor.sv(296) @ 150000: uvm_test_top.m_env.m_master_agent.m_monitor [axi4_monitor] Write Complete: ID=13, ADDR=0x100001a4, RESP=OKAY, Latency=8 cycles
UVM_INFO sv/axi4_monitor.sv(296) @ 168000: uvm_test_top.m_env.m_master_agent.m_monitor [axi4_monitor] Write Complete: ID=0, ADDR=0x100001c0, RESP=OKAY, Latency=17 cycles
UVM_INFO sv/axi4_monitor.sv(296) @ 183000: uvm_test_top.m_env.m_master_agent.m_monitor [axi4_monitor] Write Complete: ID=6, ADDR=0x10000200, RESP=OKAY, Latency=14 cycles
UVM_INFO sv/axi4_monitor.sv(296) @ 192000: uvm_test_top.m_env.m_master_agent.m_monitor [axi4_monitor] Write Complete: ID=9, ADDR=0x10000234, RESP=OKAY, Latency=8 cycles
UVM_INFO sv/axi4_monitor.sv(296) @ 200000: uvm_test_top.m_env.m_master_agent.m_monitor [axi4_monitor] Write Complete: ID=2, ADDR=0x10000250, RESP=OKAY, Latency=7 cycles
UVM_INFO sv/axi4_monitor.sv(296) @ 208000: uvm_test_top.m_env.m_master_agent.m_monitor [axi4_monitor] Write Complete: ID=11, ADDR=0x10000268, RESP=OKAY, Latency=7 cycles
UVM_INFO sv/axi4_monitor.sv(296) @ 224000: uvm_test_top.m_env.m_master_agent.m_monitor [axi4_monitor] Write Complete: ID=6, ADDR=0x10000280, RESP=OKAY, Latency=15 cycles
UVM_INFO sv/axi4_monitor.sv(296) @ 230000: uvm_test_top.m_env.m_master_agent.m_monitor [axi4_monitor] Write Complete: ID=14, ADDR=0x100002b8, RESP=OKAY, Latency=5 cycles
UVM_INFO sv/axi4_monitor.sv(296) @ 234000: uvm_test_top.m_env.m_master_agent.m_monitor [axi4_monitor] Write Complete: ID=5, ADDR=0x100002c8, RESP=OKAY, Latency=3 cycles
UVM_INFO sv/axi4_monitor.sv(296) @ 247000: uvm_test_top.m_env.m_master_agent.m_monitor [axi4_monitor] Write Complete: ID=7, ADDR=0x100002d0, RESP=OKAY, Latency=12 cycles
UVM_INFO sv/axi4_monitor.sv(296) @ 258000: uvm_test_top.m_env.m_master_agent.m_monitor [axi4_monitor] Write Complete: ID=14, ADDR=0x100002fc, RESP=OKAY, Latency=10 cycles
UVM_INFO sv/axi4_monitor.sv(296) @ 262000: uvm_test_top.m_env.m_master_agent.m_monitor [axi4_monitor] Write Complete: ID=14, ADDR=0x10000320, RESP=OKAY, Latency=3 cycles
UVM_INFO sv/axi4_monitor.sv(296) @ 275000: uvm_test_top.m_env.m_master_agent.m_monitor [axi4_monitor] Write Complete: ID=2, ADDR=0x10000328, RESP=OKAY, Latency=12 cycles
UVM_INFO sv/axi4_monitor.sv(296) @ 292000: uvm_test_top.m_env.m_master_agent.m_monitor [axi4_monitor] Write Complete: ID=2, ADDR=0x10000354, RESP=OKAY, Latency=16 cycles
UVM_INFO sv/axi4_monitor.sv(296) @ 296000: uvm_test_top.m_env.m_master_agent.m_monitor [axi4_monitor] Write Complete: ID=0, ADDR=0x10000390, RESP=OKAY, Latency=3 cycles
UVM_INFO sv/axi4_monitor.sv(296) @ 302000: uvm_test_top.m_env.m_master_agent.m_monitor [axi4_monitor] Write Complete: ID=9, ADDR=0x10000398, RESP=OKAY, Latency=5 cycles
UVM_INFO sv/axi4_monitor.sv(296) @ 307000: uvm_test_top.m_env.m_master_agent.m_monitor [axi4_monitor] Write Complete: ID=2, ADDR=0x100003a8, RESP=OKAY, Latency=4 cycles
UVM_INFO sv/axi4_monitor.sv(296) @ 325000: uvm_test_top.m_env.m_master_agent.m_monitor [axi4_monitor] Write Complete: ID=1, ADDR=0x100003b4, RESP=OKAY, Latency=17 cycles
UVM_INFO sv/axi4_monitor.sv(296) @ 331000: uvm_test_top.m_env.m_master_agent.m_monitor [axi4_monitor] Write Complete: ID=13, ADDR=0x100003f4, RESP=OKAY, Latency=5 cycles
UVM_INFO sv/axi4_monitor.sv(296) @ 340000: uvm_test_top.m_env.m_master_agent.m_monitor [axi4_monitor] Write Complete: ID=15, ADDR=0x10000404, RESP=OKAY, Latency=8 cycles
UVM_INFO sv/axi4_monitor.sv(296) @ 354000: uvm_test_top.m_env.m_master_agent.m_monitor [axi4_monitor] Write Complete: ID=1, ADDR=0x10000420, RESP=OKAY, Latency=13 cycles
UVM_INFO sv/axi4_monitor.sv(296) @ 364000: uvm_test_top.m_env.m_master_agent.m_monitor [axi4_monitor] Write Complete: ID=3, ADDR=0x10000450, RESP=OKAY, Latency=9 cycles
UVM_INFO sv/axi4_monitor.sv(296) @ 368000: uvm_test_top.m_env.m_master_agent.m_monitor [axi4_monitor] Write Complete: ID=13, ADDR=0x10000470, RESP=OKAY, Latency=3 cycles
UVM_INFO sv/axi4_monitor.sv(296) @ 373000: uvm_test_top.m_env.m_master_agent.m_monitor [axi4_monitor] Write Complete: ID=0, ADDR=0x10000478, RESP=OKAY, Latency=4 cycles
UVM_INFO sv/axi4_monitor.sv(296) @ 384000: uvm_test_top.m_env.m_master_agent.m_monitor [axi4_monitor] Write Complete: ID=4, ADDR=0x10000484, RESP=OKAY, Latency=10 cycles
UVM_INFO sv/axi4_monitor.sv(296) @ 391000: uvm_test_top.m_env.m_master_agent.m_monitor [axi4_monitor] Write Complete: ID=7, ADDR=0x100004a8, RESP=OKAY, Latency=6 cycles
UVM_INFO sv/axi4_monitor.sv(296) @ 398000: uvm_test_top.m_env.m_master_agent.m_monitor [axi4_monitor] Write Complete: ID=0, ADDR=0x100004bc, RESP=OKAY, Latency=6 cycles
UVM_INFO sv/axi4_monitor.sv(296) @ 406000: uvm_test_top.m_env.m_master_agent.m_monitor [axi4_monitor] Write Complete: ID=5, ADDR=0x100004d0, RESP=OKAY, Latency=7 cycles
UVM_INFO sv/axi4_monitor.sv(296) @ 412000: uvm_test_top.m_env.m_master_agent.m_monitor [axi4_monitor] Write Complete: ID=7, ADDR=0x100004e8, RESP=OKAY, Latency=5 cycles
UVM_INFO sv/axi4_monitor.sv(296) @ 426000: uvm_test_top.m_env.m_master_agent.m_monitor [axi4_monitor] Write Complete: ID=10, ADDR=0x100004f8, RESP=OKAY, Latency=13 cycles
UVM_INFO sv/axi4_monitor.sv(296) @ 432000: uvm_test_top.m_env.m_master_agent.m_monitor [axi4_monitor] Write Complete: ID=5, ADDR=0x10000528, RESP=OKAY, Latency=5 cycles
UVM_INFO sv/axi4_monitor.sv(296) @ 438000: uvm_test_top.m_env.m_master_agent.m_monitor [axi4_monitor] Write Complete: ID=13, ADDR=0x10000538, RESP=OKAY, Latency=5 cycles
UVM_INFO sv/axi4_monitor.sv(296) @ 448000: uvm_test_top.m_env.m_master_agent.m_monitor [axi4_monitor] Write Complete: ID=1, ADDR=0x10000548, RESP=OKAY, Latency=9 cycles
UVM_INFO sv/axi4_monitor.sv(296) @ 454000: uvm_test_top.m_env.m_master_agent.m_monitor [axi4_monitor] Write Complete: ID=7, ADDR=0x10000568, RESP=OKAY, Latency=5 cycles
UVM_INFO sv/axi4_monitor.sv(296) @ 468000: uvm_test_top.m_env.m_master_agent.m_monitor [axi4_monitor] Write Complete: ID=10, ADDR=0x10000578, RESP=OKAY, Latency=13 cycles
UVM_INFO sv/axi4_monitor.sv(296) @ 484000: uvm_test_top.m_env.m_master_agent.m_monitor [axi4_monitor] Write Complete: ID=0, ADDR=0x100005a8, RESP=OKAY, Latency=15 cycles
UVM_INFO sv/axi4_monitor.sv(296) @ 488000: uvm_test_top.m_env.m_master_agent.m_monitor [axi4_monitor] Write Complete: ID=13, ADDR=0x100005e0, RESP=OKAY, Latency=3 cycles
UVM_INFO sv/axi4_monitor.sv(296) @ 502000: uvm_test_top.m_env.m_master_agent.m_monitor [axi4_monitor] Write Complete: ID=7, ADDR=0x100005e8, RESP=OKAY, Latency=13 cycles
UVM_INFO sv/axi4_monitor.sv(296) @ 512000: uvm_test_top.m_env.m_master_agent.m_monitor [axi4_monitor] Write Complete: ID=10, ADDR=0x10000618, RESP=OKAY, Latency=9 cycles
UVM_INFO sv/axi4_monitor.sv(296) @ 518000: uvm_test_top.m_env.m_master_agent.m_monitor [axi4_monitor] Write Complete: ID=7, ADDR=0x10000638, RESP=OKAY, Latency=5 cycles
UVM_INFO sv/axi4_monitor.sv(296) @ 536000: uvm_test_top.m_env.m_master_agent.m_monitor [axi4_monitor] Write Complete: ID=15, ADDR=0x10000648, RESP=OKAY, Latency=17 cycles
UVM_INFO sv/axi4_monitor.sv(296) @ 550000: uvm_test_top.m_env.m_master_agent.m_monitor [axi4_monitor] Write Complete: ID=1, ADDR=0x10000688, RESP=OKAY, Latency=13 cycles
UVM_INFO sv/axi4_monitor.sv(296) @ 558000: uvm_test_top.m_env.m_master_agent.m_monitor [axi4_monitor] Write Complete: ID=3, ADDR=0x100006b8, RESP=OKAY, Latency=7 cycles
UVM_INFO sv/axi4_monitor.sv(296) @ 571000: uvm_test_top.m_env.m_master_agent.m_monitor [axi4_monitor] Write Complete: ID=5, ADDR=0x100006d0, RESP=OKAY, Latency=12 cycles
UVM_INFO sv/axi4_monitor.sv(296) @ 588000: uvm_test_top.m_env.m_master_agent.m_monitor [axi4_monitor] Write Complete: ID=11, ADDR=0x100006fc, RESP=OKAY, Latency=16 cycles
UVM_INFO sv/axi4_monitor.sv(296) @ 604000: uvm_test_top.m_env.m_master_agent.m_monitor [axi4_monitor] Write Complete: ID=8, ADDR=0x10000738, RESP=OKAY, Latency=15 cycles
UVM_INFO sv/axi4_monitor.sv(296) @ 609000: uvm_test_top.m_env.m_master_agent.m_monitor [axi4_monitor] Write Complete: ID=1, ADDR=0x10000770, RESP=OKAY, Latency=4 cycles
UVM_INFO sv/axi4_monitor.sv(296) @ 626000: uvm_test_top.m_env.m_master_agent.m_monitor [axi4_monitor] Write Complete: ID=10, ADDR=0x1000077c, RESP=OKAY, Latency=16 cycles
UVM_INFO sv/axi4_monitor.sv(296) @ 635000: uvm_test_top.m_env.m_master_agent.m_monitor [axi4_monitor] Write Complete: ID=6, ADDR=0x100007b8, RESP=OKAY, Latency=8 cycles
UVM_INFO sv/axi4_monitor.sv(296) @ 648000: uvm_test_top.m_env.m_master_agent.m_monitor [axi4_monitor] Write Complete: ID=1, ADDR=0x100007d4, RESP=OKAY, Latency=12 cycles
UVM_INFO sv/axi4_monitor.sv(296) @ 653000: uvm_test_top.m_env.m_master_agent.m_monitor [axi4_monitor] Write Complete: ID=4, ADDR=0x10000800, RESP=OKAY, Latency=4 cycles
UVM_INFO sv/axi4_monitor.sv(296) @ 658000: uvm_test_top.m_env.m_master_agent.m_monitor [axi4_monitor] Write Complete: ID=14, ADDR=0x1000080c, RESP=OKAY, Latency=4 cycles
UVM_INFO sv/axi4_monitor.sv(296) @ 673000: uvm_test_top.m_env.m_master_agent.m_monitor [axi4_monitor] Write Complete: ID=11, ADDR=0x10000818, RESP=OKAY, Latency=14 cycles
UVM_INFO sv/axi4_monitor.sv(296) @ 678000: uvm_test_top.m_env.m_master_agent.m_monitor [axi4_monitor] Write Complete: ID=1, ADDR=0x1000084c, RESP=OKAY, Latency=4 cycles
UVM_INFO sv/axi4_monitor.sv(296) @ 688000: uvm_test_top.m_env.m_master_agent.m_monitor [axi4_monitor] Write Complete: ID=8, ADDR=0x10000858, RESP=OKAY, Latency=9 cycles
UVM_INFO sv/axi4_monitor.sv(296) @ 695000: uvm_test_top.m_env.m_master_agent.m_monitor [axi4_monitor] Write Complete: ID=6, ADDR=0x10000878, RESP=OKAY, Latency=6 cycles
UVM_INFO sv/axi4_monitor.sv(296) @ 699000: uvm_test_top.m_env.m_master_agent.m_monitor [axi4_monitor] Write Complete: ID=1, ADDR=0x1000088c, RESP=OKAY, Latency=3 cycles
UVM_INFO sv/axi4_monitor.sv(296) @ 713000: uvm_test_top.m_env.m_master_agent.m_monitor [axi4_monitor] Write Complete: ID=11, ADDR=0x10000894, RESP=OKAY, Latency=13 cycles
UVM_INFO sv/axi4_monitor.sv(296) @ 727000: uvm_test_top.m_env.m_master_agent.m_monitor [axi4_monitor] Write Complete: ID=8, ADDR=0x100008c4, RESP=OKAY, Latency=13 cycles
UVM_INFO sv/axi4_monitor.sv(296) @ 734000: uvm_test_top.m_env.m_master_agent.m_monitor [axi4_monitor] Write Complete: ID=8, ADDR=0x100008f4, RESP=OKAY, Latency=6 cycles
UVM_INFO sv/axi4_monitor.sv(296) @ 741000: uvm_test_top.m_env.m_master_agent.m_monitor [axi4_monitor] Write Complete: ID=4, ADDR=0x10000908, RESP=OKAY, Latency=6 cycles
UVM_INFO sv/axi4_monitor.sv(296) @ 746000: uvm_test_top.m_env.m_master_agent.m_monitor [axi4_monitor] Write Complete: ID=4, ADDR=0x1000091c, RESP=OKAY, Latency=4 cycles
UVM_INFO sv/axi4_monitor.sv(296) @ 754000: uvm_test_top.m_env.m_master_agent.m_monitor [axi4_monitor] Write Complete: ID=2, ADDR=0x10000928, RESP=OKAY, Latency=7 cycles
UVM_INFO sv/axi4_monitor.sv(296) @ 758000: uvm_test_top.m_env.m_master_agent.m_monitor [axi4_monitor] Write Complete: ID=14, ADDR=0x10000940, RESP=OKAY, Latency=3 cycles
UVM_INFO sv/axi4_monitor.sv(296) @ 764000: uvm_test_top.m_env.m_master_agent.m_monitor [axi4_monitor] Write Complete: ID=12, ADDR=0x10000948, RESP=OKAY, Latency=5 cycles
UVM_INFO sv/axi4_monitor.sv(296) @ 775000: uvm_test_top.m_env.m_master_agent.m_monitor [axi4_monitor] Write Complete: ID=11, ADDR=0x10000958, RESP=OKAY, Latency=10 cycles
UVM_INFO sv/axi4_monitor.sv(296) @ 782000: uvm_test_top.m_env.m_master_agent.m_monitor [axi4_monitor] Write Complete: ID=13, ADDR=0x1000097c, RESP=OKAY, Latency=6 cycles
UVM_INFO sv/axi4_monitor.sv(296) @ 789000: uvm_test_top.m_env.m_master_agent.m_monitor [axi4_monitor] Write Complete: ID=10, ADDR=0x10000990, RESP=OKAY, Latency=6 cycles
UVM_INFO sv/axi4_monitor.sv(296) @ 793000: uvm_test_top.m_env.m_master_agent.m_monitor [axi4_monitor] Write Complete: ID=2, ADDR=0x100009a4, RESP=OKAY, Latency=3 cycles
UVM_INFO sv/axi4_monitor.sv(296) @ 806000: uvm_test_top.m_env.m_master_agent.m_monitor [axi4_monitor] Write Complete: ID=9, ADDR=0x100009ac, RESP=OKAY, Latency=12 cycles
UVM_INFO sv/axi4_monitor.sv(296) @ 815000: uvm_test_top.m_env.m_master_agent.m_monitor [axi4_monitor] Write Complete: ID=6, ADDR=0x100009d8, RESP=OKAY, Latency=8 cycles
UVM_INFO sv/axi4_monitor.sv(296) @ 818000: uvm_test_top.m_env.m_master_agent.m_monitor [axi4_monitor] Write Complete: ID=12, ADDR=0x100009f4, RESP=OKAY, Latency=2 cycles
UVM_INFO sv/axi4_monitor.sv(296) @ 836000: uvm_test_top.m_env.m_master_agent.m_monitor [axi4_monitor] Write Complete: ID=13, ADDR=0x100009f8, RESP=OKAY, Latency=17 cycles
UVM_INFO sv/axi4_monitor.sv(296) @ 850000: uvm_test_top.m_env.m_master_agent.m_monitor [axi4_monitor] Write Complete: ID=7, ADDR=0x10000a38, RESP=OKAY, Latency=13 cycles
UVM_INFO sv/axi4_monitor.sv(296) @ 863000: uvm_test_top.m_env.m_master_agent.m_monitor [axi4_monitor] Write Complete: ID=3, ADDR=0x10000a68, RESP=OKAY, Latency=12 cycles
UVM_INFO sv/axi4_monitor.sv(296) @ 877000: uvm_test_top.m_env.m_master_agent.m_monitor [axi4_monitor] Write Complete: ID=6, ADDR=0x10000a94, RESP=OKAY, Latency=13 cycles
UVM_INFO sv/axi4_monitor.sv(296) @ 883000: uvm_test_top.m_env.m_master_agent.m_monitor [axi4_monitor] Write Complete: ID=14, ADDR=0x10000ac4, RESP=OKAY, Latency=5 cycles
UVM_INFO sv/axi4_monitor.sv(296) @ 891000: uvm_test_top.m_env.m_master_agent.m_monitor [axi4_monitor] Write Complete: ID=10, ADDR=0x10000ad4, RESP=OKAY, Latency=7 cycles
UVM_INFO sv/axi4_monitor.sv(296) @ 898000: uvm_test_top.m_env.m_master_agent.m_monitor [axi4_monitor] Write Complete: ID=1, ADDR=0x10000aec, RESP=OKAY, Latency=6 cycles
UVM_INFO sv/axi4_monitor.sv(296) @ 903000: uvm_test_top.m_env.m_master_agent.m_monitor [axi4_monitor] Write Complete: ID=9, ADDR=0x10000b00, RESP=OKAY, Latency=4 cycles
UVM_INFO sv/axi4_monitor.sv(296) @ 917000: uvm_test_top.m_env.m_master_agent.m_monitor [axi4_monitor] Write Complete: ID=8, ADDR=0x10000b0c, RESP=OKAY, Latency=13 cycles
UVM_INFO sv/axi4_monitor.sv(296) @ 923000: uvm_test_top.m_env.m_master_agent.m_monitor [axi4_monitor] Write Complete: ID=12, ADDR=0x10000b3c, RESP=OKAY, Latency=5 cycles
UVM_INFO sv/axi4_monitor.sv(296) @ 938000: uvm_test_top.m_env.m_master_agent.m_monitor [axi4_monitor] Write Complete: ID=6, ADDR=0x10000b4c, RESP=OKAY, Latency=14 cycles
UVM_INFO sv/axi4_monitor.sv(296) @ 946000: uvm_test_top.m_env.m_master_agent.m_monitor [axi4_monitor] Write Complete: ID=8, ADDR=0x10000b80, RESP=OKAY, Latency=7 cycles
UVM_INFO sv/axi4_monitor.sv(296) @ 964000: uvm_test_top.m_env.m_master_agent.m_monitor [axi4_monitor] Write Complete: ID=7, ADDR=0x10000b98, RESP=OKAY, Latency=17 cycles
UVM_INFO sv/axi4_monitor.sv(296) @ 974000: uvm_test_top.m_env.m_master_agent.m_monitor [axi4_monitor] Write Complete: ID=6, ADDR=0x10000bd8, RESP=OKAY, Latency=9 cycles
UVM_INFO sv/axi4_monitor.sv(296) @ 986000: uvm_test_top.m_env.m_master_agent.m_monitor [axi4_monitor] Write Complete: ID=4, ADDR=0x10000bf8, RESP=OKAY, Latency=11 cycles
UVM_INFO sv/seq_lib.sv(3618) @ 990000: uvm_test_top.m_env.m_master_agent.m_sequencer@@seq [axi4_long_time_sequence] Write progress: 100/500 transactions
UVM_INFO sv/axi4_monitor.sv(296) @ 992000: uvm_test_top.m_env.m_master_agent.m_monitor [axi4_monitor] Write Complete: ID=3, ADDR=0x10000c20, RESP=OKAY, Latency=5 cycles
UVM_INFO sv/axi4_monitor.sv(296) @ 1008000: uvm_test_top.m_env.m_master_agent.m_monitor [axi4_monitor] Write Complete: ID=12, ADDR=0x10000c30, RESP=OKAY, Latency=15 cycles
UVM_INFO sv/axi4_monitor.sv(296) @ 1013000: uvm_test_top.m_env.m_master_agent.m_monitor [axi4_monitor] Write Complete: ID=10, ADDR=0x10000c68, RESP=OKAY, Latency=4 cycles
UVM_INFO sv/axi4_monitor.sv(296) @ 1027000: uvm_test_top.m_env.m_master_agent.m_monitor [axi4_monitor] Write Complete: ID=11, ADDR=0x10000c74, RESP=OKAY, Latency=13 cycles
UVM_INFO sv/axi4_monitor.sv(296) @ 1034000: uvm_test_top.m_env.m_master_agent.m_monitor [axi4_monitor] Write Complete: ID=0, ADDR=0x10000ca4, RESP=OKAY, Latency=6 cycles
UVM_INFO sv/axi4_monitor.sv(296) @ 1037000: uvm_test_top.m_env.m_master_agent.m_monitor [axi4_monitor] Write Complete: ID=13, ADDR=0x10000cb8, RESP=OKAY, Latency=2 cycles
UVM_INFO sv/axi4_monitor.sv(296) @ 1051000: uvm_test_top.m_env.m_master_agent.m_monitor [axi4_monitor] Write Complete: ID=10, ADDR=0x10000cbc, RESP=OKAY, Latency=13 cycles
UVM_INFO sv/axi4_monitor.sv(296) @ 1063000: uvm_test_top.m_env.m_master_agent.m_monitor [axi4_monitor] Write Complete: ID=15, ADDR=0x10000cec, RESP=OKAY, Latency=11 cycles
UVM_INFO sv/axi4_monitor.sv(296) @ 1081000: uvm_test_top.m_env.m_master_agent.m_monitor [axi4_monitor] Write Complete: ID=14, ADDR=0x10000d14, RESP=OKAY, Latency=17 cycles
UVM_INFO sv/axi4_monitor.sv(296) @ 1096000: uvm_test_top.m_env.m_master_agent.m_monitor [axi4_monitor] Write Complete: ID=3, ADDR=0x10000d54, RESP=OKAY, Latency=14 cycles
UVM_INFO sv/axi4_monitor.sv(296) @ 1114000: uvm_test_top.m_env.m_master_agent.m_monitor [axi4_monitor] Write Complete: ID=10, ADDR=0x10000d88, RESP=OKAY, Latency=17 cycles
UVM_INFO sv/axi4_monitor.sv(296) @ 1131000: uvm_test_top.m_env.m_master_agent.m_monitor [axi4_monitor] Write Complete: ID=15, ADDR=0x10000dc8, RESP=OKAY, Latency=16 cycles
UVM_INFO sv/axi4_monitor.sv(296) @ 1142000: uvm_test_top.m_env.m_master_agent.m_monitor [axi4_monitor] Write Complete: ID=15, ADDR=0x10000e04, RESP=OKAY, Latency=10 cycles
UVM_INFO sv/axi4_monitor.sv(296) @ 1152000: uvm_test_top.m_env.m_master_agent.m_monitor [axi4_monitor] Write Complete: ID=7, ADDR=0x10000e28, RESP=OKAY, Latency=9 cycles
UVM_INFO sv/axi4_monitor.sv(296) @ 1162000: uvm_test_top.m_env.m_master_agent.m_monitor [axi4_monitor] Write Complete: ID=2, ADDR=0x10000e48, RESP=OKAY, Latency=9 cycles
UVM_INFO sv/axi4_monitor.sv(296) @ 1171000: uvm_test_top.m_env.m_master_agent.m_monitor [axi4_monitor] Write Complete: ID=5, ADDR=0x10000e68, RESP=OKAY, Latency=8 cycles
UVM_INFO sv/axi4_monitor.sv(296) @ 1187000: uvm_test_top.m_env.m_master_agent.m_monitor [axi4_monitor] Write Complete: ID=10, ADDR=0x10000e84, RESP=OKAY, Latency=15 cycles
UVM_INFO sv/axi4_monitor.sv(296) @ 1202000: uvm_test_top.m_env.m_master_agent.m_monitor [axi4_monitor] Write Complete: ID=14, ADDR=0x10000ebc, RESP=OKAY, Latency=14 cycles
UVM_INFO sv/axi4_monitor.sv(296) @ 1205000: uvm_test_top.m_env.m_master_agent.m_monitor [axi4_monitor] Write Complete: ID=7, ADDR=0x10000ef0, RESP=OKAY, Latency=2 cycles
UVM_INFO sv/axi4_monitor.sv(296) @ 1219000: uvm_test_top.m_env.m_master_agent.m_monitor [axi4_monitor] Write Complete: ID=2, ADDR=0x10000ef4, RESP=OKAY, Latency=13 cycles
UVM_INFO sv/axi4_monitor.sv(296) @ 1235000: uvm_test_top.m_env.m_master_agent.m_monitor [axi4_monitor] Write Complete: ID=3, ADDR=0x10000f24, RESP=OKAY, Latency=15 cycles
UVM_INFO sv/axi4_monitor.sv(296) @ 1248000: uvm_test_top.m_env.m_master_agent.m_monitor [axi4_monitor] Write Complete: ID=9, ADDR=0x10000f5c, RESP=OKAY, Latency=12 cycles
UVM_INFO sv/axi4_monitor.sv(296) @ 1251000: uvm_test_top.m_env.m_master_agent.m_monitor [axi4_monitor] Write Complete: ID=1, ADDR=0x10000f88, RESP=OKAY, Latency=2 cycles
UVM_INFO sv/axi4_monitor.sv(296) @ 1255000: uvm_test_top.m_env.m_master_agent.m_monitor [axi4_monitor] Write Complete: ID=4, ADDR=0x10000f8c, RESP=OKAY, Latency=3 cycles
UVM_INFO sv/axi4_monitor.sv(296) @ 1270000: uvm_test_top.m_env.m_master_agent.m_monitor [axi4_monitor] Write Complete: ID=6, ADDR=0x10000f94, RESP=OKAY, Latency=14 cycles
UVM_INFO sv/axi4_master_driver.sv(177) @ 1282000: uvm_test_top.m_env.m_master_agent.m_driver [axi4_master_driver] Splitting burst into 2 sub-bursts
UVM_INFO sv/axi4_monitor.sv(296) @ 1283000: uvm_test_top.m_env.m_master_agent.m_monitor [axi4_monitor] Write Complete: ID=9, ADDR=0x10000fc8, RESP=OKAY, Latency=12 cycles
UVM_INFO sv/axi4_monitor.sv(296) @ 1288000: uvm_test_top.m_env.m_master_agent.m_monitor [axi4_monitor] Write Complete: ID=0, ADDR=0x10000ff4, RESP=OKAY, Latency=4 cycles
UVM_INFO sv/axi4_monitor.sv(296) @ 1290000: uvm_test_top.m_env.m_master_agent.m_monitor [axi4_monitor] Write Complete: ID=1, ADDR=0x10001000, RESP=OKAY, Latency=2 cycles
UVM_INFO sv/axi4_monitor.sv(296) @ 1300000: uvm_test_top.m_env.m_master_agent.m_monitor [axi4_monitor] Write Complete: ID=1, ADDR=0x10001004, RESP=OKAY, Latency=9 cycles
UVM_INFO sv/axi4_monitor.sv(296) @ 1315000: uvm_test_top.m_env.m_master_agent.m_monitor [axi4_monitor] Write Complete: ID=12, ADDR=0x10001024, RESP=OKAY, Latency=14 cycles
UVM_INFO sv/axi4_monitor.sv(296) @ 1330000: uvm_test_top.m_env.m_master_agent.m_monitor [axi4_monitor] Write Complete: ID=11, ADDR=0x10001058, RESP=OKAY, Latency=14 cycles
UVM_INFO sv/axi4_monitor.sv(296) @ 1334000: uvm_test_top.m_env.m_master_agent.m_monitor [axi4_monitor] Write Complete: ID=8, ADDR=0x1000108c, RESP=OKAY, Latency=3 cycles
UVM_INFO sv/axi4_monitor.sv(296) @ 1345000: uvm_test_top.m_env.m_master_agent.m_monitor [axi4_monitor] Write Complete: ID=1, ADDR=0x10001094, RESP=OKAY, Latency=10 cycles
UVM_INFO sv/axi4_monitor.sv(296) @ 1357000: uvm_test_top.m_env.m_master_agent.m_monitor [axi4_monitor] Write Complete: ID=3, ADDR=0x100010b8, RESP=OKAY, Latency=11 cycles
UVM_INFO sv/axi4_monitor.sv(296) @ 1372000: uvm_test_top.m_env.m_master_agent.m_monitor [axi4_monitor] Write Complete: ID=11, ADDR=0x100010e0, RESP=OKAY, Latency=14 cycles
UVM_INFO sv/axi4_monitor.sv(296) @ 1378000: uvm_test_top.m_env.m_master_agent.m_monitor [axi4_monitor] Write Complete: ID=8, ADDR=0x10001114, RESP=OKAY, Latency=5 cycles
UVM_INFO sv/axi4_monitor.sv(296) @ 1395000: uvm_test_top.m_env.m_master_agent.m_monitor [axi4_monitor] Write Complete: ID=14, ADDR=0x10001124, RESP=OKAY, Latency=16 cycles
UVM_INFO sv/axi4_monitor.sv(296) @ 1404000: uvm_test_top.m_env.m_master_agent.m_monitor [axi4_monitor] Write Complete: ID=13, ADDR=0x10001160, RESP=OKAY, Latency=8 cycles
UVM_INFO sv/axi4_monitor.sv(296) @ 1412000: uvm_test_top.m_env.m_master_agent.m_monitor [axi4_monitor] Write Complete: ID=4, ADDR=0x1000117c, RESP=OKAY, Latency=7 cycles
UVM_INFO sv/axi4_monitor.sv(296) @ 1419000: uvm_test_top.m_env.m_master_agent.m_monitor [axi4_monitor] Write Complete: ID=8, ADDR=0x10001194, RESP=OKAY, Latency=6 cycles
UVM_INFO sv/axi4_monitor.sv(296) @ 1427000: uvm_test_top.m_env.m_master_agent.m_monitor [axi4_monitor] Write Complete: ID=1, ADDR=0x100011a8, RESP=OKAY, Latency=7 cycles
UVM_INFO sv/axi4_monitor.sv(296) @ 1441000: uvm_test_top.m_env.m_master_agent.m_monitor [axi4_monitor] Write Complete: ID=12, ADDR=0x100011c0, RESP=OKAY, Latency=13 cycles
UVM_INFO sv/axi4_monitor.sv(296) @ 1449000: uvm_test_top.m_env.m_master_agent.m_monitor [axi4_monitor] Write Complete: ID=9, ADDR=0x100011f0, RESP=OKAY, Latency=7 cycles
UVM_INFO sv/axi4_monitor.sv(296) @ 1452000: uvm_test_top.m_env.m_master_agent.m_monitor [axi4_monitor] Write Complete: ID=7, ADDR=0x10001208, RESP=OKAY, Latency=2 cycles
UVM_INFO sv/axi4_monitor.sv(296) @ 1463000: uvm_test_top.m_env.m_master_agent.m_monitor [axi4_monitor] Write Complete: ID=8, ADDR=0x1000120c, RESP=OKAY, Latency=10 cycles
UVM_INFO sv/axi4_monitor.sv(296) @ 1471000: uvm_test_top.m_env.m_master_agent.m_monitor [axi4_monitor] Write Complete: ID=4, ADDR=0x10001230, RESP=OKAY, Latency=7 cycles
UVM_INFO sv/axi4_monitor.sv(296) @ 1477000: uvm_test_top.m_env.m_master_agent.m_monitor [axi4_monitor] Write Complete: ID=9, ADDR=0x10001248, RESP=OKAY, Latency=5 cycles
UVM_INFO sv/axi4_monitor.sv(296) @ 1480000: uvm_test_top.m_env.m_master_agent.m_monitor [axi4_monitor] Write Complete: ID=3, ADDR=0x10001258, RESP=OKAY, Latency=2 cycles
UVM_INFO sv/axi4_monitor.sv(296) @ 1496000: uvm_test_top.m_env.m_master_agent.m_monitor [axi4_monitor] Write Complete: ID=5, ADDR=0x1000125c, RESP=OKAY, Latency=15 cycles
UVM_INFO sv/axi4_monitor.sv(296) @ 1509000: uvm_test_top.m_env.m_master_agent.m_monitor [axi4_monitor] Write Complete: ID=3, ADDR=0x10001294, RESP=OKAY, Latency=12 cycles
UVM_INFO sv/axi4_monitor.sv(296) @ 1524000: uvm_test_top.m_env.m_master_agent.m_monitor [axi4_monitor] Write Complete: ID=13, ADDR=0x100012c0, RESP=OKAY, Latency=14 cycles
UVM_INFO sv/axi4_monitor.sv(296) @ 1538000: uvm_test_top.m_env.m_master_agent.m_monitor [axi4_monitor] Write Complete: ID=2, ADDR=0x100012f4, RESP=OKAY, Latency=13 cycles
UVM_INFO sv/axi4_monitor.sv(296) @ 1548000: uvm_test_top.m_env.m_master_agent.m_monitor [axi4_monitor] Write Complete: ID=11, ADDR=0x10001324, RESP=OKAY, Latency=9 cycles
UVM_INFO sv/axi4_monitor.sv(296) @ 1554000: uvm_test_top.m_env.m_master_agent.m_monitor [axi4_monitor] Write Complete: ID=9, ADDR=0x10001344, RESP=OKAY, Latency=5 cycles
UVM_INFO sv/axi4_monitor.sv(296) @ 1572000: uvm_test_top.m_env.m_master_agent.m_monitor [axi4_monitor] Write Complete: ID=8, ADDR=0x10001354, RESP=OKAY, Latency=17 cycles
UVM_INFO sv/axi4_monitor.sv(296) @ 1579000: uvm_test_top.m_env.m_master_agent.m_monitor [axi4_monitor] Write Complete: ID=11, ADDR=0x10001394, RESP=OKAY, Latency=6 cycles
UVM_INFO sv/axi4_monitor.sv(296) @ 1595000: uvm_test_top.m_env.m_master_agent.m_monitor [axi4_monitor] Write Complete: ID=7, ADDR=0x100013a8, RESP=OKAY, Latency=15 cycles
UVM_INFO sv/axi4_monitor.sv(296) @ 1610000: uvm_test_top.m_env.m_master_agent.m_monitor [axi4_monitor] Write Complete: ID=12, ADDR=0x100013e0, RESP=OKAY, Latency=14 cycles
UVM_INFO sv/axi4_monitor.sv(296) @ 1617000: uvm_test_top.m_env.m_master_agent.m_monitor [axi4_monitor] Write Complete: ID=10, ADDR=0x10001414, RESP=OKAY, Latency=6 cycles
UVM_INFO sv/axi4_monitor.sv(296) @ 1625000: uvm_test_top.m_env.m_master_agent.m_monitor [axi4_monitor] Write Complete: ID=2, ADDR=0x10001428, RESP=OKAY, Latency=7 cycles
UVM_INFO sv/axi4_monitor.sv(296) @ 1636000: uvm_test_top.m_env.m_master_agent.m_monitor [axi4_monitor] Write Complete: ID=12, ADDR=0x10001440, RESP=OKAY, Latency=10 cycles
UVM_INFO sv/axi4_monitor.sv(296) @ 1643000: uvm_test_top.m_env.m_master_agent.m_monitor [axi4_monitor] Write Complete: ID=2, ADDR=0x10001464, RESP=OKAY, Latency=6 cycles
UVM_INFO sv/axi4_monitor.sv(296) @ 1653000: uvm_test_top.m_env.m_master_agent.m_monitor [axi4_monitor] Write Complete: ID=2, ADDR=0x10001478, RESP=OKAY, Latency=9 cycles
UVM_INFO sv/axi4_monitor.sv(296) @ 1670000: uvm_test_top.m_env.m_master_agent.m_monitor [axi4_monitor] Write Complete: ID=15, ADDR=0x10001498, RESP=OKAY, Latency=16 cycles
UVM_INFO sv/axi4_monitor.sv(296) @ 1683000: uvm_test_top.m_env.m_master_agent.m_monitor [axi4_monitor] Write Complete: ID=12, ADDR=0x100014d4, RESP=OKAY, Latency=12 cycles
UVM_INFO sv/axi4_monitor.sv(296) @ 1690000: uvm_test_top.m_env.m_master_agent.m_monitor [axi4_monitor] Write Complete: ID=0, ADDR=0x10001500, RESP=OKAY, Latency=6 cycles
UVM_INFO sv/axi4_monitor.sv(296) @ 1703000: uvm_test_top.m_env.m_master_agent.m_monitor [axi4_monitor] Write Complete: ID=15, ADDR=0x10001514, RESP=OKAY, Latency=12 cycles
UVM_INFO sv/axi4_monitor.sv(296) @ 1707000: uvm_test_top.m_env.m_master_agent.m_monitor [axi4_monitor] Write Complete: ID=4, ADDR=0x10001540, RESP=OKAY, Latency=3 cycles
UVM_INFO sv/axi4_monitor.sv(296) @ 1719000: uvm_test_top.m_env.m_master_agent.m_monitor [axi4_monitor] Write Complete: ID=11, ADDR=0x10001548, RESP=OKAY, Latency=11 cycles
UVM_INFO sv/axi4_monitor.sv(296) @ 1722000: uvm_test_top.m_env.m_master_agent.m_monitor [axi4_monitor] Write Complete: ID=2, ADDR=0x10001570, RESP=OKAY, Latency=2 cycles
UVM_INFO sv/axi4_monitor.sv(296) @ 1728000: uvm_test_top.m_env.m_master_agent.m_monitor [axi4_monitor] Write Complete: ID=8, ADDR=0x10001574, RESP=OKAY, Latency=5 cycles
UVM_INFO sv/axi4_monitor.sv(296) @ 1742000: uvm_test_top.m_env.m_master_agent.m_monitor [axi4_monitor] Write Complete: ID=4, ADDR=0x10001584, RESP=OKAY, Latency=13 cycles
UVM_INFO sv/axi4_monitor.sv(296) @ 1755000: uvm_test_top.m_env.m_master_agent.m_monitor [axi4_monitor] Write Complete: ID=6, ADDR=0x100015b4, RESP=OKAY, Latency=12 cycles
UVM_INFO sv/axi4_monitor.sv(296) @ 1768000: uvm_test_top.m_env.m_master_agent.m_monitor [axi4_monitor] Write Complete: ID=4, ADDR=0x100015e0, RESP=OKAY, Latency=12 cycles
UVM_INFO sv/axi4_monitor.sv(296) @ 1780000: uvm_test_top.m_env.m_master_agent.m_monitor [axi4_monitor] Write Complete: ID=2, ADDR=0x1000160c, RESP=OKAY, Latency=11 cycles
UVM_INFO sv/axi4_monitor.sv(296) @ 1798000: uvm_test_top.m_env.m_master_agent.m_monitor [axi4_monitor] Write Complete: ID=3, ADDR=0x10001634, RESP=OKAY, Latency=17 cycles
UVM_INFO sv/axi4_monitor.sv(296) @ 1801000: uvm_test_top.m_env.m_master_agent.m_monitor [axi4_monitor] Write Complete: ID=15, ADDR=0x10001674, RESP=OKAY, Latency=2 cycles
UVM_INFO sv/axi4_monitor.sv(296) @ 1808000: uvm_test_top.m_env.m_master_agent.m_monitor [axi4_monitor] Write Complete: ID=10, ADDR=0x10001678, RESP=OKAY, Latency=6 cycles
UVM_INFO sv/axi4_monitor.sv(296) @ 1811000: uvm_test_top.m_env.m_master_agent.m_monitor [axi4_monitor] Write Complete: ID=15, ADDR=0x1000168c, RESP=OKAY, Latency=2 cycles
UVM_INFO sv/axi4_monitor.sv(296) @ 1824000: uvm_test_top.m_env.m_master_agent.m_monitor [axi4_monitor] Write Complete: ID=13, ADDR=0x10001690, RESP=OKAY, Latency=12 cycles
UVM_INFO sv/axi4_monitor.sv(296) @ 1832000: uvm_test_top.m_env.m_master_agent.m_monitor [axi4_monitor] Write Complete: ID=0, ADDR=0x100016bc, RESP=OKAY, Latency=7 cycles
UVM_INFO sv/axi4_monitor.sv(296) @ 1848000: uvm_test_top.m_env.m_master_agent.m_monitor [axi4_monitor] Write Complete: ID=7, ADDR=0x100016d4, RESP=OKAY, Latency=15 cycles
UVM_INFO sv/axi4_monitor.sv(296) @ 1863000: uvm_test_top.m_env.m_master_agent.m_monitor [axi4_monitor] Write Complete: ID=7, ADDR=0x1000170c, RESP=OKAY, Latency=14 cycles
UVM_INFO sv/axi4_monitor.sv(296) @ 1873000: uvm_test_top.m_env.m_master_agent.m_monitor [axi4_monitor] Write Complete: ID=0, ADDR=0x10001740, RESP=OKAY, Latency=9 cycles
UVM_INFO sv/axi4_monitor.sv(296) @ 1891000: uvm_test_top.m_env.m_master_agent.m_monitor [axi4_monitor] Write Complete: ID=11, ADDR=0x10001760, RESP=OKAY, Latency=17 cycles
UVM_INFO sv/axi4_monitor.sv(296) @ 1904000: uvm_test_top.m_env.m_master_agent.m_monitor [axi4_monitor] Write Complete: ID=5, ADDR=0x100017a0, RESP=OKAY, Latency=12 cycles
UVM_INFO sv/axi4_monitor.sv(296) @ 1913000: uvm_test_top.m_env.m_master_agent.m_monitor [axi4_monitor] Write Complete: ID=15, ADDR=0x100017cc, RESP=OKAY, Latency=8 cycles
UVM_INFO sv/axi4_monitor.sv(296) @ 1921000: uvm_test_top.m_env.m_master_agent.m_monitor [axi4_monitor] Write Complete: ID=13, ADDR=0x100017e8, RESP=OKAY, Latency=7 cycles
UVM_INFO sv/axi4_monitor.sv(296) @ 1925000: uvm_test_top.m_env.m_master_agent.m_monitor [axi4_monitor] Write Complete: ID=9, ADDR=0x10001800, RESP=OKAY, Latency=3 cycles
UVM_INFO sv/axi4_monitor.sv(296) @ 1934000: uvm_test_top.m_env.m_master_agent.m_monitor [axi4_monitor] Write Complete: ID=9, ADDR=0x10001808, RESP=OKAY, Latency=8 cycles
UVM_INFO sv/axi4_monitor.sv(296) @ 1943000: uvm_test_top.m_env.m_master_agent.m_monitor [axi4_monitor] Write Complete: ID=9, ADDR=0x10001824, RESP=OKAY, Latency=8 cycles
UVM_INFO sv/axi4_monitor.sv(296) @ 1960000: uvm_test_top.m_env.m_master_agent.m_monitor [axi4_monitor] Write Complete: ID=6, ADDR=0x10001840, RESP=OKAY, Latency=16 cycles
UVM_INFO sv/axi4_monitor.sv(296) @ 1978000: uvm_test_top.m_env.m_master_agent.m_monitor [axi4_monitor] Write Complete: ID=12, ADDR=0x1000187c, RESP=OKAY, Latency=17 cycles
UVM_INFO sv/axi4_monitor.sv(296) @ 1987000: uvm_test_top.m_env.m_master_agent.m_monitor [axi4_monitor] Write Complete: ID=1, ADDR=0x100018bc, RESP=OKAY, Latency=8 cycles
UVM_INFO sv/axi4_monitor.sv(296) @ 1992000: uvm_test_top.m_env.m_master_agent.m_monitor [axi4_monitor] Write Complete: ID=12, ADDR=0x100018d8, RESP=OKAY, Latency=4 cycles
UVM_INFO sv/axi4_monitor.sv(296) @ 1998000: uvm_test_top.m_env.m_master_agent.m_monitor [axi4_monitor] Write Complete: ID=15, ADDR=0x100018e4, RESP=OKAY, Latency=5 cycles
UVM_INFO sv/axi4_monitor.sv(296) @ 2015000: uvm_test_top.m_env.m_master_agent.m_monitor [axi4_monitor] Write Complete: ID=14, ADDR=0x100018f4, RESP=OKAY, Latency=16 cycles
UVM_INFO sv/axi4_monitor.sv(296) @ 2033000: uvm_test_top.m_env.m_master_agent.m_monitor [axi4_monitor] Write Complete: ID=14, ADDR=0x10001930, RESP=OKAY, Latency=17 cycles
UVM_INFO sv/axi4_monitor.sv(296) @ 2038000: uvm_test_top.m_env.m_master_agent.m_monitor [axi4_monitor] Write Complete: ID=5, ADDR=0x10001970, RESP=OKAY, Latency=4 cycles
UVM_INFO sv/axi4_monitor.sv(296) @ 2056000: uvm_test_top.m_env.m_master_agent.m_monitor [axi4_monitor] Write Complete: ID=3, ADDR=0x1000197c, RESP=OKAY, Latency=17 cycles
UVM_INFO sv/axi4_monitor.sv(296) @ 2070000: uvm_test_top.m_env.m_master_agent.m_monitor [axi4_monitor] Write Complete: ID=1, ADDR=0x100019bc, RESP=OKAY, Latency=13 cycles
UVM_INFO sv/seq_lib.sv(3618) @ 2082000: uvm_test_top.m_env.m_master_agent.m_sequencer@@seq [axi4_long_time_sequence] Write progress: 200/500 transactions
UVM_INFO sv/axi4_monitor.sv(296) @ 2084000: uvm_test_top.m_env.m_master_agent.m_monitor [axi4_monitor] Write Complete: ID=5, ADDR=0x100019ec, RESP=OKAY, Latency=13 cycles
UVM_INFO sv/axi4_monitor.sv(296) @ 2095000: uvm_test_top.m_env.m_master_agent.m_monitor [axi4_monitor] Write Complete: ID=1, ADDR=0x10001a1c, RESP=OKAY, Latency=10 cycles
UVM_INFO sv/axi4_monitor.sv(296) @ 2102000: uvm_test_top.m_env.m_master_agent.m_monitor [axi4_monitor] Write Complete: ID=14, ADDR=0x10001a40, RESP=OKAY, Latency=6 cycles
UVM_INFO sv/axi4_monitor.sv(296) @ 2112000: uvm_test_top.m_env.m_master_agent.m_monitor [axi4_monitor] Write Complete: ID=1, ADDR=0x10001a54, RESP=OKAY, Latency=9 cycles
UVM_INFO sv/axi4_monitor.sv(296) @ 2121000: uvm_test_top.m_env.m_master_agent.m_monitor [axi4_monitor] Write Complete: ID=10, ADDR=0x10001a74, RESP=OKAY, Latency=8 cycles
UVM_INFO sv/axi4_monitor.sv(296) @ 2130000: uvm_test_top.m_env.m_master_agent.m_monitor [axi4_monitor] Write Complete: ID=13, ADDR=0x10001a90, RESP=OKAY, Latency=8 cycles
UVM_INFO sv/axi4_monitor.sv(296) @ 2137000: uvm_test_top.m_env.m_master_agent.m_monitor [axi4_monitor] Write Complete: ID=5, ADDR=0x10001aac, RESP=OKAY, Latency=6 cycles
UVM_INFO sv/axi4_monitor.sv(296) @ 2146000: uvm_test_top.m_env.m_master_agent.m_monitor [axi4_monitor] Write Complete: ID=10, ADDR=0x10001ac0, RESP=OKAY, Latency=8 cycles
UVM_INFO sv/axi4_monitor.sv(296) @ 2158000: uvm_test_top.m_env.m_master_agent.m_monitor [axi4_monitor] Write Complete: ID=9, ADDR=0x10001adc, RESP=OKAY, Latency=11 cycles
UVM_INFO sv/axi4_monitor.sv(296) @ 2165000: uvm_test_top.m_env.m_master_agent.m_monitor [axi4_monitor] Write Complete: ID=1, ADDR=0x10001b04, RESP=OKAY, Latency=6 cycles
UVM_INFO sv/axi4_monitor.sv(296) @ 2169000: uvm_test_top.m_env.m_master_agent.m_monitor [axi4_monitor] Write Complete: ID=15, ADDR=0x10001b18, RESP=OKAY, Latency=3 cycles
UVM_INFO sv/axi4_monitor.sv(296) @ 2187000: uvm_test_top.m_env.m_master_agent.m_monitor [axi4_monitor] Write Complete: ID=0, ADDR=0x10001b20, RESP=OKAY, Latency=17 cycles
UVM_INFO sv/axi4_monitor.sv(296) @ 2191000: uvm_test_top.m_env.m_master_agent.m_monitor [axi4_monitor] Write Complete: ID=6, ADDR=0x10001b60, RESP=OKAY, Latency=3 cycles
UVM_INFO sv/axi4_monitor.sv(296) @ 2198000: uvm_test_top.m_env.m_master_agent.m_monitor [axi4_monitor] Write Complete: ID=15, ADDR=0x10001b68, RESP=OKAY, Latency=6 cycles
UVM_INFO sv/axi4_monitor.sv(296) @ 2210000: uvm_test_top.m_env.m_master_agent.m_monitor [axi4_monitor] Write Complete: ID=12, ADDR=0x10001b7c, RESP=OKAY, Latency=11 cycles
UVM_INFO sv/axi4_monitor.sv(296) @ 2215000: uvm_test_top.m_env.m_master_agent.m_monitor [axi4_monitor] Write Complete: ID=1, ADDR=0x10001ba4, RESP=OKAY, Latency=4 cycles
UVM_INFO sv/axi4_monitor.sv(296) @ 2222000: uvm_test_top.m_env.m_master_agent.m_monitor [axi4_monitor] Write Complete: ID=13, ADDR=0x10001bb0, RESP=OKAY, Latency=6 cycles
UVM_INFO sv/axi4_monitor.sv(296) @ 2228000: uvm_test_top.m_env.m_master_agent.m_monitor [axi4_monitor] Write Complete: ID=13, ADDR=0x10001bc4, RESP=OKAY, Latency=5 cycles
UVM_INFO sv/axi4_monitor.sv(296) @ 2245000: uvm_test_top.m_env.m_master_agent.m_monitor [axi4_monitor] Write Complete: ID=14, ADDR=0x10001bd4, RESP=OKAY, Latency=16 cycles
UVM_INFO sv/axi4_monitor.sv(296) @ 2253000: uvm_test_top.m_env.m_master_agent.m_monitor [axi4_monitor] Write Complete: ID=8, ADDR=0x10001c10, RESP=OKAY, Latency=7 cycles
UVM_INFO sv/axi4_monitor.sv(296) @ 2259000: uvm_test_top.m_env.m_master_agent.m_monitor [axi4_monitor] Write Complete: ID=15, ADDR=0x10001c28, RESP=OKAY, Latency=5 cycles
UVM_INFO sv/axi4_monitor.sv(296) @ 2273000: uvm_test_top.m_env.m_master_agent.m_monitor [axi4_monitor] Write Complete: ID=8, ADDR=0x10001c38, RESP=OKAY, Latency=13 cycles
UVM_INFO sv/axi4_monitor.sv(296) @ 2281000: uvm_test_top.m_env.m_master_agent.m_monitor [axi4_monitor] Write Complete: ID=6, ADDR=0x10001c68, RESP=OKAY, Latency=7 cycles
UVM_INFO sv/axi4_monitor.sv(296) @ 2288000: uvm_test_top.m_env.m_master_agent.m_monitor [axi4_monitor] Write Complete: ID=4, ADDR=0x10001c80, RESP=OKAY, Latency=6 cycles
UVM_INFO sv/axi4_monitor.sv(296) @ 2305000: uvm_test_top.m_env.m_master_agent.m_monitor [axi4_monitor] Write Complete: ID=11, ADDR=0x10001c94, RESP=OKAY, Latency=16 cycles
UVM_INFO sv/axi4_monitor.sv(296) @ 2309000: uvm_test_top.m_env.m_master_agent.m_monitor [axi4_monitor] Write Complete: ID=5, ADDR=0x10001cd0, RESP=OKAY, Latency=3 cycles
UVM_INFO sv/axi4_monitor.sv(296) @ 2326000: uvm_test_top.m_env.m_master_agent.m_monitor [axi4_monitor] Write Complete: ID=9, ADDR=0x10001cd8, RESP=OKAY, Latency=16 cycles
UVM_INFO sv/axi4_monitor.sv(296) @ 2336000: uvm_test_top.m_env.m_master_agent.m_monitor [axi4_monitor] Write Complete: ID=11, ADDR=0x10001d14, RESP=OKAY, Latency=9 cycles
UVM_INFO sv/axi4_monitor.sv(296) @ 2339000: uvm_test_top.m_env.m_master_agent.m_monitor [axi4_monitor] Write Complete: ID=6, ADDR=0x10001d34, RESP=OKAY, Latency=2 cycles
UVM_INFO sv/axi4_monitor.sv(296) @ 2355000: uvm_test_top.m_env.m_master_agent.m_monitor [axi4_monitor] Write Complete: ID=13, ADDR=0x10001d38, RESP=OKAY, Latency=15 cycles
UVM_INFO sv/axi4_monitor.sv(296) @ 2367000: uvm_test_top.m_env.m_master_agent.m_monitor [axi4_monitor] Write Complete: ID=5, ADDR=0x10001d70, RESP=OKAY, Latency=11 cycles
UVM_INFO sv/axi4_monitor.sv(296) @ 2371000: uvm_test_top.m_env.m_master_agent.m_monitor [axi4_monitor] Write Complete: ID=4, ADDR=0x10001d98, RESP=OKAY, Latency=3 cycles
UVM_INFO sv/axi4_monitor.sv(296) @ 2382000: uvm_test_top.m_env.m_master_agent.m_monitor [axi4_monitor] Write Complete: ID=6, ADDR=0x10001da0, RESP=OKAY, Latency=10 cycles
UVM_INFO sv/axi4_monitor.sv(296) @ 2386000: uvm_test_top.m_env.m_master_agent.m_monitor [axi4_monitor] Write Complete: ID=10, ADDR=0x10001dc4, RESP=OKAY, Latency=3 cycles
UVM_INFO sv/axi4_monitor.sv(296) @ 2390000: uvm_test_top.m_env.m_master_agent.m_monitor [axi4_monitor] Write Complete: ID=9, ADDR=0x10001dcc, RESP=OKAY, Latency=3 cycles
UVM_INFO sv/axi4_monitor.sv(296) @ 2398000: uvm_test_top.m_env.m_master_agent.m_monitor [axi4_monitor] Write Complete: ID=8, ADDR=0x10001dd4, RESP=OKAY, Latency=7 cycles
UVM_INFO sv/axi4_monitor.sv(296) @ 2416000: uvm_test_top.m_env.m_master_agent.m_monitor [axi4_monitor] Write Complete: ID=6, ADDR=0x10001dec, RESP=OKAY, Latency=17 cycles
UVM_INFO sv/axi4_monitor.sv(296) @ 2421000: uvm_test_top.m_env.m_master_agent.m_monitor [axi4_monitor] Write Complete: ID=4, ADDR=0x10001e2c, RESP=OKAY, Latency=4 cycles
UVM_INFO sv/axi4_monitor.sv(296) @ 2424000: uvm_test_top.m_env.m_master_agent.m_monitor [axi4_monitor] Write Complete: ID=8, ADDR=0x10001e38, RESP=OKAY, Latency=2 cycles
UVM_INFO sv/axi4_monitor.sv(296) @ 2440000: uvm_test_top.m_env.m_master_agent.m_monitor [axi4_monitor] Write Complete: ID=13, ADDR=0x10001e3c, RESP=OKAY, Latency=15 cycles
UVM_INFO sv/axi4_monitor.sv(296) @ 2458000: uvm_test_top.m_env.m_master_agent.m_monitor [axi4_monitor] Write Complete: ID=12, ADDR=0x10001e74, RESP=OKAY, Latency=17 cycles
UVM_INFO sv/axi4_monitor.sv(296) @ 2475000: uvm_test_top.m_env.m_master_agent.m_monitor [axi4_monitor] Write Complete: ID=0, ADDR=0x10001eb4, RESP=OKAY, Latency=16 cycles
UVM_INFO sv/axi4_monitor.sv(296) @ 2480000: uvm_test_top.m_env.m_master_agent.m_monitor [axi4_monitor] Write Complete: ID=14, ADDR=0x10001ef0, RESP=OKAY, Latency=4 cycles
UVM_INFO sv/axi4_monitor.sv(296) @ 2484000: uvm_test_top.m_env.m_master_agent.m_monitor [axi4_monitor] Write Complete: ID=9, ADDR=0x10001efc, RESP=OKAY, Latency=3 cycles
UVM_INFO sv/axi4_monitor.sv(296) @ 2499000: uvm_test_top.m_env.m_master_agent.m_monitor [axi4_monitor] Write Complete: ID=14, ADDR=0x10001f04, RESP=OKAY, Latency=14 cycles
UVM_INFO sv/axi4_monitor.sv(296) @ 2514000: uvm_test_top.m_env.m_master_agent.m_monitor [axi4_monitor] Write Complete: ID=6, ADDR=0x10001f38, RESP=OKAY, Latency=14 cycles
UVM_INFO sv/axi4_monitor.sv(296) @ 2520000: uvm_test_top.m_env.m_master_agent.m_monitor [axi4_monitor] Write Complete: ID=9, ADDR=0x10001f6c, RESP=OKAY, Latency=5 cycles
UVM_INFO sv/axi4_monitor.sv(296) @ 2528000: uvm_test_top.m_env.m_master_agent.m_monitor [axi4_monitor] Write Complete: ID=12, ADDR=0x10001f7c, RESP=OKAY, Latency=7 cycles
UVM_INFO sv/axi4_monitor.sv(296) @ 2532000: uvm_test_top.m_env.m_master_agent.m_monitor [axi4_monitor] Write Complete: ID=9, ADDR=0x10001f94, RESP=OKAY, Latency=3 cycles
UVM_INFO sv/axi4_monitor.sv(296) @ 2541000: uvm_test_top.m_env.m_master_agent.m_monitor [axi4_monitor] Write Complete: ID=1, ADDR=0x10001f9c, RESP=OKAY, Latency=8 cycles
UVM_INFO sv/axi4_monitor.sv(296) @ 2544000: uvm_test_top.m_env.m_master_agent.m_monitor [axi4_monitor] Write Complete: ID=13, ADDR=0x10001fb8, RESP=OKAY, Latency=2 cycles
UVM_INFO sv/axi4_monitor.sv(296) @ 2556000: uvm_test_top.m_env.m_master_agent.m_monitor [axi4_monitor] Write Complete: ID=14, ADDR=0x10001fbc, RESP=OKAY, Latency=11 cycles
UVM_INFO sv/axi4_master_driver.sv(177) @ 2561000: uvm_test_top.m_env.m_master_agent.m_driver [axi4_master_driver] Splitting burst into 2 sub-bursts
UVM_INFO sv/axi4_monitor.sv(296) @ 2562000: uvm_test_top.m_env.m_master_agent.m_monitor [axi4_monitor] Write Complete: ID=9, ADDR=0x10001fe4, RESP=OKAY, Latency=5 cycles
UVM_INFO sv/axi4_monitor.sv(296) @ 2567000: uvm_test_top.m_env.m_master_agent.m_monitor [axi4_monitor] Write Complete: ID=2, ADDR=0x10001ff4, RESP=OKAY, Latency=4 cycles
UVM_INFO sv/axi4_monitor.sv(296) @ 2569000: uvm_test_top.m_env.m_master_agent.m_monitor [axi4_monitor] Write Complete: ID=3, ADDR=0x10002000, RESP=OKAY, Latency=2 cycles
UVM_INFO sv/axi4_monitor.sv(296) @ 2586000: uvm_test_top.m_env.m_master_agent.m_monitor [axi4_monitor] Write Complete: ID=5, ADDR=0x10002004, RESP=OKAY, Latency=16 cycles
UVM_INFO sv/axi4_monitor.sv(296) @ 2594000: uvm_test_top.m_env.m_master_agent.m_monitor [axi4_monitor] Write Complete: ID=1, ADDR=0x10002040, RESP=OKAY, Latency=7 cycles
UVM_INFO sv/axi4_monitor.sv(296) @ 2607000: uvm_test_top.m_env.m_master_agent.m_monitor [axi4_monitor] Write Complete: ID=12, ADDR=0x10002058, RESP=OKAY, Latency=12 cycles
UVM_INFO sv/axi4_monitor.sv(296) @ 2623000: uvm_test_top.m_env.m_master_agent.m_monitor [axi4_monitor] Write Complete: ID=11, ADDR=0x10002084, RESP=OKAY, Latency=15 cycles
UVM_INFO sv/axi4_monitor.sv(296) @ 2635000: uvm_test_top.m_env.m_master_agent.m_monitor [axi4_monitor] Write Complete: ID=9, ADDR=0x100020bc, RESP=OKAY, Latency=11 cycles
UVM_INFO sv/axi4_monitor.sv(296) @ 2640000: uvm_test_top.m_env.m_master_agent.m_monitor [axi4_monitor] Write Complete: ID=4, ADDR=0x100020e4, RESP=OKAY, Latency=4 cycles
UVM_INFO sv/axi4_monitor.sv(296) @ 2647000: uvm_test_top.m_env.m_master_agent.m_monitor [axi4_monitor] Write Complete: ID=0, ADDR=0x100020f0, RESP=OKAY, Latency=6 cycles
UVM_INFO sv/axi4_monitor.sv(296) @ 2661000: uvm_test_top.m_env.m_master_agent.m_monitor [axi4_monitor] Write Complete: ID=12, ADDR=0x10002104, RESP=OKAY, Latency=13 cycles
UVM_INFO sv/axi4_monitor.sv(296) @ 2667000: uvm_test_top.m_env.m_master_agent.m_monitor [axi4_monitor] Write Complete: ID=2, ADDR=0x10002134, RESP=OKAY, Latency=5 cycles
UVM_INFO sv/axi4_monitor.sv(296) @ 2673000: uvm_test_top.m_env.m_master_agent.m_monitor [axi4_monitor] Write Complete: ID=8, ADDR=0x10002144, RESP=OKAY, Latency=5 cycles
UVM_INFO sv/axi4_monitor.sv(296) @ 2678000: uvm_test_top.m_env.m_master_agent.m_monitor [axi4_monitor] Write Complete: ID=12, ADDR=0x10002154, RESP=OKAY, Latency=4 cycles
UVM_INFO sv/axi4_monitor.sv(296) @ 2682000: uvm_test_top.m_env.m_master_agent.m_monitor [axi4_monitor] Write Complete: ID=14, ADDR=0x10002160, RESP=OKAY, Latency=3 cycles
UVM_INFO sv/axi4_monitor.sv(296) @ 2693000: uvm_test_top.m_env.m_master_agent.m_monitor [axi4_monitor] Write Complete: ID=1, ADDR=0x10002168, RESP=OKAY, Latency=10 cycles
UVM_INFO sv/axi4_monitor.sv(296) @ 2699000: uvm_test_top.m_env.m_master_agent.m_monitor [axi4_monitor] Write Complete: ID=6, ADDR=0x1000218c, RESP=OKAY, Latency=5 cycles
UVM_INFO sv/axi4_monitor.sv(296) @ 2716000: uvm_test_top.m_env.m_master_agent.m_monitor [axi4_monitor] Write Complete: ID=9, ADDR=0x1000219c, RESP=OKAY, Latency=16 cycles
UVM_INFO sv/axi4_monitor.sv(296) @ 2724000: uvm_test_top.m_env.m_master_agent.m_monitor [axi4_monitor] Write Complete: ID=1, ADDR=0x100021d8, RESP=OKAY, Latency=7 cycles
UVM_INFO sv/axi4_monitor.sv(296) @ 2741000: uvm_test_top.m_env.m_master_agent.m_monitor [axi4_monitor] Write Complete: ID=6, ADDR=0x100021f0, RESP=OKAY, Latency=16 cycles
UVM_INFO sv/axi4_monitor.sv(296) @ 2756000: uvm_test_top.m_env.m_master_agent.m_monitor [axi4_monitor] Write Complete: ID=3, ADDR=0x1000222c, RESP=OKAY, Latency=14 cycles
UVM_INFO sv/axi4_monitor.sv(296) @ 2774000: uvm_test_top.m_env.m_master_agent.m_monitor [axi4_monitor] Write Complete: ID=10, ADDR=0x10002260, RESP=OKAY, Latency=17 cycles
UVM_INFO sv/axi4_monitor.sv(296) @ 2777000: uvm_test_top.m_env.m_master_agent.m_monitor [axi4_monitor] Write Complete: ID=8, ADDR=0x100022a0, RESP=OKAY, Latency=2 cycles
UVM_INFO sv/axi4_monitor.sv(296) @ 2788000: uvm_test_top.m_env.m_master_agent.m_monitor [axi4_monitor] Write Complete: ID=5, ADDR=0x100022a4, RESP=OKAY, Latency=10 cycles
UVM_INFO sv/axi4_monitor.sv(296) @ 2805000: uvm_test_top.m_env.m_master_agent.m_monitor [axi4_monitor] Write Complete: ID=5, ADDR=0x100022c8, RESP=OKAY, Latency=16 cycles
UVM_INFO sv/axi4_monitor.sv(296) @ 2815000: uvm_test_top.m_env.m_master_agent.m_monitor [axi4_monitor] Write Complete: ID=15, ADDR=0x10002304, RESP=OKAY, Latency=9 cycles
UVM_INFO sv/axi4_monitor.sv(296) @ 2823000: uvm_test_top.m_env.m_master_agent.m_monitor [axi4_monitor] Write Complete: ID=0, ADDR=0x10002324, RESP=OKAY, Latency=7 cycles
UVM_INFO sv/axi4_monitor.sv(296) @ 2832000: uvm_test_top.m_env.m_master_agent.m_monitor [axi4_monitor] Write Complete: ID=14, ADDR=0x1000233c, RESP=OKAY, Latency=8 cycles
UVM_INFO sv/axi4_monitor.sv(296) @ 2835000: uvm_test_top.m_env.m_master_agent.m_monitor [axi4_monitor] Write Complete: ID=13, ADDR=0x10002358, RESP=OKAY, Latency=2 cycles
UVM_INFO sv/axi4_monitor.sv(296) @ 2839000: uvm_test_top.m_env.m_master_agent.m_monitor [axi4_monitor] Write Complete: ID=2, ADDR=0x1000235c, RESP=OKAY, Latency=3 cycles
UVM_INFO sv/axi4_monitor.sv(296) @ 2844000: uvm_test_top.m_env.m_master_agent.m_monitor [axi4_monitor] Write Complete: ID=7, ADDR=0x10002364, RESP=OKAY, Latency=4 cycles
UVM_INFO sv/axi4_monitor.sv(296) @ 2855000: uvm_test_top.m_env.m_master_agent.m_monitor [axi4_monitor] Write Complete: ID=0, ADDR=0x10002370, RESP=OKAY, Latency=10 cycles
UVM_INFO sv/axi4_monitor.sv(296) @ 2870000: uvm_test_top.m_env.m_master_agent.m_monitor [axi4_monitor] Write Complete: ID=3, ADDR=0x10002394, RESP=OKAY, Latency=14 cycles
UVM_INFO sv/axi4_monitor.sv(296) @ 2881000: uvm_test_top.m_env.m_master_agent.m_monitor [axi4_monitor] Write Complete: ID=5, ADDR=0x100023c8, RESP=OKAY, Latency=10 cycles
UVM_INFO sv/axi4_monitor.sv(296) @ 2897000: uvm_test_top.m_env.m_master_agent.m_monitor [axi4_monitor] Write Complete: ID=5, ADDR=0x100023ec, RESP=OKAY, Latency=15 cycles
UVM_INFO sv/axi4_monitor.sv(296) @ 2913000: uvm_test_top.m_env.m_master_agent.m_monitor [axi4_monitor] Write Complete: ID=9, ADDR=0x10002424, RESP=OKAY, Latency=15 cycles
UVM_INFO sv/axi4_monitor.sv(296) @ 2931000: uvm_test_top.m_env.m_master_agent.m_monitor [axi4_monitor] Write Complete: ID=3, ADDR=0x1000245c, RESP=OKAY, Latency=17 cycles
UVM_INFO sv/axi4_monitor.sv(296) @ 2945000: uvm_test_top.m_env.m_master_agent.m_monitor [axi4_monitor] Write Complete: ID=15, ADDR=0x1000249c, RESP=OKAY, Latency=13 cycles
UVM_INFO sv/axi4_monitor.sv(296) @ 2962000: uvm_test_top.m_env.m_master_agent.m_monitor [axi4_monitor] Write Complete: ID=14, ADDR=0x100024cc, RESP=OKAY, Latency=16 cycles
UVM_INFO sv/axi4_monitor.sv(296) @ 2980000: uvm_test_top.m_env.m_master_agent.m_monitor [axi4_monitor] Write Complete: ID=14, ADDR=0x10002508, RESP=OKAY, Latency=17 cycles
UVM_INFO sv/axi4_monitor.sv(296) @ 2987000: uvm_test_top.m_env.m_master_agent.m_monitor [axi4_monitor] Write Complete: ID=0, ADDR=0x10002548, RESP=OKAY, Latency=6 cycles
UVM_INFO sv/axi4_monitor.sv(296) @ 3002000: uvm_test_top.m_env.m_master_agent.m_monitor [axi4_monitor] Write Complete: ID=11, ADDR=0x1000255c, RESP=OKAY, Latency=14 cycles
UVM_INFO sv/axi4_monitor.sv(296) @ 3017000: uvm_test_top.m_env.m_master_agent.m_monitor [axi4_monitor] Write Complete: ID=11, ADDR=0x10002590, RESP=OKAY, Latency=14 cycles
UVM_INFO sv/axi4_monitor.sv(296) @ 3031000: uvm_test_top.m_env.m_master_agent.m_monitor [axi4_monitor] Write Complete: ID=4, ADDR=0x100025c4, RESP=OKAY, Latency=13 cycles
UVM_INFO sv/axi4_monitor.sv(296) @ 3047000: uvm_test_top.m_env.m_master_agent.m_monitor [axi4_monitor] Write Complete: ID=2, ADDR=0x100025f4, RESP=OKAY, Latency=15 cycles
UVM_INFO sv/axi4_monitor.sv(296) @ 3051000: uvm_test_top.m_env.m_master_agent.m_monitor [axi4_monitor] Write Complete: ID=7, ADDR=0x1000262c, RESP=OKAY, Latency=3 cycles
UVM_INFO sv/axi4_monitor.sv(296) @ 3069000: uvm_test_top.m_env.m_master_agent.m_monitor [axi4_monitor] Write Complete: ID=11, ADDR=0x10002634, RESP=OKAY, Latency=17 cycles
UVM_INFO sv/axi4_monitor.sv(296) @ 3085000: uvm_test_top.m_env.m_master_agent.m_monitor [axi4_monitor] Write Complete: ID=5, ADDR=0x10002674, RESP=OKAY, Latency=15 cycles
UVM_INFO sv/axi4_monitor.sv(296) @ 3102000: uvm_test_top.m_env.m_master_agent.m_monitor [axi4_monitor] Write Complete: ID=13, ADDR=0x100026ac, RESP=OKAY, Latency=16 cycles
UVM_INFO sv/seq_lib.sv(3618) @ 3115000: uvm_test_top.m_env.m_master_agent.m_sequencer@@seq [axi4_long_time_sequence] Write progress: 300/500 transactions
UVM_INFO sv/axi4_monitor.sv(296) @ 3117000: uvm_test_top.m_env.m_master_agent.m_monitor [axi4_monitor] Write Complete: ID=9, ADDR=0x100026e8, RESP=OKAY, Latency=14 cycles
UVM_INFO sv/axi4_monitor.sv(296) @ 3131000: uvm_test_top.m_env.m_master_agent.m_monitor [axi4_monitor] Write Complete: ID=2, ADDR=0x1000271c, RESP=OKAY, Latency=13 cycles
UVM_INFO sv/axi4_monitor.sv(296) @ 3142000: uvm_test_top.m_env.m_master_agent.m_monitor [axi4_monitor] Write Complete: ID=7, ADDR=0x1000274c, RESP=OKAY, Latency=10 cycles
UVM_INFO sv/axi4_monitor.sv(296) @ 3159000: uvm_test_top.m_env.m_master_agent.m_monitor [axi4_monitor] Write Complete: ID=13, ADDR=0x10002770, RESP=OKAY, Latency=16 cycles
UVM_INFO sv/axi4_master_driver.sv(177) @ 3175000: uvm_test_top.m_env.m_master_agent.m_driver [axi4_master_driver] Splitting burst into 2 sub-bursts
UVM_INFO sv/axi4_monitor.sv(296) @ 3176000: uvm_test_top.m_env.m_master_agent.m_monitor [axi4_monitor] Write Complete: ID=0, ADDR=0x100027ac, RESP=OKAY, Latency=16 cycles
UVM_INFO sv/axi4_monitor.sv(296) @ 3184000: uvm_test_top.m_env.m_master_agent.m_monitor [axi4_monitor] Write Complete: ID=4, ADDR=0x100027e8, RESP=OKAY, Latency=7 cycles
UVM_INFO sv/axi4_monitor.sv(296) @ 3186000: uvm_test_top.m_env.m_master_agent.m_monitor [axi4_monitor] Write Complete: ID=5, ADDR=0x10002800, RESP=OKAY, Latency=2 cycles
UVM_INFO sv/axi4_monitor.sv(296) @ 3197000: uvm_test_top.m_env.m_master_agent.m_monitor [axi4_monitor] Write Complete: ID=4, ADDR=0x10002804, RESP=OKAY, Latency=10 cycles
UVM_INFO sv/axi4_monitor.sv(296) @ 3208000: uvm_test_top.m_env.m_master_agent.m_monitor [axi4_monitor] Write Complete: ID=6, ADDR=0x10002828, RESP=OKAY, Latency=10 cycles
UVM_INFO sv/axi4_monitor.sv(296) @ 3223000: uvm_test_top.m_env.m_master_agent.m_monitor [axi4_monitor] Write Complete: ID=4, ADDR=0x1000284c, RESP=OKAY, Latency=14 cycles
UVM_INFO sv/axi4_monitor.sv(296) @ 3227000: uvm_test_top.m_env.m_master_agent.m_monitor [axi4_monitor] Write Complete: ID=9, ADDR=0x10002880, RESP=OKAY, Latency=3 cycles
UVM_INFO sv/axi4_monitor.sv(296) @ 3236000: uvm_test_top.m_env.m_master_agent.m_monitor [axi4_monitor] Write Complete: ID=7, ADDR=0x10002888, RESP=OKAY, Latency=8 cycles
UVM_INFO sv/axi4_monitor.sv(296) @ 3250000: uvm_test_top.m_env.m_master_agent.m_monitor [axi4_monitor] Write Complete: ID=5, ADDR=0x100028a4, RESP=OKAY, Latency=13 cycles
UVM_INFO sv/axi4_monitor.sv(296) @ 3266000: uvm_test_top.m_env.m_master_agent.m_monitor [axi4_monitor] Write Complete: ID=0, ADDR=0x100028d4, RESP=OKAY, Latency=15 cycles
UVM_INFO sv/axi4_monitor.sv(296) @ 3273000: uvm_test_top.m_env.m_master_agent.m_monitor [axi4_monitor] Write Complete: ID=5, ADDR=0x1000290c, RESP=OKAY, Latency=6 cycles
UVM_INFO sv/axi4_monitor.sv(296) @ 3278000: uvm_test_top.m_env.m_master_agent.m_monitor [axi4_monitor] Write Complete: ID=11, ADDR=0x10002920, RESP=OKAY, Latency=4 cycles
UVM_INFO sv/axi4_monitor.sv(296) @ 3290000: uvm_test_top.m_env.m_master_agent.m_monitor [axi4_monitor] Write Complete: ID=14, ADDR=0x1000292c, RESP=OKAY, Latency=11 cycles
UVM_INFO sv/axi4_monitor.sv(296) @ 3307000: uvm_test_top.m_env.m_master_agent.m_monitor [axi4_monitor] Write Complete: ID=11, ADDR=0x10002954, RESP=OKAY, Latency=16 cycles
UVM_INFO sv/axi4_monitor.sv(296) @ 3314000: uvm_test_top.m_env.m_master_agent.m_monitor [axi4_monitor] Write Complete: ID=2, ADDR=0x10002990, RESP=OKAY, Latency=6 cycles
UVM_INFO sv/axi4_monitor.sv(296) @ 3318000: uvm_test_top.m_env.m_master_agent.m_monitor [axi4_monitor] Write Complete: ID=9, ADDR=0x100029a4, RESP=OKAY, Latency=3 cycles
UVM_INFO sv/axi4_monitor.sv(296) @ 3321000: uvm_test_top.m_env.m_master_agent.m_monitor [axi4_monitor] Write Complete: ID=6, ADDR=0x100029ac, RESP=OKAY, Latency=2 cycles
UVM_INFO sv/axi4_monitor.sv(296) @ 3325000: uvm_test_top.m_env.m_master_agent.m_monitor [axi4_monitor] Write Complete: ID=10, ADDR=0x100029b0, RESP=OKAY, Latency=3 cycles
UVM_INFO sv/axi4_monitor.sv(296) @ 3340000: uvm_test_top.m_env.m_master_agent.m_monitor [axi4_monitor] Write Complete: ID=4, ADDR=0x100029b8, RESP=OKAY, Latency=14 cycles
UVM_INFO sv/axi4_monitor.sv(296) @ 3354000: uvm_test_top.m_env.m_master_agent.m_monitor [axi4_monitor] Write Complete: ID=15, ADDR=0x100029ec, RESP=OKAY, Latency=13 cycles
UVM_INFO sv/axi4_monitor.sv(296) @ 3357000: uvm_test_top.m_env.m_master_agent.m_monitor [axi4_monitor] Write Complete: ID=7, ADDR=0x10002a1c, RESP=OKAY, Latency=2 cycles
UVM_INFO sv/axi4_monitor.sv(296) @ 3365000: uvm_test_top.m_env.m_master_agent.m_monitor [axi4_monitor] Write Complete: ID=15, ADDR=0x10002a20, RESP=OKAY, Latency=7 cycles
UVM_INFO sv/axi4_monitor.sv(296) @ 3369000: uvm_test_top.m_env.m_master_agent.m_monitor [axi4_monitor] Write Complete: ID=14, ADDR=0x10002a38, RESP=OKAY, Latency=3 cycles
UVM_INFO sv/axi4_monitor.sv(296) @ 3376000: uvm_test_top.m_env.m_master_agent.m_monitor [axi4_monitor] Write Complete: ID=7, ADDR=0x10002a40, RESP=OKAY, Latency=6 cycles
UVM_INFO sv/axi4_monitor.sv(296) @ 3382000: uvm_test_top.m_env.m_master_agent.m_monitor [axi4_monitor] Write Complete: ID=12, ADDR=0x10002a54, RESP=OKAY, Latency=5 cycles
UVM_INFO sv/axi4_monitor.sv(296) @ 3392000: uvm_test_top.m_env.m_master_agent.m_monitor [axi4_monitor] Write Complete: ID=13, ADDR=0x10002a64, RESP=OKAY, Latency=9 cycles
UVM_INFO sv/axi4_monitor.sv(296) @ 3407000: uvm_test_top.m_env.m_master_agent.m_monitor [axi4_monitor] Write Complete: ID=12, ADDR=0x10002a84, RESP=OKAY, Latency=14 cycles
UVM_INFO sv/axi4_monitor.sv(296) @ 3420000: uvm_test_top.m_env.m_master_agent.m_monitor [axi4_monitor] Write Complete: ID=10, ADDR=0x10002ab8, RESP=OKAY, Latency=12 cycles
UVM_INFO sv/axi4_monitor.sv(296) @ 3434000: uvm_test_top.m_env.m_master_agent.m_monitor [axi4_monitor] Write Complete: ID=7, ADDR=0x10002ae4, RESP=OKAY, Latency=13 cycles
UVM_INFO sv/axi4_monitor.sv(296) @ 3441000: uvm_test_top.m_env.m_master_agent.m_monitor [axi4_monitor] Write Complete: ID=12, ADDR=0x10002b14, RESP=OKAY, Latency=6 cycles
UVM_INFO sv/axi4_monitor.sv(296) @ 3444000: uvm_test_top.m_env.m_master_agent.m_monitor [axi4_monitor] Write Complete: ID=7, ADDR=0x10002b28, RESP=OKAY, Latency=2 cycles
UVM_INFO sv/axi4_monitor.sv(296) @ 3460000: uvm_test_top.m_env.m_master_agent.m_monitor [axi4_monitor] Write Complete: ID=5, ADDR=0x10002b2c, RESP=OKAY, Latency=15 cycles
UVM_INFO sv/axi4_monitor.sv(296) @ 3466000: uvm_test_top.m_env.m_master_agent.m_monitor [axi4_monitor] Write Complete: ID=6, ADDR=0x10002b64, RESP=OKAY, Latency=5 cycles
UVM_INFO sv/axi4_monitor.sv(296) @ 3478000: uvm_test_top.m_env.m_master_agent.m_monitor [axi4_monitor] Write Complete: ID=14, ADDR=0x10002b74, RESP=OKAY, Latency=11 cycles
UVM_INFO sv/axi4_monitor.sv(296) @ 3481000: uvm_test_top.m_env.m_master_agent.m_monitor [axi4_monitor] Write Complete: ID=11, ADDR=0x10002b9c, RESP=OKAY, Latency=2 cycles
UVM_INFO sv/axi4_monitor.sv(296) @ 3485000: uvm_test_top.m_env.m_master_agent.m_monitor [axi4_monitor] Write Complete: ID=12, ADDR=0x10002ba0, RESP=OKAY, Latency=3 cycles
UVM_INFO sv/axi4_monitor.sv(296) @ 3495000: uvm_test_top.m_env.m_master_agent.m_monitor [axi4_monitor] Write Complete: ID=6, ADDR=0x10002ba8, RESP=OKAY, Latency=9 cycles
UVM_INFO sv/axi4_monitor.sv(296) @ 3499000: uvm_test_top.m_env.m_master_agent.m_monitor [axi4_monitor] Write Complete: ID=8, ADDR=0x10002bc8, RESP=OKAY, Latency=3 cycles
UVM_INFO sv/axi4_monitor.sv(296) @ 3504000: uvm_test_top.m_env.m_master_agent.m_monitor [axi4_monitor] Write Complete: ID=13, ADDR=0x10002bd0, RESP=OKAY, Latency=4 cycles
UVM_INFO sv/axi4_monitor.sv(296) @ 3509000: uvm_test_top.m_env.m_master_agent.m_monitor [axi4_monitor] Write Complete: ID=2, ADDR=0x10002bdc, RESP=OKAY, Latency=4 cycles
UVM_INFO sv/axi4_monitor.sv(296) @ 3521000: uvm_test_top.m_env.m_master_agent.m_monitor [axi4_monitor] Write Complete: ID=4, ADDR=0x10002be8, RESP=OKAY, Latency=11 cycles
UVM_INFO sv/axi4_monitor.sv(296) @ 3531000: uvm_test_top.m_env.m_master_agent.m_monitor [axi4_monitor] Write Complete: ID=14, ADDR=0x10002c10, RESP=OKAY, Latency=9 cycles
UVM_INFO sv/axi4_monitor.sv(296) @ 3543000: uvm_test_top.m_env.m_master_agent.m_monitor [axi4_monitor] Write Complete: ID=3, ADDR=0x10002c30, RESP=OKAY, Latency=11 cycles
UVM_INFO sv/axi4_monitor.sv(296) @ 3551000: uvm_test_top.m_env.m_master_agent.m_monitor [axi4_monitor] Write Complete: ID=8, ADDR=0x10002c58, RESP=OKAY, Latency=7 cycles
UVM_INFO sv/axi4_monitor.sv(296) @ 3556000: uvm_test_top.m_env.m_master_agent.m_monitor [axi4_monitor] Write Complete: ID=10, ADDR=0x10002c70, RESP=OKAY, Latency=4 cycles
UVM_INFO sv/axi4_monitor.sv(296) @ 3561000: uvm_test_top.m_env.m_master_agent.m_monitor [axi4_monitor] Write Complete: ID=2, ADDR=0x10002c7c, RESP=OKAY, Latency=4 cycles
UVM_INFO sv/axi4_monitor.sv(296) @ 3578000: uvm_test_top.m_env.m_master_agent.m_monitor [axi4_monitor] Write Complete: ID=6, ADDR=0x10002c88, RESP=OKAY, Latency=16 cycles
UVM_INFO sv/axi4_monitor.sv(296) @ 3583000: uvm_test_top.m_env.m_master_agent.m_monitor [axi4_monitor] Write Complete: ID=5, ADDR=0x10002cc4, RESP=OKAY, Latency=4 cycles
UVM_INFO sv/axi4_monitor.sv(296) @ 3587000: uvm_test_top.m_env.m_master_agent.m_monitor [axi4_monitor] Write Complete: ID=1, ADDR=0x10002cd0, RESP=OKAY, Latency=3 cycles
UVM_INFO sv/axi4_monitor.sv(296) @ 3593000: uvm_test_top.m_env.m_master_agent.m_monitor [axi4_monitor] Write Complete: ID=15, ADDR=0x10002cd8, RESP=OKAY, Latency=5 cycles
UVM_INFO sv/axi4_monitor.sv(296) @ 3611000: uvm_test_top.m_env.m_master_agent.m_monitor [axi4_monitor] Write Complete: ID=3, ADDR=0x10002ce8, RESP=OKAY, Latency=17 cycles
UVM_INFO sv/axi4_monitor.sv(296) @ 3622000: uvm_test_top.m_env.m_master_agent.m_monitor [axi4_monitor] Write Complete: ID=4, ADDR=0x10002d28, RESP=OKAY, Latency=10 cycles
UVM_INFO sv/axi4_monitor.sv(296) @ 3633000: uvm_test_top.m_env.m_master_agent.m_monitor [axi4_monitor] Write Complete: ID=4, ADDR=0x10002d4c, RESP=OKAY, Latency=10 cycles
UVM_INFO sv/axi4_monitor.sv(296) @ 3647000: uvm_test_top.m_env.m_master_agent.m_monitor [axi4_monitor] Write Complete: ID=9, ADDR=0x10002d70, RESP=OKAY, Latency=13 cycles
UVM_INFO sv/axi4_monitor.sv(296) @ 3656000: uvm_test_top.m_env.m_master_agent.m_monitor [axi4_monitor] Write Complete: ID=9, ADDR=0x10002da0, RESP=OKAY, Latency=8 cycles
UVM_INFO sv/axi4_monitor.sv(296) @ 3672000: uvm_test_top.m_env.m_master_agent.m_monitor [axi4_monitor] Write Complete: ID=11, ADDR=0x10002dbc, RESP=OKAY, Latency=15 cycles
UVM_INFO sv/axi4_monitor.sv(296) @ 3690000: uvm_test_top.m_env.m_master_agent.m_monitor [axi4_monitor] Write Complete: ID=12, ADDR=0x10002df4, RESP=OKAY, Latency=17 cycles
UVM_INFO sv/axi4_monitor.sv(296) @ 3695000: uvm_test_top.m_env.m_master_agent.m_monitor [axi4_monitor] Write Complete: ID=4, ADDR=0x10002e34, RESP=OKAY, Latency=4 cycles
UVM_INFO sv/axi4_monitor.sv(296) @ 3704000: uvm_test_top.m_env.m_master_agent.m_monitor [axi4_monitor] Write Complete: ID=15, ADDR=0x10002e40, RESP=OKAY, Latency=8 cycles
UVM_INFO sv/axi4_monitor.sv(296) @ 3711000: uvm_test_top.m_env.m_master_agent.m_monitor [axi4_monitor] Write Complete: ID=8, ADDR=0x10002e5c, RESP=OKAY, Latency=6 cycles
UVM_INFO sv/axi4_monitor.sv(296) @ 3724000: uvm_test_top.m_env.m_master_agent.m_monitor [axi4_monitor] Write Complete: ID=4, ADDR=0x10002e70, RESP=OKAY, Latency=12 cycles
UVM_INFO sv/axi4_monitor.sv(296) @ 3739000: uvm_test_top.m_env.m_master_agent.m_monitor [axi4_monitor] Write Complete: ID=1, ADDR=0x10002e9c, RESP=OKAY, Latency=14 cycles
UVM_INFO sv/axi4_monitor.sv(296) @ 3748000: uvm_test_top.m_env.m_master_agent.m_monitor [axi4_monitor] Write Complete: ID=10, ADDR=0x10002ed0, RESP=OKAY, Latency=8 cycles
UVM_INFO sv/axi4_monitor.sv(296) @ 3758000: uvm_test_top.m_env.m_master_agent.m_monitor [axi4_monitor] Write Complete: ID=13, ADDR=0x10002eec, RESP=OKAY, Latency=9 cycles
UVM_INFO sv/axi4_monitor.sv(296) @ 3767000: uvm_test_top.m_env.m_master_agent.m_monitor [axi4_monitor] Write Complete: ID=4, ADDR=0x10002f0c, RESP=OKAY, Latency=8 cycles
UVM_INFO sv/axi4_monitor.sv(296) @ 3771000: uvm_test_top.m_env.m_master_agent.m_monitor [axi4_monitor] Write Complete: ID=12, ADDR=0x10002f28, RESP=OKAY, Latency=3 cycles
UVM_INFO sv/axi4_monitor.sv(296) @ 3776000: uvm_test_top.m_env.m_master_agent.m_monitor [axi4_monitor] Write Complete: ID=1, ADDR=0x10002f30, RESP=OKAY, Latency=4 cycles
UVM_INFO sv/axi4_monitor.sv(296) @ 3780000: uvm_test_top.m_env.m_master_agent.m_monitor [axi4_monitor] Write Complete: ID=3, ADDR=0x10002f3c, RESP=OKAY, Latency=3 cycles
UVM_INFO sv/axi4_monitor.sv(296) @ 3786000: uvm_test_top.m_env.m_master_agent.m_monitor [axi4_monitor] Write Complete: ID=4, ADDR=0x10002f44, RESP=OKAY, Latency=5 cycles
UVM_INFO sv/axi4_monitor.sv(296) @ 3799000: uvm_test_top.m_env.m_master_agent.m_monitor [axi4_monitor] Write Complete: ID=15, ADDR=0x10002f54, RESP=OKAY, Latency=12 cycles
UVM_INFO sv/axi4_monitor.sv(296) @ 3814000: uvm_test_top.m_env.m_master_agent.m_monitor [axi4_monitor] Write Complete: ID=8, ADDR=0x10002f80, RESP=OKAY, Latency=14 cycles
UVM_INFO sv/axi4_monitor.sv(296) @ 3822000: uvm_test_top.m_env.m_master_agent.m_monitor [axi4_monitor] Write Complete: ID=13, ADDR=0x10002fb4, RESP=OKAY, Latency=7 cycles
UVM_INFO sv/axi4_master_driver.sv(177) @ 3827000: uvm_test_top.m_env.m_master_agent.m_driver [axi4_master_driver] Splitting burst into 2 sub-bursts
UVM_INFO sv/axi4_monitor.sv(296) @ 3828000: uvm_test_top.m_env.m_master_agent.m_monitor [axi4_monitor] Write Complete: ID=7, ADDR=0x10002fcc, RESP=OKAY, Latency=5 cycles
UVM_INFO sv/axi4_monitor.sv(296) @ 3839000: uvm_test_top.m_env.m_master_agent.m_monitor [axi4_monitor] Write Complete: ID=6, ADDR=0x10002fdc, RESP=OKAY, Latency=10 cycles
UVM_INFO sv/axi4_monitor.sv(296) @ 3843000: uvm_test_top.m_env.m_master_agent.m_monitor [axi4_monitor] Write Complete: ID=7, ADDR=0x10003000, RESP=OKAY, Latency=4 cycles
UVM_INFO sv/axi4_monitor.sv(296) @ 3849000: uvm_test_top.m_env.m_master_agent.m_monitor [axi4_monitor] Write Complete: ID=9, ADDR=0x1000300c, RESP=OKAY, Latency=5 cycles
UVM_INFO sv/axi4_monitor.sv(296) @ 3866000: uvm_test_top.m_env.m_master_agent.m_monitor [axi4_monitor] Write Complete: ID=3, ADDR=0x1000301c, RESP=OKAY, Latency=16 cycles
UVM_INFO sv/axi4_monitor.sv(296) @ 3881000: uvm_test_top.m_env.m_master_agent.m_monitor [axi4_monitor] Write Complete: ID=15, ADDR=0x10003058, RESP=OKAY, Latency=14 cycles
UVM_INFO sv/axi4_monitor.sv(296) @ 3890000: uvm_test_top.m_env.m_master_agent.m_monitor [axi4_monitor] Write Complete: ID=0, ADDR=0x1000308c, RESP=OKAY, Latency=8 cycles
UVM_INFO sv/axi4_monitor.sv(296) @ 3897000: uvm_test_top.m_env.m_master_agent.m_monitor [axi4_monitor] Write Complete: ID=2, ADDR=0x100030a8, RESP=OKAY, Latency=6 cycles
UVM_INFO sv/axi4_monitor.sv(296) @ 3903000: uvm_test_top.m_env.m_master_agent.m_monitor [axi4_monitor] Write Complete: ID=0, ADDR=0x100030bc, RESP=OKAY, Latency=5 cycles
UVM_INFO sv/axi4_monitor.sv(296) @ 3918000: uvm_test_top.m_env.m_master_agent.m_monitor [axi4_monitor] Write Complete: ID=9, ADDR=0x100030cc, RESP=OKAY, Latency=14 cycles
UVM_INFO sv/axi4_monitor.sv(296) @ 3934000: uvm_test_top.m_env.m_master_agent.m_monitor [axi4_monitor] Write Complete: ID=1, ADDR=0x10003100, RESP=OKAY, Latency=15 cycles
UVM_INFO sv/axi4_monitor.sv(296) @ 3951000: uvm_test_top.m_env.m_master_agent.m_monitor [axi4_monitor] Write Complete: ID=0, ADDR=0x10003138, RESP=OKAY, Latency=16 cycles
UVM_INFO sv/axi4_monitor.sv(296) @ 3967000: uvm_test_top.m_env.m_master_agent.m_monitor [axi4_monitor] Write Complete: ID=13, ADDR=0x10003174, RESP=OKAY, Latency=15 cycles
UVM_INFO sv/axi4_monitor.sv(296) @ 3978000: uvm_test_top.m_env.m_master_agent.m_monitor [axi4_monitor] Write Complete: ID=5, ADDR=0x100031ac, RESP=OKAY, Latency=10 cycles
UVM_INFO sv/axi4_monitor.sv(296) @ 3992000: uvm_test_top.m_env.m_master_agent.m_monitor [axi4_monitor] Write Complete: ID=2, ADDR=0x100031d0, RESP=OKAY, Latency=13 cycles
UVM_INFO sv/axi4_monitor.sv(296) @ 4006000: uvm_test_top.m_env.m_master_agent.m_monitor [axi4_monitor] Write Complete: ID=12, ADDR=0x10003200, RESP=OKAY, Latency=13 cycles
UVM_INFO sv/axi4_monitor.sv(296) @ 4023000: uvm_test_top.m_env.m_master_agent.m_monitor [axi4_monitor] Write Complete: ID=12, ADDR=0x10003230, RESP=OKAY, Latency=16 cycles
UVM_INFO sv/axi4_monitor.sv(296) @ 4037000: uvm_test_top.m_env.m_master_agent.m_monitor [axi4_monitor] Write Complete: ID=1, ADDR=0x1000326c, RESP=OKAY, Latency=13 cycles
UVM_INFO sv/axi4_monitor.sv(296) @ 4042000: uvm_test_top.m_env.m_master_agent.m_monitor [axi4_monitor] Write Complete: ID=5, ADDR=0x1000329c, RESP=OKAY, Latency=4 cycles
UVM_INFO sv/axi4_monitor.sv(296) @ 4053000: uvm_test_top.m_env.m_master_agent.m_monitor [axi4_monitor] Write Complete: ID=5, ADDR=0x100032a8, RESP=OKAY, Latency=10 cycles
UVM_INFO sv/axi4_monitor.sv(296) @ 4056000: uvm_test_top.m_env.m_master_agent.m_monitor [axi4_monitor] Write Complete: ID=7, ADDR=0x100032cc, RESP=OKAY, Latency=2 cycles
UVM_INFO sv/axi4_monitor.sv(296) @ 4059000: uvm_test_top.m_env.m_master_agent.m_monitor [axi4_monitor] Write Complete: ID=6, ADDR=0x100032d0, RESP=OKAY, Latency=2 cycles
UVM_INFO sv/axi4_monitor.sv(296) @ 4073000: uvm_test_top.m_env.m_master_agent.m_monitor [axi4_monitor] Write Complete: ID=13, ADDR=0x100032d4, RESP=OKAY, Latency=13 cycles
UVM_INFO sv/axi4_monitor.sv(296) @ 4090000: uvm_test_top.m_env.m_master_agent.m_monitor [axi4_monitor] Write Complete: ID=7, ADDR=0x10003304, RESP=OKAY, Latency=16 cycles
UVM_INFO sv/axi4_monitor.sv(296) @ 4100000: uvm_test_top.m_env.m_master_agent.m_monitor [axi4_monitor] Write Complete: ID=11, ADDR=0x10003340, RESP=OKAY, Latency=9 cycles
UVM_INFO sv/axi4_monitor.sv(296) @ 4104000: uvm_test_top.m_env.m_master_agent.m_monitor [axi4_monitor] Write Complete: ID=2, ADDR=0x10003360, RESP=OKAY, Latency=3 cycles
UVM_INFO sv/seq_lib.sv(3618) @ 4120000: uvm_test_top.m_env.m_master_agent.m_sequencer@@seq [axi4_long_time_sequence] Write progress: 400/500 transactions
UVM_INFO sv/axi4_monitor.sv(296) @ 4122000: uvm_test_top.m_env.m_master_agent.m_monitor [axi4_monitor] Write Complete: ID=7, ADDR=0x10003368, RESP=OKAY, Latency=17 cycles
UVM_INFO sv/axi4_monitor.sv(296) @ 4131000: uvm_test_top.m_env.m_master_agent.m_monitor [axi4_monitor] Write Complete: ID=15, ADDR=0x100033a8, RESP=OKAY, Latency=8 cycles
UVM_INFO sv/axi4_monitor.sv(296) @ 4147000: uvm_test_top.m_env.m_master_agent.m_monitor [axi4_monitor] Write Complete: ID=2, ADDR=0x100033c4, RESP=OKAY, Latency=15 cycles
UVM_INFO sv/axi4_monitor.sv(296) @ 4161000: uvm_test_top.m_env.m_master_agent.m_monitor [axi4_monitor] Write Complete: ID=4, ADDR=0x100033fc, RESP=OKAY, Latency=13 cycles
UVM_INFO sv/axi4_monitor.sv(296) @ 4177000: uvm_test_top.m_env.m_master_agent.m_monitor [axi4_monitor] Write Complete: ID=12, ADDR=0x1000342c, RESP=OKAY, Latency=15 cycles
UVM_INFO sv/axi4_monitor.sv(296) @ 4181000: uvm_test_top.m_env.m_master_agent.m_monitor [axi4_monitor] Write Complete: ID=12, ADDR=0x10003464, RESP=OKAY, Latency=3 cycles
UVM_INFO sv/axi4_monitor.sv(296) @ 4191000: uvm_test_top.m_env.m_master_agent.m_monitor [axi4_monitor] Write Complete: ID=3, ADDR=0x1000346c, RESP=OKAY, Latency=9 cycles
UVM_INFO sv/axi4_monitor.sv(296) @ 4195000: uvm_test_top.m_env.m_master_agent.m_monitor [axi4_monitor] Write Complete: ID=8, ADDR=0x1000348c, RESP=OKAY, Latency=3 cycles
UVM_INFO sv/axi4_monitor.sv(296) @ 4202000: uvm_test_top.m_env.m_master_agent.m_monitor [axi4_monitor] Write Complete: ID=5, ADDR=0x10003494, RESP=OKAY, Latency=6 cycles
UVM_INFO sv/axi4_monitor.sv(296) @ 4217000: uvm_test_top.m_env.m_master_agent.m_monitor [axi4_monitor] Write Complete: ID=4, ADDR=0x100034a8, RESP=OKAY, Latency=14 cycles
UVM_INFO sv/axi4_monitor.sv(296) @ 4224000: uvm_test_top.m_env.m_master_agent.m_monitor [axi4_monitor] Write Complete: ID=8, ADDR=0x100034dc, RESP=OKAY, Latency=6 cycles
UVM_INFO sv/axi4_monitor.sv(296) @ 4240000: uvm_test_top.m_env.m_master_agent.m_monitor [axi4_monitor] Write Complete: ID=12, ADDR=0x100034f0, RESP=OKAY, Latency=15 cycles
UVM_INFO sv/axi4_monitor.sv(296) @ 4248000: uvm_test_top.m_env.m_master_agent.m_monitor [axi4_monitor] Write Complete: ID=9, ADDR=0x10003528, RESP=OKAY, Latency=7 cycles
UVM_INFO sv/axi4_monitor.sv(296) @ 4266000: uvm_test_top.m_env.m_master_agent.m_monitor [axi4_monitor] Write Complete: ID=1, ADDR=0x10003540, RESP=OKAY, Latency=17 cycles
UVM_INFO sv/axi4_monitor.sv(296) @ 4277000: uvm_test_top.m_env.m_master_agent.m_monitor [axi4_monitor] Write Complete: ID=11, ADDR=0x10003580, RESP=OKAY, Latency=10 cycles
UVM_INFO sv/axi4_monitor.sv(296) @ 4291000: uvm_test_top.m_env.m_master_agent.m_monitor [axi4_monitor] Write Complete: ID=5, ADDR=0x100035a4, RESP=OKAY, Latency=13 cycles
UVM_INFO sv/axi4_monitor.sv(296) @ 4299000: uvm_test_top.m_env.m_master_agent.m_monitor [axi4_monitor] Write Complete: ID=15, ADDR=0x100035d4, RESP=OKAY, Latency=7 cycles
UVM_INFO sv/axi4_monitor.sv(296) @ 4313000: uvm_test_top.m_env.m_master_agent.m_monitor [axi4_monitor] Write Complete: ID=10, ADDR=0x100035ec, RESP=OKAY, Latency=13 cycles
UVM_INFO sv/axi4_monitor.sv(296) @ 4326000: uvm_test_top.m_env.m_master_agent.m_monitor [axi4_monitor] Write Complete: ID=13, ADDR=0x1000361c, RESP=OKAY, Latency=12 cycles
UVM_INFO sv/axi4_monitor.sv(296) @ 4342000: uvm_test_top.m_env.m_master_agent.m_monitor [axi4_monitor] Write Complete: ID=1, ADDR=0x10003648, RESP=OKAY, Latency=15 cycles
UVM_INFO sv/axi4_monitor.sv(296) @ 4351000: uvm_test_top.m_env.m_master_agent.m_monitor [axi4_monitor] Write Complete: ID=2, ADDR=0x10003680, RESP=OKAY, Latency=8 cycles
UVM_INFO sv/axi4_monitor.sv(296) @ 4365000: uvm_test_top.m_env.m_master_agent.m_monitor [axi4_monitor] Write Complete: ID=4, ADDR=0x1000369c, RESP=OKAY, Latency=13 cycles
UVM_INFO sv/axi4_monitor.sv(296) @ 4371000: uvm_test_top.m_env.m_master_agent.m_monitor [axi4_monitor] Write Complete: ID=12, ADDR=0x100036cc, RESP=OKAY, Latency=5 cycles
UVM_INFO sv/axi4_monitor.sv(296) @ 4374000: uvm_test_top.m_env.m_master_agent.m_monitor [axi4_monitor] Write Complete: ID=11, ADDR=0x100036dc, RESP=OKAY, Latency=2 cycles
UVM_INFO sv/axi4_monitor.sv(296) @ 4377000: uvm_test_top.m_env.m_master_agent.m_monitor [axi4_monitor] Write Complete: ID=3, ADDR=0x100036e0, RESP=OKAY, Latency=2 cycles
UVM_INFO sv/axi4_monitor.sv(296) @ 4394000: uvm_test_top.m_env.m_master_agent.m_monitor [axi4_monitor] Write Complete: ID=12, ADDR=0x100036e4, RESP=OKAY, Latency=16 cycles
UVM_INFO sv/axi4_monitor.sv(296) @ 4402000: uvm_test_top.m_env.m_master_agent.m_monitor [axi4_monitor] Write Complete: ID=7, ADDR=0x10003720, RESP=OKAY, Latency=7 cycles
UVM_INFO sv/axi4_monitor.sv(296) @ 4417000: uvm_test_top.m_env.m_master_agent.m_monitor [axi4_monitor] Write Complete: ID=12, ADDR=0x10003738, RESP=OKAY, Latency=14 cycles
UVM_INFO sv/axi4_monitor.sv(296) @ 4433000: uvm_test_top.m_env.m_master_agent.m_monitor [axi4_monitor] Write Complete: ID=13, ADDR=0x1000376c, RESP=OKAY, Latency=15 cycles
UVM_INFO sv/axi4_monitor.sv(296) @ 4442000: uvm_test_top.m_env.m_master_agent.m_monitor [axi4_monitor] Write Complete: ID=4, ADDR=0x100037a4, RESP=OKAY, Latency=8 cycles
UVM_INFO sv/axi4_master_driver.sv(177) @ 4452000: uvm_test_top.m_env.m_master_agent.m_driver [axi4_master_driver] Splitting burst into 2 sub-bursts
UVM_INFO sv/axi4_monitor.sv(296) @ 4453000: uvm_test_top.m_env.m_master_agent.m_monitor [axi4_monitor] Write Complete: ID=8, ADDR=0x100037c0, RESP=OKAY, Latency=10 cycles
UVM_INFO sv/axi4_monitor.sv(296) @ 4462000: uvm_test_top.m_env.m_master_agent.m_monitor [axi4_monitor] Write Complete: ID=8, ADDR=0x100037e4, RESP=OKAY, Latency=8 cycles
UVM_INFO sv/axi4_monitor.sv(296) @ 4469000: uvm_test_top.m_env.m_master_agent.m_monitor [axi4_monitor] Write Complete: ID=9, ADDR=0x10003800, RESP=OKAY, Latency=7 cycles
UVM_INFO sv/axi4_monitor.sv(296) @ 4484000: uvm_test_top.m_env.m_master_agent.m_monitor [axi4_monitor] Write Complete: ID=10, ADDR=0x10003818, RESP=OKAY, Latency=14 cycles
UVM_INFO sv/axi4_monitor.sv(296) @ 4502000: uvm_test_top.m_env.m_master_agent.m_monitor [axi4_monitor] Write Complete: ID=9, ADDR=0x1000384c, RESP=OKAY, Latency=17 cycles
UVM_INFO sv/axi4_monitor.sv(296) @ 4505000: uvm_test_top.m_env.m_master_agent.m_monitor [axi4_monitor] Write Complete: ID=3, ADDR=0x1000388c, RESP=OKAY, Latency=2 cycles
UVM_INFO sv/axi4_monitor.sv(296) @ 4516000: uvm_test_top.m_env.m_master_agent.m_monitor [axi4_monitor] Write Complete: ID=10, ADDR=0x10003890, RESP=OKAY, Latency=10 cycles
UVM_INFO sv/axi4_monitor.sv(296) @ 4520000: uvm_test_top.m_env.m_master_agent.m_monitor [axi4_monitor] Write Complete: ID=12, ADDR=0x100038b4, RESP=OKAY, Latency=3 cycles
UVM_INFO sv/axi4_monitor.sv(296) @ 4532000: uvm_test_top.m_env.m_master_agent.m_monitor [axi4_monitor] Write Complete: ID=1, ADDR=0x100038bc, RESP=OKAY, Latency=11 cycles
UVM_INFO sv/axi4_monitor.sv(296) @ 4540000: uvm_test_top.m_env.m_master_agent.m_monitor [axi4_monitor] Write Complete: ID=3, ADDR=0x100038e4, RESP=OKAY, Latency=7 cycles
UVM_INFO sv/axi4_monitor.sv(296) @ 4556000: uvm_test_top.m_env.m_master_agent.m_monitor [axi4_monitor] Write Complete: ID=1, ADDR=0x100038fc, RESP=OKAY, Latency=15 cycles
UVM_INFO sv/axi4_monitor.sv(296) @ 4559000: uvm_test_top.m_env.m_master_agent.m_monitor [axi4_monitor] Write Complete: ID=3, ADDR=0x10003934, RESP=OKAY, Latency=2 cycles
UVM_INFO sv/axi4_monitor.sv(296) @ 4573000: uvm_test_top.m_env.m_master_agent.m_monitor [axi4_monitor] Write Complete: ID=8, ADDR=0x10003938, RESP=OKAY, Latency=13 cycles
UVM_INFO sv/axi4_monitor.sv(296) @ 4587000: uvm_test_top.m_env.m_master_agent.m_monitor [axi4_monitor] Write Complete: ID=6, ADDR=0x10003968, RESP=OKAY, Latency=13 cycles
UVM_INFO sv/axi4_monitor.sv(296) @ 4599000: uvm_test_top.m_env.m_master_agent.m_monitor [axi4_monitor] Write Complete: ID=6, ADDR=0x10003998, RESP=OKAY, Latency=11 cycles
UVM_INFO sv/axi4_monitor.sv(296) @ 4614000: uvm_test_top.m_env.m_master_agent.m_monitor [axi4_monitor] Write Complete: ID=4, ADDR=0x100039c0, RESP=OKAY, Latency=14 cycles
UVM_INFO sv/axi4_monitor.sv(296) @ 4622000: uvm_test_top.m_env.m_master_agent.m_monitor [axi4_monitor] Write Complete: ID=7, ADDR=0x100039f4, RESP=OKAY, Latency=7 cycles
UVM_INFO sv/axi4_monitor.sv(296) @ 4633000: uvm_test_top.m_env.m_master_agent.m_monitor [axi4_monitor] Write Complete: ID=11, ADDR=0x10003a0c, RESP=OKAY, Latency=10 cycles
UVM_INFO sv/axi4_monitor.sv(296) @ 4651000: uvm_test_top.m_env.m_master_agent.m_monitor [axi4_monitor] Write Complete: ID=14, ADDR=0x10003a30, RESP=OKAY, Latency=17 cycles
UVM_INFO sv/axi4_monitor.sv(296) @ 4662000: uvm_test_top.m_env.m_master_agent.m_monitor [axi4_monitor] Write Complete: ID=15, ADDR=0x10003a70, RESP=OKAY, Latency=10 cycles
UVM_INFO sv/axi4_monitor.sv(296) @ 4677000: uvm_test_top.m_env.m_master_agent.m_monitor [axi4_monitor] Write Complete: ID=9, ADDR=0x10003a94, RESP=OKAY, Latency=14 cycles
UVM_INFO sv/axi4_monitor.sv(296) @ 4680000: uvm_test_top.m_env.m_master_agent.m_monitor [axi4_monitor] Write Complete: ID=12, ADDR=0x10003ac8, RESP=OKAY, Latency=2 cycles
UVM_INFO sv/axi4_monitor.sv(296) @ 4683000: uvm_test_top.m_env.m_master_agent.m_monitor [axi4_monitor] Write Complete: ID=1, ADDR=0x10003acc, RESP=OKAY, Latency=2 cycles
UVM_INFO sv/axi4_monitor.sv(296) @ 4690000: uvm_test_top.m_env.m_master_agent.m_monitor [axi4_monitor] Write Complete: ID=8, ADDR=0x10003ad0, RESP=OKAY, Latency=6 cycles
UVM_INFO sv/axi4_monitor.sv(296) @ 4707000: uvm_test_top.m_env.m_master_agent.m_monitor [axi4_monitor] Write Complete: ID=7, ADDR=0x10003ae4, RESP=OKAY, Latency=16 cycles
UVM_INFO sv/axi4_monitor.sv(296) @ 4717000: uvm_test_top.m_env.m_master_agent.m_monitor [axi4_monitor] Write Complete: ID=4, ADDR=0x10003b20, RESP=OKAY, Latency=9 cycles
UVM_INFO sv/axi4_monitor.sv(296) @ 4728000: uvm_test_top.m_env.m_master_agent.m_monitor [axi4_monitor] Write Complete: ID=11, ADDR=0x10003b40, RESP=OKAY, Latency=10 cycles
UVM_INFO sv/axi4_monitor.sv(296) @ 4742000: uvm_test_top.m_env.m_master_agent.m_monitor [axi4_monitor] Write Complete: ID=0, ADDR=0x10003b64, RESP=OKAY, Latency=13 cycles
UVM_INFO sv/axi4_monitor.sv(296) @ 4746000: uvm_test_top.m_env.m_master_agent.m_monitor [axi4_monitor] Write Complete: ID=8, ADDR=0x10003b94, RESP=OKAY, Latency=3 cycles
UVM_INFO sv/axi4_monitor.sv(296) @ 4758000: uvm_test_top.m_env.m_master_agent.m_monitor [axi4_monitor] Write Complete: ID=10, ADDR=0x10003b9c, RESP=OKAY, Latency=11 cycles
UVM_INFO sv/axi4_monitor.sv(296) @ 4766000: uvm_test_top.m_env.m_master_agent.m_monitor [axi4_monitor] Write Complete: ID=3, ADDR=0x10003bc4, RESP=OKAY, Latency=7 cycles
UVM_INFO sv/axi4_monitor.sv(296) @ 4771000: uvm_test_top.m_env.m_master_agent.m_monitor [axi4_monitor] Write Complete: ID=7, ADDR=0x10003bdc, RESP=OKAY, Latency=4 cycles
UVM_INFO sv/axi4_monitor.sv(296) @ 4781000: uvm_test_top.m_env.m_master_agent.m_monitor [axi4_monitor] Write Complete: ID=12, ADDR=0x10003be8, RESP=OKAY, Latency=9 cycles
UVM_INFO sv/axi4_monitor.sv(296) @ 4786000: uvm_test_top.m_env.m_master_agent.m_monitor [axi4_monitor] Write Complete: ID=11, ADDR=0x10003c08, RESP=OKAY, Latency=4 cycles
UVM_INFO sv/axi4_monitor.sv(296) @ 4791000: uvm_test_top.m_env.m_master_agent.m_monitor [axi4_monitor] Write Complete: ID=9, ADDR=0x10003c14, RESP=OKAY, Latency=4 cycles
UVM_INFO sv/axi4_monitor.sv(296) @ 4803000: uvm_test_top.m_env.m_master_agent.m_monitor [axi4_monitor] Write Complete: ID=6, ADDR=0x10003c20, RESP=OKAY, Latency=11 cycles
UVM_INFO sv/axi4_monitor.sv(296) @ 4816000: uvm_test_top.m_env.m_master_agent.m_monitor [axi4_monitor] Write Complete: ID=12, ADDR=0x10003c48, RESP=OKAY, Latency=12 cycles
UVM_INFO sv/axi4_monitor.sv(296) @ 4824000: uvm_test_top.m_env.m_master_agent.m_monitor [axi4_monitor] Write Complete: ID=7, ADDR=0x10003c74, RESP=OKAY, Latency=7 cycles
UVM_INFO sv/axi4_monitor.sv(296) @ 4832000: uvm_test_top.m_env.m_master_agent.m_monitor [axi4_monitor] Write Complete: ID=7, ADDR=0x10003c8c, RESP=OKAY, Latency=7 cycles
UVM_INFO sv/axi4_monitor.sv(296) @ 4842000: uvm_test_top.m_env.m_master_agent.m_monitor [axi4_monitor] Write Complete: ID=14, ADDR=0x10003ca4, RESP=OKAY, Latency=9 cycles
UVM_INFO sv/axi4_monitor.sv(296) @ 4857000: uvm_test_top.m_env.m_master_agent.m_monitor [axi4_monitor] Write Complete: ID=1, ADDR=0x10003cc4, RESP=OKAY, Latency=14 cycles
UVM_INFO sv/axi4_monitor.sv(296) @ 4864000: uvm_test_top.m_env.m_master_agent.m_monitor [axi4_monitor] Write Complete: ID=13, ADDR=0x10003cf8, RESP=OKAY, Latency=6 cycles
UVM_INFO sv/axi4_monitor.sv(296) @ 4876000: uvm_test_top.m_env.m_master_agent.m_monitor [axi4_monitor] Write Complete: ID=14, ADDR=0x10003d0c, RESP=OKAY, Latency=11 cycles
UVM_INFO sv/axi4_monitor.sv(296) @ 4885000: uvm_test_top.m_env.m_master_agent.m_monitor [axi4_monitor] Write Complete: ID=2, ADDR=0x10003d34, RESP=OKAY, Latency=8 cycles
UVM_INFO sv/axi4_monitor.sv(296) @ 4902000: uvm_test_top.m_env.m_master_agent.m_monitor [axi4_monitor] Write Complete: ID=14, ADDR=0x10003d50, RESP=OKAY, Latency=16 cycles
UVM_INFO sv/axi4_monitor.sv(296) @ 4908000: uvm_test_top.m_env.m_master_agent.m_monitor [axi4_monitor] Write Complete: ID=0, ADDR=0x10003d8c, RESP=OKAY, Latency=5 cycles
UVM_INFO sv/axi4_monitor.sv(296) @ 4911000: uvm_test_top.m_env.m_master_agent.m_monitor [axi4_monitor] Write Complete: ID=4, ADDR=0x10003d9c, RESP=OKAY, Latency=2 cycles
UVM_INFO sv/axi4_monitor.sv(296) @ 4916000: uvm_test_top.m_env.m_master_agent.m_monitor [axi4_monitor] Write Complete: ID=6, ADDR=0x10003da0, RESP=OKAY, Latency=4 cycles
UVM_INFO sv/axi4_monitor.sv(296) @ 4924000: uvm_test_top.m_env.m_master_agent.m_monitor [axi4_monitor] Write Complete: ID=6, ADDR=0x10003dac, RESP=OKAY, Latency=7 cycles
UVM_INFO sv/axi4_monitor.sv(296) @ 4938000: uvm_test_top.m_env.m_master_agent.m_monitor [axi4_monitor] Write Complete: ID=12, ADDR=0x10003dc4, RESP=OKAY, Latency=13 cycles
UVM_INFO sv/axi4_monitor.sv(296) @ 4941000: uvm_test_top.m_env.m_master_agent.m_monitor [axi4_monitor] Write Complete: ID=1, ADDR=0x10003df4, RESP=OKAY, Latency=2 cycles
UVM_INFO sv/axi4_monitor.sv(296) @ 4951000: uvm_test_top.m_env.m_master_agent.m_monitor [axi4_monitor] Write Complete: ID=0, ADDR=0x10003df8, RESP=OKAY, Latency=9 cycles
UVM_INFO sv/axi4_monitor.sv(296) @ 4954000: uvm_test_top.m_env.m_master_agent.m_monitor [axi4_monitor] Write Complete: ID=2, ADDR=0x10003e18, RESP=OKAY, Latency=2 cycles
UVM_INFO sv/axi4_monitor.sv(296) @ 4962000: uvm_test_top.m_env.m_master_agent.m_monitor [axi4_monitor] Write Complete: ID=4, ADDR=0x10003e1c, RESP=OKAY, Latency=7 cycles
UVM_INFO sv/axi4_monitor.sv(296) @ 4970000: uvm_test_top.m_env.m_master_agent.m_monitor [axi4_monitor] Write Complete: ID=3, ADDR=0x10003e34, RESP=OKAY, Latency=7 cycles
UVM_INFO sv/axi4_monitor.sv(296) @ 4978000: uvm_test_top.m_env.m_master_agent.m_monitor [axi4_monitor] Write Complete: ID=12, ADDR=0x10003e4c, RESP=OKAY, Latency=7 cycles
UVM_INFO sv/axi4_monitor.sv(296) @ 4990000: uvm_test_top.m_env.m_master_agent.m_monitor [axi4_monitor] Write Complete: ID=7, ADDR=0x10003e64, RESP=OKAY, Latency=11 cycles
UVM_INFO sv/axi4_monitor.sv(296) @ 5007000: uvm_test_top.m_env.m_master_agent.m_monitor [axi4_monitor] Write Complete: ID=1, ADDR=0x10003e8c, RESP=OKAY, Latency=16 cycles
UVM_INFO sv/axi4_monitor.sv(296) @ 5010000: uvm_test_top.m_env.m_master_agent.m_monitor [axi4_monitor] Write Complete: ID=9, ADDR=0x10003ec8, RESP=OKAY, Latency=2 cycles
UVM_INFO sv/axi4_monitor.sv(296) @ 5018000: uvm_test_top.m_env.m_master_agent.m_monitor [axi4_monitor] Write Complete: ID=1, ADDR=0x10003ecc, RESP=OKAY, Latency=7 cycles
UVM_INFO sv/axi4_monitor.sv(296) @ 5032000: uvm_test_top.m_env.m_master_agent.m_monitor [axi4_monitor] Write Complete: ID=6, ADDR=0x10003ee4, RESP=OKAY, Latency=13 cycles
UVM_INFO sv/axi4_monitor.sv(296) @ 5045000: uvm_test_top.m_env.m_master_agent.m_monitor [axi4_monitor] Write Complete: ID=14, ADDR=0x10003f14, RESP=OKAY, Latency=12 cycles
UVM_INFO sv/axi4_monitor.sv(296) @ 5055000: uvm_test_top.m_env.m_master_agent.m_monitor [axi4_monitor] Write Complete: ID=15, ADDR=0x10003f40, RESP=OKAY, Latency=9 cycles
UVM_INFO sv/axi4_monitor.sv(296) @ 5067000: uvm_test_top.m_env.m_master_agent.m_monitor [axi4_monitor] Write Complete: ID=8, ADDR=0x10003f60, RESP=OKAY, Latency=11 cycles
UVM_INFO sv/axi4_monitor.sv(296) @ 5071000: uvm_test_top.m_env.m_master_agent.m_monitor [axi4_monitor] Write Complete: ID=9, ADDR=0x10003f88, RESP=OKAY, Latency=3 cycles
UVM_INFO sv/axi4_monitor.sv(296) @ 5079000: uvm_test_top.m_env.m_master_agent.m_monitor [axi4_monitor] Write Complete: ID=10, ADDR=0x10003f90, RESP=OKAY, Latency=7 cycles
UVM_INFO sv/axi4_monitor.sv(296) @ 5091000: uvm_test_top.m_env.m_master_agent.m_monitor [axi4_monitor] Write Complete: ID=8, ADDR=0x10003fa8, RESP=OKAY, Latency=11 cycles
UVM_INFO sv/axi4_master_driver.sv(177) @ 5101000: uvm_test_top.m_env.m_master_agent.m_driver [axi4_master_driver] Splitting burst into 2 sub-bursts
UVM_INFO sv/axi4_monitor.sv(296) @ 5102000: uvm_test_top.m_env.m_master_agent.m_monitor [axi4_monitor] Write Complete: ID=7, ADDR=0x10003fd0, RESP=OKAY, Latency=10 cycles
UVM_INFO sv/axi4_monitor.sv(296) @ 5107000: uvm_test_top.m_env.m_master_agent.m_monitor [axi4_monitor] Write Complete: ID=10, ADDR=0x10003ff4, RESP=OKAY, Latency=4 cycles
UVM_INFO sv/axi4_monitor.sv(296) @ 5114000: uvm_test_top.m_env.m_master_agent.m_monitor [axi4_monitor] Write Complete: ID=11, ADDR=0x10004000, RESP=OKAY, Latency=7 cycles
UVM_INFO sv/axi4_monitor.sv(296) @ 5126000: uvm_test_top.m_env.m_master_agent.m_monitor [axi4_monitor] Write Complete: ID=5, ADDR=0x10004018, RESP=OKAY, Latency=11 cycles
UVM_INFO sv/axi4_monitor.sv(296) @ 5137000: uvm_test_top.m_env.m_master_agent.m_monitor [axi4_monitor] Write Complete: ID=9, ADDR=0x10004040, RESP=OKAY, Latency=10 cycles
UVM_INFO sv/seq_lib.sv(3618) @ 5141000: uvm_test_top.m_env.m_master_agent.m_sequencer@@seq [axi4_long_time_sequence] Write progress: 500/500 transactions
UVM_INFO sv/seq_lib.sv(3624) @ 5141000: uvm_test_top.m_env.m_master_agent.m_sequencer@@seq [axi4_long_time_sequence] Write phase completed: 500 transactions sent
UVM_INFO sv/seq_lib.sv(3630) @ 5141000: uvm_test_top.m_env.m_master_agent.m_sequencer@@seq [axi4_long_time_sequence] === Phase 2: READ-back and verification ===
UVM_INFO sv/axi4_monitor.sv(296) @ 5143000: uvm_test_top.m_env.m_master_agent.m_monitor [axi4_monitor] Write Complete: ID=8, ADDR=0x10004064, RESP=OKAY, Latency=5 cycles
UVM_INFO sv/axi4_monitor.sv(413) @ 5145000: uvm_test_top.m_env.m_master_agent.m_monitor [axi4_monitor] Read Complete: ID=4, ADDR=0x10000000, RESP=OKAY, Latency=1 cycles
UVM_INFO sv/axi4_monitor.sv(413) @ 5154000: uvm_test_top.m_env.m_master_agent.m_monitor [axi4_monitor] Read Complete: ID=10, ADDR=0x10000004, RESP=OKAY, Latency=6 cycles
UVM_INFO sv/axi4_monitor.sv(413) @ 5161000: uvm_test_top.m_env.m_master_agent.m_monitor [axi4_monitor] Read Complete: ID=12, ADDR=0x1000001c, RESP=OKAY, Latency=4 cycles
UVM_INFO sv/axi4_monitor.sv(413) @ 5178000: uvm_test_top.m_env.m_master_agent.m_monitor [axi4_monitor] Read Complete: ID=10, ADDR=0x1000002c, RESP=OKAY, Latency=14 cycles
UVM_INFO sv/axi4_monitor.sv(413) @ 5190000: uvm_test_top.m_env.m_master_agent.m_monitor [axi4_monitor] Read Complete: ID=15, ADDR=0x10000064, RESP=OKAY, Latency=9 cycles
UVM_INFO sv/axi4_monitor.sv(413) @ 5198000: uvm_test_top.m_env.m_master_agent.m_monitor [axi4_monitor] Read Complete: ID=14, ADDR=0x10000088, RESP=OKAY, Latency=5 cycles
UVM_INFO sv/axi4_monitor.sv(413) @ 5205000: uvm_test_top.m_env.m_master_agent.m_monitor [axi4_monitor] Read Complete: ID=8, ADDR=0x1000009c, RESP=OKAY, Latency=4 cycles
UVM_INFO sv/axi4_monitor.sv(413) @ 5223000: uvm_test_top.m_env.m_master_agent.m_monitor [axi4_monitor] Read Complete: ID=10, ADDR=0x100000ac, RESP=OKAY, Latency=15 cycles
UVM_INFO sv/axi4_monitor.sv(413) @ 5242000: uvm_test_top.m_env.m_master_agent.m_monitor [axi4_monitor] Read Complete: ID=9, ADDR=0x100000e8, RESP=OKAY, Latency=16 cycles
UVM_INFO sv/axi4_monitor.sv(413) @ 5259000: uvm_test_top.m_env.m_master_agent.m_monitor [axi4_monitor] Read Complete: ID=5, ADDR=0x10000128, RESP=OKAY, Latency=14 cycles
UVM_INFO sv/axi4_monitor.sv(413) @ 5263000: uvm_test_top.m_env.m_master_agent.m_monitor [axi4_monitor] Read Complete: ID=5, ADDR=0x10000160, RESP=OKAY, Latency=1 cycles
UVM_INFO sv/axi4_monitor.sv(413) @ 5282000: uvm_test_top.m_env.m_master_agent.m_monitor [axi4_monitor] Read Complete: ID=7, ADDR=0x10000164, RESP=OKAY, Latency=16 cycles
UVM_INFO sv/axi4_monitor.sv(413) @ 5292000: uvm_test_top.m_env.m_master_agent.m_monitor [axi4_monitor] Read Complete: ID=5, ADDR=0x100001a4, RESP=OKAY, Latency=7 cycles
UVM_INFO sv/axi4_monitor.sv(413) @ 5311000: uvm_test_top.m_env.m_master_agent.m_monitor [axi4_monitor] Read Complete: ID=9, ADDR=0x100001c0, RESP=OKAY, Latency=16 cycles
UVM_INFO sv/axi4_monitor.sv(413) @ 5327000: uvm_test_top.m_env.m_master_agent.m_monitor [axi4_monitor] Read Complete: ID=6, ADDR=0x10000200, RESP=OKAY, Latency=13 cycles
UVM_INFO sv/axi4_monitor.sv(413) @ 5337000: uvm_test_top.m_env.m_master_agent.m_monitor [axi4_monitor] Read Complete: ID=7, ADDR=0x10000234, RESP=OKAY, Latency=7 cycles
UVM_INFO sv/axi4_monitor.sv(413) @ 5346000: uvm_test_top.m_env.m_master_agent.m_monitor [axi4_monitor] Read Complete: ID=5, ADDR=0x10000250, RESP=OKAY, Latency=6 cycles
UVM_INFO sv/axi4_monitor.sv(413) @ 5355000: uvm_test_top.m_env.m_master_agent.m_monitor [axi4_monitor] Read Complete: ID=6, ADDR=0x10000268, RESP=OKAY, Latency=6 cycles
UVM_INFO sv/axi4_monitor.sv(413) @ 5372000: uvm_test_top.m_env.m_master_agent.m_monitor [axi4_monitor] Read Complete: ID=15, ADDR=0x10000280, RESP=OKAY, Latency=14 cycles
UVM_INFO sv/axi4_monitor.sv(413) @ 5379000: uvm_test_top.m_env.m_master_agent.m_monitor [axi4_monitor] Read Complete: ID=2, ADDR=0x100002b8, RESP=OKAY, Latency=4 cycles
UVM_INFO sv/axi4_monitor.sv(413) @ 5384000: uvm_test_top.m_env.m_master_agent.m_monitor [axi4_monitor] Read Complete: ID=13, ADDR=0x100002c8, RESP=OKAY, Latency=2 cycles
UVM_INFO sv/axi4_monitor.sv(413) @ 5398000: uvm_test_top.m_env.m_master_agent.m_monitor [axi4_monitor] Read Complete: ID=14, ADDR=0x100002d0, RESP=OKAY, Latency=11 cycles
UVM_INFO sv/axi4_monitor.sv(413) @ 5410000: uvm_test_top.m_env.m_master_agent.m_monitor [axi4_monitor] Read Complete: ID=9, ADDR=0x100002fc, RESP=OKAY, Latency=9 cycles
UVM_INFO sv/axi4_monitor.sv(413) @ 5415000: uvm_test_top.m_env.m_master_agent.m_monitor [axi4_monitor] Read Complete: ID=5, ADDR=0x10000320, RESP=OKAY, Latency=2 cycles
UVM_INFO sv/axi4_monitor.sv(413) @ 5429000: uvm_test_top.m_env.m_master_agent.m_monitor [axi4_monitor] Read Complete: ID=6, ADDR=0x10000328, RESP=OKAY, Latency=11 cycles
UVM_INFO sv/axi4_monitor.sv(413) @ 5447000: uvm_test_top.m_env.m_master_agent.m_monitor [axi4_monitor] Read Complete: ID=14, ADDR=0x10000354, RESP=OKAY, Latency=15 cycles
UVM_INFO sv/axi4_monitor.sv(413) @ 5452000: uvm_test_top.m_env.m_master_agent.m_monitor [axi4_monitor] Read Complete: ID=10, ADDR=0x10000390, RESP=OKAY, Latency=2 cycles
UVM_INFO sv/axi4_monitor.sv(413) @ 5459000: uvm_test_top.m_env.m_master_agent.m_monitor [axi4_monitor] Read Complete: ID=3, ADDR=0x10000398, RESP=OKAY, Latency=4 cycles
UVM_INFO sv/axi4_monitor.sv(413) @ 5465000: uvm_test_top.m_env.m_master_agent.m_monitor [axi4_monitor] Read Complete: ID=9, ADDR=0x100003a8, RESP=OKAY, Latency=3 cycles
UVM_INFO sv/axi4_monitor.sv(413) @ 5484000: uvm_test_top.m_env.m_master_agent.m_monitor [axi4_monitor] Read Complete: ID=9, ADDR=0x100003b4, RESP=OKAY, Latency=16 cycles
UVM_INFO sv/axi4_monitor.sv(413) @ 5491000: uvm_test_top.m_env.m_master_agent.m_monitor [axi4_monitor] Read Complete: ID=12, ADDR=0x100003f4, RESP=OKAY, Latency=4 cycles
UVM_INFO sv/axi4_monitor.sv(413) @ 5501000: uvm_test_top.m_env.m_master_agent.m_monitor [axi4_monitor] Read Complete: ID=0, ADDR=0x10000404, RESP=OKAY, Latency=7 cycles
UVM_INFO sv/axi4_monitor.sv(413) @ 5516000: uvm_test_top.m_env.m_master_agent.m_monitor [axi4_monitor] Read Complete: ID=9, ADDR=0x10000420, RESP=OKAY, Latency=12 cycles
UVM_INFO sv/axi4_monitor.sv(413) @ 5527000: uvm_test_top.m_env.m_master_agent.m_monitor [axi4_monitor] Read Complete: ID=1, ADDR=0x10000450, RESP=OKAY, Latency=8 cycles
UVM_INFO sv/axi4_monitor.sv(413) @ 5532000: uvm_test_top.m_env.m_master_agent.m_monitor [axi4_monitor] Read Complete: ID=4, ADDR=0x10000470, RESP=OKAY, Latency=2 cycles
UVM_INFO sv/axi4_monitor.sv(413) @ 5538000: uvm_test_top.m_env.m_master_agent.m_monitor [axi4_monitor] Read Complete: ID=4, ADDR=0x10000478, RESP=OKAY, Latency=3 cycles
UVM_INFO sv/axi4_monitor.sv(413) @ 5550000: uvm_test_top.m_env.m_master_agent.m_monitor [axi4_monitor] Read Complete: ID=12, ADDR=0x10000484, RESP=OKAY, Latency=9 cycles
UVM_INFO sv/axi4_monitor.sv(413) @ 5558000: uvm_test_top.m_env.m_master_agent.m_monitor [axi4_monitor] Read Complete: ID=5, ADDR=0x100004a8, RESP=OKAY, Latency=5 cycles
