Command: /home/xingchangchang/ai_evaluation/claude_code/axi4_vip/ai_cc_glm5_axi4_vip/simv_axi4_data_first_test +UVM_TESTNAME=axi4_data_first_test +UVM_VERBOSITY=UVM_MEDIUM +ntb_random_seed=1 -sml=verdi +UVM_VERDI_TRACE=UVM_AWARE +fsdb+gate=off -ucli2Proc -ucli -l /home/xingchangchang/ai_evaluation/claude_code/axi4_vip/ai_cc_glm5_axi4_vip/verdiLog/sim.log
Chronologic VCS simulator copyright 1991-2018
Contains Synopsys proprietary information.
Compiler version O-2018.09-SP2_Full64; Runtime version O-2018.09-SP2_Full64;  Apr  9 16:24 2026
<slp!&*()_+>
UVM_INFO /home/xingchangchang/ProgramFiles/vcs_verdi2018/synopsys/vcs_201809/vcs/O-2018.09-SP2/etc/uvm-1.2/base/uvm_root.svh(402) @ 0: reporter [UVM/RELNOTES] 
----------------------------------------------------------------
UVM-1.2.Synopsys
(C) 2007-2014 Mentor Graphics Corporation
(C) 2007-2014 Cadence Design Systems, Inc.
(C) 2006-2014 Synopsys, Inc.
(C) 2011-2013 Cypress Semiconductor Corp.
(C) 2013-2014 NVIDIA Corporation
----------------------------------------------------------------
  ***********       IMPORTANT RELEASE NOTES         ************
  You are using a version of the UVM library that has been compiled
  with `UVM_NO_DEPRECATED undefined.
  See http://www.eda.org/svdb/view.php?id=3313 for more details.
  You are using a version of the UVM library that has been compiled
  with `UVM_OBJECT_DO_NOT_NEED_CONSTRUCTOR undefined.
  See http://www.eda.org/svdb/view.php?id=3770 for more details.
      (Specify +UVM_NO_RELNOTES to turn off this notice)
<slb!&*()_+>---<sls!&*()_+>loc: -1<sls!&*()_+>src: /home/xingchangchang/ProgramFiles/vcs_verdi2018/synopsys/vcs_201809/vcs/O-2018.09-SP2/etc/uvm-1.2/base/uvm_root.svh<sls!&*()_+>line: 402<sls!&*()_+>time: 0 ps<sls!&*()_+>length: 0<sls!&*()_+>...<sls!&*()_+><sle!&*()_+>

ucli% synUtils::getArch
linux64
ucli% loaddl -simv /home/xingchangchang/ProgramFiles/vcs_verdi2018/synopsys/verdi_201809/verdi/Verdi_O-2018.09-SP2/share/PLI/VCS/LINUXAMD64/libnovas.so LoadFSDBDumpCmd;LoadFSDBDumpCmd
LoadFSDBDumpCmd success
ucli% config ckptfsdbcheck off;config endofsim noexit;config onfail {enable all};config followactivescope on;catch {setUcliVerdiConnected};set watch::resultTagsForVerdiBP {<ucli_break_bp_status_begin> <ucli_break_bp_status_end>};cbug::config pretty_print auto;fsdbDumpfile {/home/xingchangchang/ai_evaluation/claude_code/axi4_vip/ai_cc_glm5_axi4_vip/inter.fsdb} ;fsdbDumpflush ; 
*Verdi* Loading libsscore_vcs201809.so
FSDB Dumper for VCS, Release Verdi_O-2018.09-SP2, Linux x86_64/64bit, 02/21/2019
(C) 1996 - 2019 by Synopsys, Inc.
*Verdi* : Create FSDB file '/home/xingchangchang/ai_evaluation/claude_code/axi4_vip/ai_cc_glm5_axi4_vip/inter.fsdb'
*Verdi* : Flush all FSDB Files at 0 ps.

ucli% sps_interactive
*Verdi* : Enable RPC Server(180609)

ucli% ucliCore::getToolPID
180609
ucli% ucliCore::getToolPID
180609
ucli% if {[catch {ucliCore::setFocus tool}]} {}

ucli% puts $ucliCore::nativeUcliMode
0

ucli% ucliCore::getToolTopPID
180609
ucli% pid
180616
ucli% synUtils::sendTool -active {_icl_createSharedMemory /tmp/vcs_dve_general.xingchangchang.180609 }

ucli% if { [info vars watch::vcbp_str_len_limit_of_get_value] != ""} {set watch::vcbp_str_len_limit_of_get_value 1024}
1024
ucli% info command stateVerdiChangeCB

ucli% proc stateVerdiChangeCB args { if {$ucliGUI::state eq "terminated"} {puts "\nVERDI_SIM_Terminated\n";catch {setVerdiSimTerminated}}}

ucli% trace variable ucliGUI::state wu stateVerdiChangeCB

ucli% if {[catch {rename synopsys::restore verdiHack::restore} ]} {puts "0"}

ucli% proc synopsys::restore {args} { verdiHack::restore $args; puts "\nVERDI_SIM_RESTORE\n"}

ucli% if {[catch {rename quit verdiHack::quit} ]} {puts "0"}

ucli% proc quit {args} { if {[string length $args] == 0} { verdiHack::quit; } elseif {([string equal "-h" $args] == 1)||([string equal "-he" $args] == 1)||([string equal "-hel" $args] == 1)||([string equal "-help" $args] == 1)} { puts "\n quit           # Exit the simulation.\n \[-noprompt\]        (Exit the simulation and Verdi.)\n"} elseif {([string equal "-n" $args] == 1)||([string equal "-no" $args] == 1)||([string equal "-nop" $args] == 1)||([string equal "-nopr" $args] == 1)||([string equal "-nopro" $args] == 1)||([string equal "-noprom" $args] == 1)||([string equal "-nopromp" $args] == 1)||([string equal "-noprompt" $args] == 1)} { puts "\nVERDI_EXIT_N\n" } else { verdiHack::quit $args; } }

ucli% if {[catch {rename exit verdiHack::exit} ]} {puts "0"}

ucli% proc exit {args} { if {[string length $args] == 0} { verdiHack::exit; } elseif {([string equal "-h" $args] == 1)||([string equal "-he" $args] == 1)||([string equal "-hel" $args] == 1)||([string equal "-help" $args] == 1)} { puts "\n exit           # Exit the simulation.\n \[-noprompt\]        (Exit the simulation and Verdi.)\n"} elseif {([string equal "-n" $args] == 1)||([string equal "-no" $args] == 1)||([string equal "-nop" $args] == 1)||([string equal "-nopr" $args] == 1)||([string equal "-nopro" $args] == 1)||([string equal "-noprom" $args] == 1)||([string equal "-nopromp" $args] == 1)||([string equal "-noprompt" $args] == 1)} { puts "\nVERDI_EXIT_N\n" } else { verdiHack::exit $args; } }

ucli% proc checkpoint::beforeRecreate {} { sps_interactive }

ucli% if {[catch {ucliCore::setFocus tool}]} {}

ucli% save::getUserdefinedProcs
::stateVerdiChangeCB ::LoadFSDBDumpCmd
ucli% info procs
ipi_get_str fsdbDumpMDAByFile fsdbDumpMDA echo fsdbDumpMemNow fsdbAutoSwitchDumpfile unknown sps_interactive auto_import stat fsdbDumpfile setenv auto_execok pkg_mkIndex stateVerdiChangeCB fsdbDumpSingle proc_body ipi_begin fsdbDumpoff getenv fsdbDumplimit fsdbDumpPattern ipi_handle fsdbDumpvarsByFile fsdbDumpMDAInScope lminus ipi_sim_get interp ls auto_load_index proc_args fsdbAddRuntimeSignal fsdbDumpSC print_message_info ridbDump fsdbDumpSVAoff fsdbSuppress fsdbDumpvars help fsdbDumpMDAOnChange ipi_control auto_qualify fsdbDumpMem tclPkgUnknown printenv ipi_handle_by_name helpdoc fsdbDumpMemInScope fsdbDumpFinish is_true fsdbDumpon sh fsdbQueryInfo puts LoadFSDBDumpCmd fsdbDumpPSL fsdbDumpSVA ipi_end wrapperSpecmanSn fsdbDumpSVAon fsdbDumpClassObjectByFile is_false auto_load fsdbDumpPSLon ipi_get_int64 fsdbSubstituteHier ipi_get_value ipi_iterate exit fsdbDumpMemInFile tclLog fsdbDumpflush get_unix_variable mem_debug ipi_scan fsdbDumpPSLoff fsdbDumpClassObject fsdbDumpvarsToFile set_unix_variable bgerror fsdbDumpStrength clock add_group fsdbSwitchDumpfile source add_wave unsetenv fsdbDumpvarsES readline fsdbDisplay ipi_handle_free set_group ipi_get quit define_proc_attributes tclPkgSetup fsdbDumpMDANow ipi_init_play_tcl fsdbDumpIO
ucli% lappend ucliCore::resultTagsForVerdi <?special_verdi_begin?> <?special_verdi_end?>
<?special_verdi_begin?> <?special_verdi_end?>
ucli% if {[catch {ucliCore::setFocus tool}]} {}

ucli% fsdbDumpflush 
*Verdi* : Flush all FSDB Files at 0 ps.

ucli% senv
activeDomain: Verilog
activeFile: /home/xingchangchang/ProgramFiles/vcs_verdi2018/synopsys/vcs_201809/vcs/O-2018.09-SP2/etc/uvm-1.2/verdi/uvm_custom_install_verdi_recorder.sv
activeFrame: -1
activeLine: 46
activeScope: uvm_custom_install_verdi_recording
activeThread: 0
endCol: 0
file: /home/xingchangchang/ProgramFiles/vcs_verdi2018/synopsys/vcs_201809/vcs/O-2018.09-SP2/etc/uvm-1.2/verdi/uvm_custom_install_verdi_recorder.sv
frame: -1
fsdbFilename: 
hasTB: 1
inputFilename: 
keyFilename: ucli.key
line: 46
logFilename: /home/xingchangchang/ai_evaluation/claude_code/axi4_vip/ai_cc_glm5_axi4_vip/verdiLog/sim.log
macroIndex: -1
macroOffset: -1
pid: 180609
scope: uvm_custom_install_verdi_recording
startCol: 0
state: stopped
thread: 0
time: 0
timePrecision: 1 ps
vcdFilename: 
vpdFilename:
ucli% puts $::ucliCore::cbug_active
0

ucli% if {[catch {ucliCore::setFocus tool}]} {}

ucli% checkpoint -list -all
There are no checkpoints present.
ucli% stop
No stop points are set
ucli% if {[catch {ucliCore::setFocus tool}]} {}

ucli% run
<slp!&*()_+>
*Verdi* Enable Verdi Message Catcher.
<slb!&*()_+>---<sls!&*()_+>loc: -1<sls!&*()_+>src: /home/xingchangchang/ProgramFiles/vcs_verdi2018/synopsys/vcs_201809/vcs/O-2018.09-SP2/etc/uvm-1.2/verdi/uvm_verdi_message_catcher.svh<sls!&*()_+>line: 348<sls!&*()_+>time: 0 ps<sls!&*()_+>length: 0<sls!&*()_+>...<sls!&*()_+><sle!&*()_+>
*Verdi* : Begin traversing the scope (axi4_tb_top), layer (0).
*Verdi* : End of traversing.
<slp!&*()_+>
*Verdi* Enable Verdi Factory Dumping.
<slb!&*()_+>---<sls!&*()_+>loc: -1<sls!&*()_+>src: /home/xingchangchang/ProgramFiles/vcs_verdi2018/synopsys/vcs_201809/vcs/O-2018.09-SP2/etc/uvm-1.2/verdi/uvm_verdi_factory.svh<sls!&*()_+>line: 166<sls!&*()_+>time: 0 ps<sls!&*()_+>length: 0<sls!&*()_+>...<sls!&*()_+><sle!&*()_+>
<slp!&*()_+>
UVM_INFO @ 0: reporter [RNTST] Running test axi4_data_first_test...
<slb!&*()_+>---<sls!&*()_+>loc: -1<sls!&*()_+>src: /home/xingchangchang/ProgramFiles/vcs_verdi2018/synopsys/vcs_201809/vcs/O-2018.09-SP2/etc/uvm-1.2/base/uvm_root.svh<sls!&*()_+>line: 504<sls!&*()_+>time: 0 ps<sls!&*()_+>length: 0<sls!&*()_+>...<sls!&*()_+><sle!&*()_+>
<slp!&*()_+>
UVM_INFO sv/test_lib.sv(757) @ 0: uvm_test_top [axi4_data_first_test] Data-before-addr mode ENABLED with OSD=4
<slb!&*()_+>---<sls!&*()_+>loc: -1<sls!&*()_+>src: sv/test_lib.sv<sls!&*()_+>line: 757<sls!&*()_+>time: 0 ps<sls!&*()_+>length: 0<sls!&*()_+>...<sls!&*()_+><sle!&*()_+>
<slp!&*()_+>
UVM_INFO sv/axi4_env.sv(58) @ 0: uvm_test_top.m_env [axi4_env] AXI4 VIP Topology:
<slb!&*()_+>---<sls!&*()_+>loc: -1<sls!&*()_+>src: sv/axi4_env.sv<sls!&*()_+>line: 58<sls!&*()_+>time: 0 ps<sls!&*()_+>length: 0<sls!&*()_+>...<sls!&*()_+><sle!&*()_+>
<slp!&*()_+>
UVM_INFO /home/xingchangchang/ProgramFiles/vcs_verdi2018/synopsys/vcs_201809/vcs/O-2018.09-SP2/etc/uvm-1.2/base/uvm_root.svh(589) @ 0: reporter [UVMTOP] UVM testbench topology:
--------------------------------------------------------------
Name                       Type                    Size  Value
--------------------------------------------------------------
DHIER_COMP                 uvm_dhier_component     -     @339 
uvm_test_top               axi4_data_first_test    -     @358 
  m_env                    axi4_env                -     @408 
    m_ap                   uvm_analysis_port       -     @439 
    m_master_agent         axi4_master_agent       -     @426 
      m_ap                 uvm_analysis_port       -     @748 
      m_driver             axi4_master_driver      -     @488 
        rsp_port           uvm_analysis_port       -     @517 
        seq_item_port      uvm_seq_item_pull_port  -     @501 
      m_monitor            axi4_monitor            -     @459 
        m_ap               uvm_analysis_port       -     @472 
      m_sequencer          axi4_sequencer          -     @533 
        rsp_export         uvm_analysis_export     -     @546 
        seq_item_export    uvm_seq_item_pull_imp   -     @732 
        arbitration_queue  array                   0     -    
        lock_queue         array                   0     -    
        num_last_reqs      integral                32    'd1  
        num_last_rsps      integral                32    'd1  
--------------------------------------------------------------

<slb!&*()_+>---<sls!&*()_+>loc: -1<sls!&*()_+>src: /home/xingchangchang/ProgramFiles/vcs_verdi2018/synopsys/vcs_201809/vcs/O-2018.09-SP2/etc/uvm-1.2/base/uvm_root.svh<sls!&*()_+>line: 589<sls!&*()_+>time: 0 ps<sls!&*()_+>length: 0<sls!&*()_+>...<sls!&*()_+><sle!&*()_+>
<slp!&*()_+>
UVM_INFO sv/test_lib.sv(766) @ 0: uvm_test_top [axi4_data_first_test] ===========================================
<slb!&*()_+>---<sls!&*()_+>loc: -1<sls!&*()_+>src: sv/test_lib.sv<sls!&*()_+>line: 766<sls!&*()_+>time: 0 ps<sls!&*()_+>length: 0<sls!&*()_+>...<sls!&*()_+><sle!&*()_+>
<slp!&*()_+>
UVM_INFO sv/test_lib.sv(767) @ 0: uvm_test_top [axi4_data_first_test]        AXI4 DATA FIRST TEST
<slb!&*()_+>---<sls!&*()_+>loc: -1<sls!&*()_+>src: sv/test_lib.sv<sls!&*()_+>line: 767<sls!&*()_+>time: 0 ps<sls!&*()_+>length: 0<sls!&*()_+>...<sls!&*()_+><sle!&*()_+>
<slp!&*()_+>
UVM_INFO sv/test_lib.sv(768) @ 0: uvm_test_top [axi4_data_first_test] ===========================================
<slb!&*()_+>---<sls!&*()_+>loc: -1<sls!&*()_+>src: sv/test_lib.sv<sls!&*()_+>line: 768<sls!&*()_+>time: 0 ps<sls!&*()_+>length: 0<sls!&*()_+>...<sls!&*()_+><sle!&*()_+>
<slp!&*()_+>
UVM_INFO sv/test_lib.sv(769) @ 0: uvm_test_top [axi4_data_first_test] Test Configuration:
<slb!&*()_+>---<sls!&*()_+>loc: -1<sls!&*()_+>src: sv/test_lib.sv<sls!&*()_+>line: 769<sls!&*()_+>time: 0 ps<sls!&*()_+>length: 0<sls!&*()_+>...<sls!&*()_+><sle!&*()_+>
<slp!&*()_+>
UVM_INFO sv/test_lib.sv(770) @ 0: uvm_test_top [axi4_data_first_test]   - Burst Length: random [1:16] beats
<slb!&*()_+>---<sls!&*()_+>loc: -1<sls!&*()_+>src: sv/test_lib.sv<sls!&*()_+>line: 770<sls!&*()_+>time: 0 ps<sls!&*()_+>length: 0<sls!&*()_+>...<sls!&*()_+><sle!&*()_+>
<slp!&*()_+>
UVM_INFO sv/test_lib.sv(771) @ 0: uvm_test_top [axi4_data_first_test]   - Transfer Size: 4 bytes (SIZE=2)
<slb!&*()_+>---<sls!&*()_+>loc: -1<sls!&*()_+>src: sv/test_lib.sv<sls!&*()_+>line: 771<sls!&*()_+>time: 0 ps<sls!&*()_+>length: 0<sls!&*()_+>...<sls!&*()_+><sle!&*()_+>
<slp!&*()_+>
UVM_INFO sv/test_lib.sv(772) @ 0: uvm_test_top [axi4_data_first_test]   - Burst Type: INCR
<slb!&*()_+>---<sls!&*()_+>loc: -1<sls!&*()_+>src: sv/test_lib.sv<sls!&*()_+>line: 772<sls!&*()_+>time: 0 ps<sls!&*()_+>length: 0<sls!&*()_+>...<sls!&*()_+><sle!&*()_+>
<slp!&*()_+>
UVM_INFO sv/test_lib.sv(773) @ 0: uvm_test_top [axi4_data_first_test]   - Start Address: 0x1000_0000 (aligned)
<slb!&*()_+>---<sls!&*()_+>loc: -1<sls!&*()_+>src: sv/test_lib.sv<sls!&*()_+>line: 773<sls!&*()_+>time: 0 ps<sls!&*()_+>length: 0<sls!&*()_+>...<sls!&*()_+><sle!&*()_+>
<slp!&*()_+>
UVM_INFO sv/test_lib.sv(774) @ 0: uvm_test_top [axi4_data_first_test]   - Number of Transactions: 500
<slb!&*()_+>---<sls!&*()_+>loc: -1<sls!&*()_+>src: sv/test_lib.sv<sls!&*()_+>line: 774<sls!&*()_+>time: 0 ps<sls!&*()_+>length: 0<sls!&*()_+>...<sls!&*()_+><sle!&*()_+>
<slp!&*()_+>
UVM_INFO sv/test_lib.sv(775) @ 0: uvm_test_top [axi4_data_first_test]   - Data Before Addr: ENABLED
<slb!&*()_+>---<sls!&*()_+>loc: -1<sls!&*()_+>src: sv/test_lib.sv<sls!&*()_+>line: 775<sls!&*()_+>time: 0 ps<sls!&*()_+>length: 0<sls!&*()_+>...<sls!&*()_+><sle!&*()_+>
<slp!&*()_+>
UVM_INFO sv/test_lib.sv(776) @ 0: uvm_test_top [axi4_data_first_test]   - Data Before Addr OSD: 4
<slb!&*()_+>---<sls!&*()_+>loc: -1<sls!&*()_+>src: sv/test_lib.sv<sls!&*()_+>line: 776<sls!&*()_+>time: 0 ps<sls!&*()_+>length: 0<sls!&*()_+>...<sls!&*()_+><sle!&*()_+>
<slp!&*()_+>
UVM_INFO sv/test_lib.sv(777) @ 0: uvm_test_top [axi4_data_first_test] ===========================================
<slb!&*()_+>---<sls!&*()_+>loc: -1<sls!&*()_+>src: sv/test_lib.sv<sls!&*()_+>line: 777<sls!&*()_+>time: 0 ps<sls!&*()_+>length: 0<sls!&*()_+>...<sls!&*()_+><sle!&*()_+>
<slp!&*()_+>
UVM_INFO sv/seq_lib.sv(3347) @ 0: uvm_test_top.m_env.m_master_agent.m_sequencer@@seq [axi4_data_first_sequence] ===========================================
<slb!&*()_+>---<sls!&*()_+>loc: -1<sls!&*()_+>src: /home/xingchangchang/ProgramFiles/vcs_verdi2018/synopsys/vcs_201809/vcs/O-2018.09-SP2/etc/uvm-1.2/seq/uvm_sequence_item.svh<sls!&*()_+>line: 439<sls!&*()_+>time: 0 ps<sls!&*()_+>length: 0<sls!&*()_+>...<sls!&*()_+><sle!&*()_+>
<slp!&*()_+>
UVM_INFO sv/seq_lib.sv(3348) @ 0: uvm_test_top.m_env.m_master_agent.m_sequencer@@seq [axi4_data_first_sequence]        DATA FIRST TEST SEQUENCE
<slb!&*()_+>---<sls!&*()_+>loc: -1<sls!&*()_+>src: /home/xingchangchang/ProgramFiles/vcs_verdi2018/synopsys/vcs_201809/vcs/O-2018.09-SP2/etc/uvm-1.2/seq/uvm_sequence_item.svh<sls!&*()_+>line: 439<sls!&*()_+>time: 0 ps<sls!&*()_+>length: 0<sls!&*()_+>...<sls!&*()_+><sle!&*()_+>
<slp!&*()_+>
UVM_INFO sv/seq_lib.sv(3349) @ 0: uvm_test_top.m_env.m_master_agent.m_sequencer@@seq [axi4_data_first_sequence] ===========================================
<slb!&*()_+>---<sls!&*()_+>loc: -1<sls!&*()_+>src: /home/xingchangchang/ProgramFiles/vcs_verdi2018/synopsys/vcs_201809/vcs/O-2018.09-SP2/etc/uvm-1.2/seq/uvm_sequence_item.svh<sls!&*()_+>line: 439<sls!&*()_+>time: 0 ps<sls!&*()_+>length: 0<sls!&*()_+>...<sls!&*()_+><sle!&*()_+>
<slp!&*()_+>
UVM_INFO sv/seq_lib.sv(3350) @ 0: uvm_test_top.m_env.m_master_agent.m_sequencer@@seq [axi4_data_first_sequence] Test Configuration:
<slb!&*()_+>---<sls!&*()_+>loc: -1<sls!&*()_+>src: /home/xingchangchang/ProgramFiles/vcs_verdi2018/synopsys/vcs_201809/vcs/O-2018.09-SP2/etc/uvm-1.2/seq/uvm_sequence_item.svh<sls!&*()_+>line: 439<sls!&*()_+>time: 0 ps<sls!&*()_+>length: 0<sls!&*()_+>...<sls!&*()_+><sle!&*()_+>
<slp!&*()_+>
UVM_INFO sv/seq_lib.sv(3351) @ 0: uvm_test_top.m_env.m_master_agent.m_sequencer@@seq [axi4_data_first_sequence]   - Burst Length: random [1:16] beats
<slb!&*()_+>---<sls!&*()_+>loc: -1<sls!&*()_+>src: /home/xingchangchang/ProgramFiles/vcs_verdi2018/synopsys/vcs_201809/vcs/O-2018.09-SP2/etc/uvm-1.2/seq/uvm_sequence_item.svh<sls!&*()_+>line: 439<sls!&*()_+>time: 0 ps<sls!&*()_+>length: 0<sls!&*()_+>...<sls!&*()_+><sle!&*()_+>
<slp!&*()_+>
UVM_INFO sv/seq_lib.sv(3353) @ 0: uvm_test_top.m_env.m_master_agent.m_sequencer@@seq [axi4_data_first_sequence]   - Transfer Size: 4 bytes (SIZE=2)
<slb!&*()_+>---<sls!&*()_+>loc: -1<sls!&*()_+>src: /home/xingchangchang/ProgramFiles/vcs_verdi2018/synopsys/vcs_201809/vcs/O-2018.09-SP2/etc/uvm-1.2/seq/uvm_sequence_item.svh<sls!&*()_+>line: 439<sls!&*()_+>time: 0 ps<sls!&*()_+>length: 0<sls!&*()_+>...<sls!&*()_+><sle!&*()_+>
<slp!&*()_+>
UVM_INFO sv/seq_lib.sv(3355) @ 0: uvm_test_top.m_env.m_master_agent.m_sequencer@@seq [axi4_data_first_sequence]   - Burst Type: INCR
<slb!&*()_+>---<sls!&*()_+>loc: -1<sls!&*()_+>src: /home/xingchangchang/ProgramFiles/vcs_verdi2018/synopsys/vcs_201809/vcs/O-2018.09-SP2/etc/uvm-1.2/seq/uvm_sequence_item.svh<sls!&*()_+>line: 439<sls!&*()_+>time: 0 ps<sls!&*()_+>length: 0<sls!&*()_+>...<sls!&*()_+><sle!&*()_+>
<slp!&*()_+>
UVM_INFO sv/seq_lib.sv(3357) @ 0: uvm_test_top.m_env.m_master_agent.m_sequencer@@seq [axi4_data_first_sequence]   - Start Address: 0x10000000 (aligned)
<slb!&*()_+>---<sls!&*()_+>loc: -1<sls!&*()_+>src: /home/xingchangchang/ProgramFiles/vcs_verdi2018/synopsys/vcs_201809/vcs/O-2018.09-SP2/etc/uvm-1.2/seq/uvm_sequence_item.svh<sls!&*()_+>line: 439<sls!&*()_+>time: 0 ps<sls!&*()_+>length: 0<sls!&*()_+>...<sls!&*()_+><sle!&*()_+>
<slp!&*()_+>
UVM_INFO sv/seq_lib.sv(3359) @ 0: uvm_test_top.m_env.m_master_agent.m_sequencer@@seq [axi4_data_first_sequence]   - Number of Transactions: 500
<slb!&*()_+>---<sls!&*()_+>loc: -1<sls!&*()_+>src: /home/xingchangchang/ProgramFiles/vcs_verdi2018/synopsys/vcs_201809/vcs/O-2018.09-SP2/etc/uvm-1.2/seq/uvm_sequence_item.svh<sls!&*()_+>line: 439<sls!&*()_+>time: 0 ps<sls!&*()_+>length: 0<sls!&*()_+>...<sls!&*()_+><sle!&*()_+>
<slp!&*()_+>
UVM_INFO sv/seq_lib.sv(3361) @ 0: uvm_test_top.m_env.m_master_agent.m_sequencer@@seq [axi4_data_first_sequence]   - Data Before Addr: ENABLED
<slb!&*()_+>---<sls!&*()_+>loc: -1<sls!&*()_+>src: /home/xingchangchang/ProgramFiles/vcs_verdi2018/synopsys/vcs_201809/vcs/O-2018.09-SP2/etc/uvm-1.2/seq/uvm_sequence_item.svh<sls!&*()_+>line: 439<sls!&*()_+>time: 0 ps<sls!&*()_+>length: 0<sls!&*()_+>...<sls!&*()_+><sle!&*()_+>
<slp!&*()_+>
UVM_INFO sv/seq_lib.sv(3363) @ 0: uvm_test_top.m_env.m_master_agent.m_sequencer@@seq [axi4_data_first_sequence] ===========================================
<slb!&*()_+>---<sls!&*()_+>loc: -1<sls!&*()_+>src: /home/xingchangchang/ProgramFiles/vcs_verdi2018/synopsys/vcs_201809/vcs/O-2018.09-SP2/etc/uvm-1.2/seq/uvm_sequence_item.svh<sls!&*()_+>line: 439<sls!&*()_+>time: 0 ps<sls!&*()_+>length: 0<sls!&*()_+>...<sls!&*()_+><sle!&*()_+>
<slp!&*()_+>
UVM_INFO sv/seq_lib.sv(3368) @ 0: uvm_test_top.m_env.m_master_agent.m_sequencer@@seq [axi4_data_first_sequence] === Phase 1: Sending WRITE transactions ===
<slb!&*()_+>---<sls!&*()_+>loc: -1<sls!&*()_+>src: /home/xingchangchang/ProgramFiles/vcs_verdi2018/synopsys/vcs_201809/vcs/O-2018.09-SP2/etc/uvm-1.2/seq/uvm_sequence_item.svh<sls!&*()_+>line: 439<sls!&*()_+>time: 0 ps<sls!&*()_+>length: 0<sls!&*()_+>...<sls!&*()_+><sle!&*()_+>
<slp!&*()_+>
UVM_INFO sv/axi4_monitor.sv(233) @ 18000: uvm_test_top.m_env.m_master_agent.m_monitor [axi4_monitor] Write Complete: ID=2, ADDR=0x10000000, RESP=OKAY, Latency=1 cycles
<slb!&*()_+>---<sls!&*()_+>loc: -1<sls!&*()_+>src: sv/axi4_monitor.sv<sls!&*()_+>line: 233<sls!&*()_+>time: 17500 ps<sls!&*()_+>length: 0<sls!&*()_+>...<sls!&*()_+><sle!&*()_+>
<slp!&*()_+>
UVM_INFO sv/axi4_monitor.sv(233) @ 29000: uvm_test_top.m_env.m_master_agent.m_monitor [axi4_monitor] Write Complete: ID=4, ADDR=0x10000004, RESP=OKAY, Latency=6 cycles
<slb!&*()_+>---<sls!&*()_+>loc: -1<sls!&*()_+>src: sv/axi4_monitor.sv<sls!&*()_+>line: 233<sls!&*()_+>time: 28500 ps<sls!&*()_+>length: 0<sls!&*()_+>...<sls!&*()_+><sle!&*()_+>
<slp!&*()_+>
UVM_INFO sv/axi4_monitor.sv(233) @ 34000: uvm_test_top.m_env.m_master_agent.m_monitor [axi4_monitor] Write Complete: ID=0, ADDR=0x1000001c, RESP=OKAY, Latency=4 cycles
<slb!&*()_+>---<sls!&*()_+>loc: -1<sls!&*()_+>src: sv/axi4_monitor.sv<sls!&*()_+>line: 233<sls!&*()_+>time: 33500 ps<sls!&*()_+>length: 0<sls!&*()_+>...<sls!&*()_+><sle!&*()_+>
<slp!&*()_+>
UVM_INFO sv/axi4_monitor.sv(233) @ 50000: uvm_test_top.m_env.m_master_agent.m_monitor [axi4_monitor] Write Complete: ID=12, ADDR=0x1000002c, RESP=OKAY, Latency=14 cycles
<slb!&*()_+>---<sls!&*()_+>loc: -1<sls!&*()_+>src: sv/axi4_monitor.sv<sls!&*()_+>line: 233<sls!&*()_+>time: 49500 ps<sls!&*()_+>length: 0<sls!&*()_+>...<sls!&*()_+><sle!&*()_+>
<slp!&*()_+>
UVM_INFO sv/axi4_monitor.sv(233) @ 60000: uvm_test_top.m_env.m_master_agent.m_monitor [axi4_monitor] Write Complete: ID=3, ADDR=0x10000064, RESP=OKAY, Latency=9 cycles
<slb!&*()_+>---<sls!&*()_+>loc: -1<sls!&*()_+>src: sv/axi4_monitor.sv<sls!&*()_+>line: 233<sls!&*()_+>time: 59500 ps<sls!&*()_+>length: 0<sls!&*()_+>...<sls!&*()_+><sle!&*()_+>
<slp!&*()_+>
UVM_INFO sv/axi4_monitor.sv(233) @ 66000: uvm_test_top.m_env.m_master_agent.m_monitor [axi4_monitor] Write Complete: ID=11, ADDR=0x10000088, RESP=OKAY, Latency=5 cycles
<slb!&*()_+>---<sls!&*()_+>loc: -1<sls!&*()_+>src: sv/axi4_monitor.sv<sls!&*()_+>line: 233<sls!&*()_+>time: 65500 ps<sls!&*()_+>length: 0<sls!&*()_+>...<sls!&*()_+><sle!&*()_+>
<slp!&*()_+>
UVM_INFO sv/axi4_monitor.sv(233) @ 71000: uvm_test_top.m_env.m_master_agent.m_monitor [axi4_monitor] Write Complete: ID=8, ADDR=0x1000009c, RESP=OKAY, Latency=4 cycles
<slb!&*()_+>---<sls!&*()_+>loc: -1<sls!&*()_+>src: sv/axi4_monitor.sv<sls!&*()_+>line: 233<sls!&*()_+>time: 70500 ps<sls!&*()_+>length: 0<sls!&*()_+>...<sls!&*()_+><sle!&*()_+>
<slp!&*()_+>
UVM_INFO sv/axi4_monitor.sv(233) @ 88000: uvm_test_top.m_env.m_master_agent.m_monitor [axi4_monitor] Write Complete: ID=10, ADDR=0x100000ac, RESP=OKAY, Latency=15 cycles
<slb!&*()_+>---<sls!&*()_+>loc: -1<sls!&*()_+>src: sv/axi4_monitor.sv<sls!&*()_+>line: 233<sls!&*()_+>time: 87500 ps<sls!&*()_+>length: 0<sls!&*()_+>...<sls!&*()_+><sle!&*()_+>
<slp!&*()_+>
UVM_INFO sv/axi4_monitor.sv(233) @ 105000: uvm_test_top.m_env.m_master_agent.m_monitor [axi4_monitor] Write Complete: ID=1, ADDR=0x100000e8, RESP=OKAY, Latency=16 cycles
<slb!&*()_+>---<sls!&*()_+>loc: -1<sls!&*()_+>src: sv/axi4_monitor.sv<sls!&*()_+>line: 233<sls!&*()_+>time: 104500 ps<sls!&*()_+>length: 0<sls!&*()_+>...<sls!&*()_+><sle!&*()_+>
<slp!&*()_+>
UVM_INFO sv/axi4_monitor.sv(233) @ 120000: uvm_test_top.m_env.m_master_agent.m_monitor [axi4_monitor] Write Complete: ID=2, ADDR=0x10000128, RESP=OKAY, Latency=14 cycles
<slb!&*()_+>---<sls!&*()_+>loc: -1<sls!&*()_+>src: sv/axi4_monitor.sv<sls!&*()_+>line: 233<sls!&*()_+>time: 119500 ps<sls!&*()_+>length: 0<sls!&*()_+>...<sls!&*()_+><sle!&*()_+>
<slp!&*()_+>
UVM_INFO sv/axi4_monitor.sv(233) @ 122000: uvm_test_top.m_env.m_master_agent.m_monitor [axi4_monitor] Write Complete: ID=12, ADDR=0x10000160, RESP=OKAY, Latency=1 cycles
<slb!&*()_+>---<sls!&*()_+>loc: -1<sls!&*()_+>src: sv/axi4_monitor.sv<sls!&*()_+>line: 233<sls!&*()_+>time: 121500 ps<sls!&*()_+>length: 0<sls!&*()_+>...<sls!&*()_+><sle!&*()_+>
<slp!&*()_+>
UVM_INFO sv/axi4_monitor.sv(233) @ 143000: uvm_test_top.m_env.m_master_agent.m_monitor [axi4_monitor] Write Complete: ID=3, ADDR=0x10000164, RESP=OKAY, Latency=16 cycles
<slb!&*()_+>---<sls!&*()_+>loc: -1<sls!&*()_+>src: sv/axi4_monitor.sv<sls!&*()_+>line: 233<sls!&*()_+>time: 142500 ps<sls!&*()_+>length: 0<sls!&*()_+>...<sls!&*()_+><sle!&*()_+>
<slp!&*()_+>
UVM_INFO sv/axi4_monitor.sv(233) @ 151000: uvm_test_top.m_env.m_master_agent.m_monitor [axi4_monitor] Write Complete: ID=13, ADDR=0x100001a4, RESP=OKAY, Latency=7 cycles
<slb!&*()_+>---<sls!&*()_+>loc: -1<sls!&*()_+>src: sv/axi4_monitor.sv<sls!&*()_+>line: 233<sls!&*()_+>time: 150500 ps<sls!&*()_+>length: 0<sls!&*()_+>...<sls!&*()_+><sle!&*()_+>
<slp!&*()_+>
UVM_INFO sv/axi4_monitor.sv(233) @ 168000: uvm_test_top.m_env.m_master_agent.m_monitor [axi4_monitor] Write Complete: ID=0, ADDR=0x100001c0, RESP=OKAY, Latency=16 cycles
<slb!&*()_+>---<sls!&*()_+>loc: -1<sls!&*()_+>src: sv/axi4_monitor.sv<sls!&*()_+>line: 233<sls!&*()_+>time: 167500 ps<sls!&*()_+>length: 0<sls!&*()_+>...<sls!&*()_+><sle!&*()_+>
<slp!&*()_+>
UVM_INFO sv/axi4_monitor.sv(233) @ 182000: uvm_test_top.m_env.m_master_agent.m_monitor [axi4_monitor] Write Complete: ID=6, ADDR=0x10000200, RESP=OKAY, Latency=13 cycles
<slb!&*()_+>---<sls!&*()_+>loc: -1<sls!&*()_+>src: sv/axi4_monitor.sv<sls!&*()_+>line: 233<sls!&*()_+>time: 181500 ps<sls!&*()_+>length: 0<sls!&*()_+>...<sls!&*()_+><sle!&*()_+>
<slp!&*()_+>
UVM_INFO sv/axi4_monitor.sv(233) @ 190000: uvm_test_top.m_env.m_master_agent.m_monitor [axi4_monitor] Write Complete: ID=9, ADDR=0x10000234, RESP=OKAY, Latency=7 cycles
<slb!&*()_+>---<sls!&*()_+>loc: -1<sls!&*()_+>src: sv/axi4_monitor.sv<sls!&*()_+>line: 233<sls!&*()_+>time: 189500 ps<sls!&*()_+>length: 0<sls!&*()_+>...<sls!&*()_+><sle!&*()_+>
<slp!&*()_+>
UVM_INFO sv/axi4_monitor.sv(233) @ 197000: uvm_test_top.m_env.m_master_agent.m_monitor [axi4_monitor] Write Complete: ID=2, ADDR=0x10000250, RESP=OKAY, Latency=6 cycles
<slb!&*()_+>---<sls!&*()_+>loc: -1<sls!&*()_+>src: sv/axi4_monitor.sv<sls!&*()_+>line: 233<sls!&*()_+>time: 196500 ps<sls!&*()_+>length: 0<sls!&*()_+>...<sls!&*()_+><sle!&*()_+>
<slp!&*()_+>
UVM_INFO sv/axi4_monitor.sv(233) @ 204000: uvm_test_top.m_env.m_master_agent.m_monitor [axi4_monitor] Write Complete: ID=11, ADDR=0x10000268, RESP=OKAY, Latency=6 cycles
<slb!&*()_+>---<sls!&*()_+>loc: -1<sls!&*()_+>src: sv/axi4_monitor.sv<sls!&*()_+>line: 233<sls!&*()_+>time: 203500 ps<sls!&*()_+>length: 0<sls!&*()_+>...<sls!&*()_+><sle!&*()_+>
<slp!&*()_+>
UVM_INFO sv/axi4_monitor.sv(233) @ 219000: uvm_test_top.m_env.m_master_agent.m_monitor [axi4_monitor] Write Complete: ID=6, ADDR=0x10000280, RESP=OKAY, Latency=14 cycles
<slb!&*()_+>---<sls!&*()_+>loc: -1<sls!&*()_+>src: sv/axi4_monitor.sv<sls!&*()_+>line: 233<sls!&*()_+>time: 218500 ps<sls!&*()_+>length: 0<sls!&*()_+>...<sls!&*()_+><sle!&*()_+>
<slp!&*()_+>
UVM_INFO sv/axi4_monitor.sv(233) @ 224000: uvm_test_top.m_env.m_master_agent.m_monitor [axi4_monitor] Write Complete: ID=14, ADDR=0x100002b8, RESP=OKAY, Latency=4 cycles
<slb!&*()_+>---<sls!&*()_+>loc: -1<sls!&*()_+>src: sv/axi4_monitor.sv<sls!&*()_+>line: 233<sls!&*()_+>time: 223500 ps<sls!&*()_+>length: 0<sls!&*()_+>...<sls!&*()_+><sle!&*()_+>
<slp!&*()_+>
UVM_INFO sv/axi4_monitor.sv(233) @ 228000: uvm_test_top.m_env.m_master_agent.m_monitor [axi4_monitor] Write Complete: ID=5, ADDR=0x100002c8, RESP=OKAY, Latency=2 cycles
<slb!&*()_+>---<sls!&*()_+>loc: -1<sls!&*()_+>src: sv/axi4_monitor.sv<sls!&*()_+>line: 233<sls!&*()_+>time: 227500 ps<sls!&*()_+>length: 0<sls!&*()_+>...<sls!&*()_+><sle!&*()_+>
<slp!&*()_+>
UVM_INFO sv/axi4_monitor.sv(233) @ 243000: uvm_test_top.m_env.m_master_agent.m_monitor [axi4_monitor] Write Complete: ID=7, ADDR=0x100002d0, RESP=OKAY, Latency=11 cycles
<slb!&*()_+>---<sls!&*()_+>loc: -1<sls!&*()_+>src: sv/axi4_monitor.sv<sls!&*()_+>line: 233<sls!&*()_+>time: 242500 ps<sls!&*()_+>length: 0<sls!&*()_+>...<sls!&*()_+><sle!&*()_+>
<slp!&*()_+>
UVM_INFO sv/axi4_monitor.sv(233) @ 253000: uvm_test_top.m_env.m_master_agent.m_monitor [axi4_monitor] Write Complete: ID=14, ADDR=0x100002fc, RESP=OKAY, Latency=9 cycles
<slb!&*()_+>---<sls!&*()_+>loc: -1<sls!&*()_+>src: sv/axi4_monitor.sv<sls!&*()_+>line: 233<sls!&*()_+>time: 252500 ps<sls!&*()_+>length: 0<sls!&*()_+>...<sls!&*()_+><sle!&*()_+>
<slp!&*()_+>
UVM_INFO sv/axi4_monitor.sv(233) @ 256000: uvm_test_top.m_env.m_master_agent.m_monitor [axi4_monitor] Write Complete: ID=14, ADDR=0x10000320, RESP=OKAY, Latency=2 cycles
<slb!&*()_+>---<sls!&*()_+>loc: -1<sls!&*()_+>src: sv/axi4_monitor.sv<sls!&*()_+>line: 233<sls!&*()_+>time: 255500 ps<sls!&*()_+>length: 0<sls!&*()_+>...<sls!&*()_+><sle!&*()_+>
<slp!&*()_+>
UVM_INFO sv/axi4_monitor.sv(233) @ 271000: uvm_test_top.m_env.m_master_agent.m_monitor [axi4_monitor] Write Complete: ID=2, ADDR=0x10000328, RESP=OKAY, Latency=11 cycles
<slb!&*()_+>---<sls!&*()_+>loc: -1<sls!&*()_+>src: sv/axi4_monitor.sv<sls!&*()_+>line: 233<sls!&*()_+>time: 270500 ps<sls!&*()_+>length: 0<sls!&*()_+>...<sls!&*()_+><sle!&*()_+>
<slp!&*()_+>
UVM_INFO sv/axi4_monitor.sv(233) @ 287000: uvm_test_top.m_env.m_master_agent.m_monitor [axi4_monitor] Write Complete: ID=2, ADDR=0x10000354, RESP=OKAY, Latency=15 cycles
<slb!&*()_+>---<sls!&*()_+>loc: -1<sls!&*()_+>src: sv/axi4_monitor.sv<sls!&*()_+>line: 233<sls!&*()_+>time: 286500 ps<sls!&*()_+>length: 0<sls!&*()_+>...<sls!&*()_+><sle!&*()_+>
<slp!&*()_+>
UVM_INFO sv/axi4_monitor.sv(233) @ 290000: uvm_test_top.m_env.m_master_agent.m_monitor [axi4_monitor] Write Complete: ID=0, ADDR=0x10000390, RESP=OKAY, Latency=2 cycles
<slb!&*()_+>---<sls!&*()_+>loc: -1<sls!&*()_+>src: sv/axi4_monitor.sv<sls!&*()_+>line: 233<sls!&*()_+>time: 289500 ps<sls!&*()_+>length: 0<sls!&*()_+>...<sls!&*()_+><sle!&*()_+>
<slp!&*()_+>
UVM_INFO sv/axi4_monitor.sv(233) @ 298000: uvm_test_top.m_env.m_master_agent.m_monitor [axi4_monitor] Write Complete: ID=9, ADDR=0x10000398, RESP=OKAY, Latency=4 cycles
<slb!&*()_+>---<sls!&*()_+>loc: -1<sls!&*()_+>src: sv/axi4_monitor.sv<sls!&*()_+>line: 233<sls!&*()_+>time: 297500 ps<sls!&*()_+>length: 0<sls!&*()_+>...<sls!&*()_+><sle!&*()_+>
<slp!&*()_+>
UVM_INFO sv/axi4_monitor.sv(233) @ 303000: uvm_test_top.m_env.m_master_agent.m_monitor [axi4_monitor] Write Complete: ID=2, ADDR=0x100003a8, RESP=OKAY, Latency=3 cycles
<slb!&*()_+>---<sls!&*()_+>loc: -1<sls!&*()_+>src: sv/axi4_monitor.sv<sls!&*()_+>line: 233<sls!&*()_+>time: 302500 ps<sls!&*()_+>length: 0<sls!&*()_+>...<sls!&*()_+><sle!&*()_+>
<slp!&*()_+>
UVM_INFO sv/axi4_monitor.sv(233) @ 322000: uvm_test_top.m_env.m_master_agent.m_monitor [axi4_monitor] Write Complete: ID=1, ADDR=0x100003b4, RESP=OKAY, Latency=16 cycles
<slb!&*()_+>---<sls!&*()_+>loc: -1<sls!&*()_+>src: sv/axi4_monitor.sv<sls!&*()_+>line: 233<sls!&*()_+>time: 321500 ps<sls!&*()_+>length: 0<sls!&*()_+>...<sls!&*()_+><sle!&*()_+>
<slp!&*()_+>
UVM_INFO sv/axi4_monitor.sv(233) @ 327000: uvm_test_top.m_env.m_master_agent.m_monitor [axi4_monitor] Write Complete: ID=13, ADDR=0x100003f4, RESP=OKAY, Latency=4 cycles
<slb!&*()_+>---<sls!&*()_+>loc: -1<sls!&*()_+>src: sv/axi4_monitor.sv<sls!&*()_+>line: 233<sls!&*()_+>time: 326500 ps<sls!&*()_+>length: 0<sls!&*()_+>...<sls!&*()_+><sle!&*()_+>
<slp!&*()_+>
UVM_INFO sv/axi4_monitor.sv(233) @ 336000: uvm_test_top.m_env.m_master_agent.m_monitor [axi4_monitor] Write Complete: ID=15, ADDR=0x10000404, RESP=OKAY, Latency=7 cycles
<slb!&*()_+>---<sls!&*()_+>loc: -1<sls!&*()_+>src: sv/axi4_monitor.sv<sls!&*()_+>line: 233<sls!&*()_+>time: 335500 ps<sls!&*()_+>length: 0<sls!&*()_+>...<sls!&*()_+><sle!&*()_+>
<slp!&*()_+>
UVM_INFO sv/axi4_monitor.sv(233) @ 349000: uvm_test_top.m_env.m_master_agent.m_monitor [axi4_monitor] Write Complete: ID=1, ADDR=0x10000420, RESP=OKAY, Latency=12 cycles
<slb!&*()_+>---<sls!&*()_+>loc: -1<sls!&*()_+>src: sv/axi4_monitor.sv<sls!&*()_+>line: 233<sls!&*()_+>time: 348500 ps<sls!&*()_+>length: 0<sls!&*()_+>...<sls!&*()_+><sle!&*()_+>
<slp!&*()_+>
UVM_INFO sv/axi4_monitor.sv(233) @ 358000: uvm_test_top.m_env.m_master_agent.m_monitor [axi4_monitor] Write Complete: ID=3, ADDR=0x10000450, RESP=OKAY, Latency=8 cycles
<slb!&*()_+>---<sls!&*()_+>loc: -1<sls!&*()_+>src: sv/axi4_monitor.sv<sls!&*()_+>line: 233<sls!&*()_+>time: 357500 ps<sls!&*()_+>length: 0<sls!&*()_+>...<sls!&*()_+><sle!&*()_+>
<slp!&*()_+>
UVM_INFO sv/axi4_monitor.sv(233) @ 361000: uvm_test_top.m_env.m_master_agent.m_monitor [axi4_monitor] Write Complete: ID=13, ADDR=0x10000470, RESP=OKAY, Latency=2 cycles
<slb!&*()_+>---<sls!&*()_+>loc: -1<sls!&*()_+>src: sv/axi4_monitor.sv<sls!&*()_+>line: 233<sls!&*()_+>time: 360500 ps<sls!&*()_+>length: 0<sls!&*()_+>...<sls!&*()_+><sle!&*()_+>
<slp!&*()_+>
UVM_INFO sv/axi4_monitor.sv(233) @ 368000: uvm_test_top.m_env.m_master_agent.m_monitor [axi4_monitor] Write Complete: ID=0, ADDR=0x10000478, RESP=OKAY, Latency=3 cycles
<slb!&*()_+>---<sls!&*()_+>loc: -1<sls!&*()_+>src: sv/axi4_monitor.sv<sls!&*()_+>line: 233<sls!&*()_+>time: 367500 ps<sls!&*()_+>length: 0<sls!&*()_+>...<sls!&*()_+><sle!&*()_+>
<slp!&*()_+>
UVM_INFO sv/axi4_monitor.sv(233) @ 380000: uvm_test_top.m_env.m_master_agent.m_monitor [axi4_monitor] Write Complete: ID=4, ADDR=0x10000484, RESP=OKAY, Latency=9 cycles
<slb!&*()_+>---<sls!&*()_+>loc: -1<sls!&*()_+>src: sv/axi4_monitor.sv<sls!&*()_+>line: 233<sls!&*()_+>time: 379500 ps<sls!&*()_+>length: 0<sls!&*()_+>...<sls!&*()_+><sle!&*()_+>
<slp!&*()_+>
UVM_INFO sv/axi4_monitor.sv(233) @ 386000: uvm_test_top.m_env.m_master_agent.m_monitor [axi4_monitor] Write Complete: ID=7, ADDR=0x100004a8, RESP=OKAY, Latency=5 cycles
<slb!&*()_+>---<sls!&*()_+>loc: -1<sls!&*()_+>src: sv/axi4_monitor.sv<sls!&*()_+>line: 233<sls!&*()_+>time: 385500 ps<sls!&*()_+>length: 0<sls!&*()_+>...<sls!&*()_+><sle!&*()_+>
<slp!&*()_+>
UVM_INFO sv/axi4_monitor.sv(233) @ 392000: uvm_test_top.m_env.m_master_agent.m_monitor [axi4_monitor] Write Complete: ID=0, ADDR=0x100004bc, RESP=OKAY, Latency=5 cycles
<slb!&*()_+>---<sls!&*()_+>loc: -1<sls!&*()_+>src: sv/axi4_monitor.sv<sls!&*()_+>line: 233<sls!&*()_+>time: 391500 ps<sls!&*()_+>length: 0<sls!&*()_+>...<sls!&*()_+><sle!&*()_+>
<slp!&*()_+>
UVM_INFO sv/axi4_monitor.sv(233) @ 399000: uvm_test_top.m_env.m_master_agent.m_monitor [axi4_monitor] Write Complete: ID=5, ADDR=0x100004d0, RESP=OKAY, Latency=6 cycles
<slb!&*()_+>---<sls!&*()_+>loc: -1<sls!&*()_+>src: sv/axi4_monitor.sv<sls!&*()_+>line: 233<sls!&*()_+>time: 398500 ps<sls!&*()_+>length: 0<sls!&*()_+>...<sls!&*()_+><sle!&*()_+>
<slp!&*()_+>
UVM_INFO sv/axi4_monitor.sv(233) @ 404000: uvm_test_top.m_env.m_master_agent.m_monitor [axi4_monitor] Write Complete: ID=7, ADDR=0x100004e8, RESP=OKAY, Latency=4 cycles
<slb!&*()_+>---<sls!&*()_+>loc: -1<sls!&*()_+>src: sv/axi4_monitor.sv<sls!&*()_+>line: 233<sls!&*()_+>time: 403500 ps<sls!&*()_+>length: 0<sls!&*()_+>...<sls!&*()_+><sle!&*()_+>
<slp!&*()_+>
UVM_INFO sv/axi4_monitor.sv(233) @ 418000: uvm_test_top.m_env.m_master_agent.m_monitor [axi4_monitor] Write Complete: ID=10, ADDR=0x100004f8, RESP=OKAY, Latency=12 cycles
<slb!&*()_+>---<sls!&*()_+>loc: -1<sls!&*()_+>src: sv/axi4_monitor.sv<sls!&*()_+>line: 233<sls!&*()_+>time: 417500 ps<sls!&*()_+>length: 0<sls!&*()_+>...<sls!&*()_+><sle!&*()_+>
<slp!&*()_+>
UVM_INFO sv/axi4_monitor.sv(233) @ 423000: uvm_test_top.m_env.m_master_agent.m_monitor [axi4_monitor] Write Complete: ID=5, ADDR=0x10000528, RESP=OKAY, Latency=4 cycles
<slb!&*()_+>---<sls!&*()_+>loc: -1<sls!&*()_+>src: sv/axi4_monitor.sv<sls!&*()_+>line: 233<sls!&*()_+>time: 422500 ps<sls!&*()_+>length: 0<sls!&*()_+>...<sls!&*()_+><sle!&*()_+>
<slp!&*()_+>
UVM_INFO sv/axi4_monitor.sv(233) @ 429000: uvm_test_top.m_env.m_master_agent.m_monitor [axi4_monitor] Write Complete: ID=13, ADDR=0x10000538, RESP=OKAY, Latency=4 cycles
<slb!&*()_+>---<sls!&*()_+>loc: -1<sls!&*()_+>src: sv/axi4_monitor.sv<sls!&*()_+>line: 233<sls!&*()_+>time: 428500 ps<sls!&*()_+>length: 0<sls!&*()_+>...<sls!&*()_+><sle!&*()_+>
<slp!&*()_+>
UVM_INFO sv/axi4_monitor.sv(233) @ 439000: uvm_test_top.m_env.m_master_agent.m_monitor [axi4_monitor] Write Complete: ID=1, ADDR=0x10000548, RESP=OKAY, Latency=8 cycles
<slb!&*()_+>---<sls!&*()_+>loc: -1<sls!&*()_+>src: sv/axi4_monitor.sv<sls!&*()_+>line: 233<sls!&*()_+>time: 438500 ps<sls!&*()_+>length: 0<sls!&*()_+>...<sls!&*()_+><sle!&*()_+>
<slp!&*()_+>
UVM_INFO sv/axi4_monitor.sv(233) @ 444000: uvm_test_top.m_env.m_master_agent.m_monitor [axi4_monitor] Write Complete: ID=7, ADDR=0x10000568, RESP=OKAY, Latency=4 cycles
<slb!&*()_+>---<sls!&*()_+>loc: -1<sls!&*()_+>src: sv/axi4_monitor.sv<sls!&*()_+>line: 233<sls!&*()_+>time: 443500 ps<sls!&*()_+>length: 0<sls!&*()_+>...<sls!&*()_+><sle!&*()_+>
<slp!&*()_+>
UVM_INFO sv/axi4_monitor.sv(233) @ 458000: uvm_test_top.m_env.m_master_agent.m_monitor [axi4_monitor] Write Complete: ID=10, ADDR=0x10000578, RESP=OKAY, Latency=12 cycles
<slb!&*()_+>---<sls!&*()_+>loc: -1<sls!&*()_+>src: sv/axi4_monitor.sv<sls!&*()_+>line: 233<sls!&*()_+>time: 457500 ps<sls!&*()_+>length: 0<sls!&*()_+>...<sls!&*()_+><sle!&*()_+>
<slp!&*()_+>
UVM_INFO sv/axi4_monitor.sv(233) @ 473000: uvm_test_top.m_env.m_master_agent.m_monitor [axi4_monitor] Write Complete: ID=0, ADDR=0x100005a8, RESP=OKAY, Latency=14 cycles
<slb!&*()_+>---<sls!&*()_+>loc: -1<sls!&*()_+>src: sv/axi4_monitor.sv<sls!&*()_+>line: 233<sls!&*()_+>time: 472500 ps<sls!&*()_+>length: 0<sls!&*()_+>...<sls!&*()_+><sle!&*()_+>
<slp!&*()_+>
UVM_INFO sv/axi4_monitor.sv(233) @ 476000: uvm_test_top.m_env.m_master_agent.m_monitor [axi4_monitor] Write Complete: ID=13, ADDR=0x100005e0, RESP=OKAY, Latency=2 cycles
<slb!&*()_+>---<sls!&*()_+>loc: -1<sls!&*()_+>src: sv/axi4_monitor.sv<sls!&*()_+>line: 233<sls!&*()_+>time: 475500 ps<sls!&*()_+>length: 0<sls!&*()_+>...<sls!&*()_+><sle!&*()_+>
<slp!&*()_+>
UVM_INFO sv/axi4_monitor.sv(233) @ 492000: uvm_test_top.m_env.m_master_agent.m_monitor [axi4_monitor] Write Complete: ID=7, ADDR=0x100005e8, RESP=OKAY, Latency=12 cycles
<slb!&*()_+>---<sls!&*()_+>loc: -1<sls!&*()_+>src: sv/axi4_monitor.sv<sls!&*()_+>line: 233<sls!&*()_+>time: 491500 ps<sls!&*()_+>length: 0<sls!&*()_+>...<sls!&*()_+><sle!&*()_+>
<slp!&*()_+>
UVM_INFO sv/axi4_monitor.sv(233) @ 501000: uvm_test_top.m_env.m_master_agent.m_monitor [axi4_monitor] Write Complete: ID=10, ADDR=0x10000618, RESP=OKAY, Latency=8 cycles
<slb!&*()_+>---<sls!&*()_+>loc: -1<sls!&*()_+>src: sv/axi4_monitor.sv<sls!&*()_+>line: 233<sls!&*()_+>time: 500500 ps<sls!&*()_+>length: 0<sls!&*()_+>...<sls!&*()_+><sle!&*()_+>
<slp!&*()_+>
UVM_INFO sv/axi4_monitor.sv(233) @ 506000: uvm_test_top.m_env.m_master_agent.m_monitor [axi4_monitor] Write Complete: ID=7, ADDR=0x10000638, RESP=OKAY, Latency=4 cycles
<slb!&*()_+>---<sls!&*()_+>loc: -1<sls!&*()_+>src: sv/axi4_monitor.sv<sls!&*()_+>line: 233<sls!&*()_+>time: 505500 ps<sls!&*()_+>length: 0<sls!&*()_+>...<sls!&*()_+><sle!&*()_+>
<slp!&*()_+>
UVM_INFO sv/axi4_monitor.sv(233) @ 524000: uvm_test_top.m_env.m_master_agent.m_monitor [axi4_monitor] Write Complete: ID=15, ADDR=0x10000648, RESP=OKAY, Latency=16 cycles
<slb!&*()_+>---<sls!&*()_+>loc: -1<sls!&*()_+>src: sv/axi4_monitor.sv<sls!&*()_+>line: 233<sls!&*()_+>time: 523500 ps<sls!&*()_+>length: 0<sls!&*()_+>...<sls!&*()_+><sle!&*()_+>
<slp!&*()_+>
UVM_INFO sv/axi4_monitor.sv(233) @ 537000: uvm_test_top.m_env.m_master_agent.m_monitor [axi4_monitor] Write Complete: ID=1, ADDR=0x10000688, RESP=OKAY, Latency=12 cycles
<slb!&*()_+>---<sls!&*()_+>loc: -1<sls!&*()_+>src: sv/axi4_monitor.sv<sls!&*()_+>line: 233<sls!&*()_+>time: 536500 ps<sls!&*()_+>length: 0<sls!&*()_+>...<sls!&*()_+><sle!&*()_+>
<slp!&*()_+>
UVM_INFO sv/axi4_monitor.sv(233) @ 544000: uvm_test_top.m_env.m_master_agent.m_monitor [axi4_monitor] Write Complete: ID=3, ADDR=0x100006b8, RESP=OKAY, Latency=6 cycles
<slb!&*()_+>---<sls!&*()_+>loc: -1<sls!&*()_+>src: sv/axi4_monitor.sv<sls!&*()_+>line: 233<sls!&*()_+>time: 543500 ps<sls!&*()_+>length: 0<sls!&*()_+>...<sls!&*()_+><sle!&*()_+>
<slp!&*()_+>
UVM_INFO sv/axi4_monitor.sv(233) @ 556000: uvm_test_top.m_env.m_master_agent.m_monitor [axi4_monitor] Write Complete: ID=5, ADDR=0x100006d0, RESP=OKAY, Latency=11 cycles
<slb!&*()_+>---<sls!&*()_+>loc: -1<sls!&*()_+>src: sv/axi4_monitor.sv<sls!&*()_+>line: 233<sls!&*()_+>time: 555500 ps<sls!&*()_+>length: 0<sls!&*()_+>...<sls!&*()_+><sle!&*()_+>
<slp!&*()_+>
UVM_INFO sv/axi4_monitor.sv(233) @ 572000: uvm_test_top.m_env.m_master_agent.m_monitor [axi4_monitor] Write Complete: ID=11, ADDR=0x100006fc, RESP=OKAY, Latency=15 cycles
<slb!&*()_+>---<sls!&*()_+>loc: -1<sls!&*()_+>src: sv/axi4_monitor.sv<sls!&*()_+>line: 233<sls!&*()_+>time: 571500 ps<sls!&*()_+>length: 0<sls!&*()_+>...<sls!&*()_+><sle!&*()_+>
<slp!&*()_+>
UVM_INFO sv/axi4_monitor.sv(233) @ 587000: uvm_test_top.m_env.m_master_agent.m_monitor [axi4_monitor] Write Complete: ID=8, ADDR=0x10000738, RESP=OKAY, Latency=14 cycles
<slb!&*()_+>---<sls!&*()_+>loc: -1<sls!&*()_+>src: sv/axi4_monitor.sv<sls!&*()_+>line: 233<sls!&*()_+>time: 586500 ps<sls!&*()_+>length: 0<sls!&*()_+>...<sls!&*()_+><sle!&*()_+>
<slp!&*()_+>
UVM_INFO sv/axi4_monitor.sv(233) @ 591000: uvm_test_top.m_env.m_master_agent.m_monitor [axi4_monitor] Write Complete: ID=1, ADDR=0x10000770, RESP=OKAY, Latency=3 cycles
<slb!&*()_+>---<sls!&*()_+>loc: -1<sls!&*()_+>src: sv/axi4_monitor.sv<sls!&*()_+>line: 233<sls!&*()_+>time: 590500 ps<sls!&*()_+>length: 0<sls!&*()_+>...<sls!&*()_+><sle!&*()_+>
<slp!&*()_+>
UVM_INFO sv/axi4_monitor.sv(233) @ 609000: uvm_test_top.m_env.m_master_agent.m_monitor [axi4_monitor] Write Complete: ID=10, ADDR=0x1000077c, RESP=OKAY, Latency=15 cycles
<slb!&*()_+>---<sls!&*()_+>loc: -1<sls!&*()_+>src: sv/axi4_monitor.sv<sls!&*()_+>line: 233<sls!&*()_+>time: 608500 ps<sls!&*()_+>length: 0<sls!&*()_+>...<sls!&*()_+><sle!&*()_+>
<slp!&*()_+>
UVM_INFO sv/axi4_monitor.sv(233) @ 617000: uvm_test_top.m_env.m_master_agent.m_monitor [axi4_monitor] Write Complete: ID=6, ADDR=0x100007b8, RESP=OKAY, Latency=7 cycles
<slb!&*()_+>---<sls!&*()_+>loc: -1<sls!&*()_+>src: sv/axi4_monitor.sv<sls!&*()_+>line: 233<sls!&*()_+>time: 616500 ps<sls!&*()_+>length: 0<sls!&*()_+>...<sls!&*()_+><sle!&*()_+>
<slp!&*()_+>
UVM_INFO sv/axi4_monitor.sv(233) @ 629000: uvm_test_top.m_env.m_master_agent.m_monitor [axi4_monitor] Write Complete: ID=1, ADDR=0x100007d4, RESP=OKAY, Latency=11 cycles
<slb!&*()_+>---<sls!&*()_+>loc: -1<sls!&*()_+>src: sv/axi4_monitor.sv<sls!&*()_+>line: 233<sls!&*()_+>time: 628500 ps<sls!&*()_+>length: 0<sls!&*()_+>...<sls!&*()_+><sle!&*()_+>
<slp!&*()_+>
UVM_INFO sv/axi4_monitor.sv(233) @ 633000: uvm_test_top.m_env.m_master_agent.m_monitor [axi4_monitor] Write Complete: ID=4, ADDR=0x10000800, RESP=OKAY, Latency=3 cycles
<slb!&*()_+>---<sls!&*()_+>loc: -1<sls!&*()_+>src: sv/axi4_monitor.sv<sls!&*()_+>line: 233<sls!&*()_+>time: 632500 ps<sls!&*()_+>length: 0<sls!&*()_+>...<sls!&*()_+><sle!&*()_+>
<slp!&*()_+>
UVM_INFO sv/axi4_monitor.sv(233) @ 639000: uvm_test_top.m_env.m_master_agent.m_monitor [axi4_monitor] Write Complete: ID=14, ADDR=0x1000080c, RESP=OKAY, Latency=3 cycles
<slb!&*()_+>---<sls!&*()_+>loc: -1<sls!&*()_+>src: sv/axi4_monitor.sv<sls!&*()_+>line: 233<sls!&*()_+>time: 638500 ps<sls!&*()_+>length: 0<sls!&*()_+>...<sls!&*()_+><sle!&*()_+>
<slp!&*()_+>
UVM_INFO sv/axi4_monitor.sv(233) @ 655000: uvm_test_top.m_env.m_master_agent.m_monitor [axi4_monitor] Write Complete: ID=11, ADDR=0x10000818, RESP=OKAY, Latency=13 cycles
<slb!&*()_+>---<sls!&*()_+>loc: -1<sls!&*()_+>src: sv/axi4_monitor.sv<sls!&*()_+>line: 233<sls!&*()_+>time: 654500 ps<sls!&*()_+>length: 0<sls!&*()_+>...<sls!&*()_+><sle!&*()_+>
<slp!&*()_+>
UVM_INFO sv/axi4_monitor.sv(233) @ 659000: uvm_test_top.m_env.m_master_agent.m_monitor [axi4_monitor] Write Complete: ID=1, ADDR=0x1000084c, RESP=OKAY, Latency=3 cycles
<slb!&*()_+>---<sls!&*()_+>loc: -1<sls!&*()_+>src: sv/axi4_monitor.sv<sls!&*()_+>line: 233<sls!&*()_+>time: 658500 ps<sls!&*()_+>length: 0<sls!&*()_+>...<sls!&*()_+><sle!&*()_+>
<slp!&*()_+>
UVM_INFO sv/axi4_monitor.sv(233) @ 670000: uvm_test_top.m_env.m_master_agent.m_monitor [axi4_monitor] Write Complete: ID=8, ADDR=0x10000858, RESP=OKAY, Latency=8 cycles
<slb!&*()_+>---<sls!&*()_+>loc: -1<sls!&*()_+>src: sv/axi4_monitor.sv<sls!&*()_+>line: 233<sls!&*()_+>time: 669500 ps<sls!&*()_+>length: 0<sls!&*()_+>...<sls!&*()_+><sle!&*()_+>
<slp!&*()_+>
UVM_INFO sv/axi4_monitor.sv(233) @ 676000: uvm_test_top.m_env.m_master_agent.m_monitor [axi4_monitor] Write Complete: ID=6, ADDR=0x10000878, RESP=OKAY, Latency=5 cycles
<slb!&*()_+>---<sls!&*()_+>loc: -1<sls!&*()_+>src: sv/axi4_monitor.sv<sls!&*()_+>line: 233<sls!&*()_+>time: 675500 ps<sls!&*()_+>length: 0<sls!&*()_+>...<sls!&*()_+><sle!&*()_+>
<slp!&*()_+>
UVM_INFO sv/axi4_monitor.sv(233) @ 679000: uvm_test_top.m_env.m_master_agent.m_monitor [axi4_monitor] Write Complete: ID=1, ADDR=0x1000088c, RESP=OKAY, Latency=2 cycles
<slb!&*()_+>---<sls!&*()_+>loc: -1<sls!&*()_+>src: sv/axi4_monitor.sv<sls!&*()_+>line: 233<sls!&*()_+>time: 678500 ps<sls!&*()_+>length: 0<sls!&*()_+>...<sls!&*()_+><sle!&*()_+>
<slp!&*()_+>
UVM_INFO sv/axi4_monitor.sv(233) @ 695000: uvm_test_top.m_env.m_master_agent.m_monitor [axi4_monitor] Write Complete: ID=11, ADDR=0x10000894, RESP=OKAY, Latency=12 cycles
<slb!&*()_+>---<sls!&*()_+>loc: -1<sls!&*()_+>src: sv/axi4_monitor.sv<sls!&*()_+>line: 233<sls!&*()_+>time: 694500 ps<sls!&*()_+>length: 0<sls!&*()_+>...<sls!&*()_+><sle!&*()_+>
<slp!&*()_+>
UVM_INFO sv/axi4_monitor.sv(233) @ 708000: uvm_test_top.m_env.m_master_agent.m_monitor [axi4_monitor] Write Complete: ID=8, ADDR=0x100008c4, RESP=OKAY, Latency=12 cycles
<slb!&*()_+>---<sls!&*()_+>loc: -1<sls!&*()_+>src: sv/axi4_monitor.sv<sls!&*()_+>line: 233<sls!&*()_+>time: 707500 ps<sls!&*()_+>length: 0<sls!&*()_+>...<sls!&*()_+><sle!&*()_+>
<slp!&*()_+>
UVM_INFO sv/axi4_monitor.sv(233) @ 714000: uvm_test_top.m_env.m_master_agent.m_monitor [axi4_monitor] Write Complete: ID=8, ADDR=0x100008f4, RESP=OKAY, Latency=5 cycles
<slb!&*()_+>---<sls!&*()_+>loc: -1<sls!&*()_+>src: sv/axi4_monitor.sv<sls!&*()_+>line: 233<sls!&*()_+>time: 713500 ps<sls!&*()_+>length: 0<sls!&*()_+>...<sls!&*()_+><sle!&*()_+>
<slp!&*()_+>
UVM_INFO sv/axi4_monitor.sv(233) @ 720000: uvm_test_top.m_env.m_master_agent.m_monitor [axi4_monitor] Write Complete: ID=4, ADDR=0x10000908, RESP=OKAY, Latency=5 cycles
<slb!&*()_+>---<sls!&*()_+>loc: -1<sls!&*()_+>src: sv/axi4_monitor.sv<sls!&*()_+>line: 233<sls!&*()_+>time: 719500 ps<sls!&*()_+>length: 0<sls!&*()_+>...<sls!&*()_+><sle!&*()_+>
<slp!&*()_+>
UVM_INFO sv/axi4_monitor.sv(233) @ 724000: uvm_test_top.m_env.m_master_agent.m_monitor [axi4_monitor] Write Complete: ID=4, ADDR=0x1000091c, RESP=OKAY, Latency=3 cycles
<slb!&*()_+>---<sls!&*()_+>loc: -1<sls!&*()_+>src: sv/axi4_monitor.sv<sls!&*()_+>line: 233<sls!&*()_+>time: 723500 ps<sls!&*()_+>length: 0<sls!&*()_+>...<sls!&*()_+><sle!&*()_+>
<slp!&*()_+>
UVM_INFO sv/axi4_monitor.sv(233) @ 733000: uvm_test_top.m_env.m_master_agent.m_monitor [axi4_monitor] Write Complete: ID=2, ADDR=0x10000928, RESP=OKAY, Latency=6 cycles
<slb!&*()_+>---<sls!&*()_+>loc: -1<sls!&*()_+>src: sv/axi4_monitor.sv<sls!&*()_+>line: 233<sls!&*()_+>time: 732500 ps<sls!&*()_+>length: 0<sls!&*()_+>...<sls!&*()_+><sle!&*()_+>
<slp!&*()_+>
UVM_INFO sv/axi4_monitor.sv(233) @ 736000: uvm_test_top.m_env.m_master_agent.m_monitor [axi4_monitor] Write Complete: ID=14, ADDR=0x10000940, RESP=OKAY, Latency=2 cycles
<slb!&*()_+>---<sls!&*()_+>loc: -1<sls!&*()_+>src: sv/axi4_monitor.sv<sls!&*()_+>line: 233<sls!&*()_+>time: 735500 ps<sls!&*()_+>length: 0<sls!&*()_+>...<sls!&*()_+><sle!&*()_+>
<slp!&*()_+>
UVM_INFO sv/axi4_monitor.sv(233) @ 744000: uvm_test_top.m_env.m_master_agent.m_monitor [axi4_monitor] Write Complete: ID=12, ADDR=0x10000948, RESP=OKAY, Latency=4 cycles
<slb!&*()_+>---<sls!&*()_+>loc: -1<sls!&*()_+>src: sv/axi4_monitor.sv<sls!&*()_+>line: 233<sls!&*()_+>time: 743500 ps<sls!&*()_+>length: 0<sls!&*()_+>...<sls!&*()_+><sle!&*()_+>
<slp!&*()_+>
UVM_INFO sv/axi4_monitor.sv(233) @ 755000: uvm_test_top.m_env.m_master_agent.m_monitor [axi4_monitor] Write Complete: ID=11, ADDR=0x10000958, RESP=OKAY, Latency=9 cycles
<slb!&*()_+>---<sls!&*()_+>loc: -1<sls!&*()_+>src: sv/axi4_monitor.sv<sls!&*()_+>line: 233<sls!&*()_+>time: 754500 ps<sls!&*()_+>length: 0<sls!&*()_+>...<sls!&*()_+><sle!&*()_+>
<slp!&*()_+>
UVM_INFO sv/axi4_monitor.sv(233) @ 761000: uvm_test_top.m_env.m_master_agent.m_monitor [axi4_monitor] Write Complete: ID=13, ADDR=0x1000097c, RESP=OKAY, Latency=5 cycles
<slb!&*()_+>---<sls!&*()_+>loc: -1<sls!&*()_+>src: sv/axi4_monitor.sv<sls!&*()_+>line: 233<sls!&*()_+>time: 760500 ps<sls!&*()_+>length: 0<sls!&*()_+>...<sls!&*()_+><sle!&*()_+>
<slp!&*()_+>
UVM_INFO sv/axi4_monitor.sv(233) @ 767000: uvm_test_top.m_env.m_master_agent.m_monitor [axi4_monitor] Write Complete: ID=10, ADDR=0x10000990, RESP=OKAY, Latency=5 cycles
<slb!&*()_+>---<sls!&*()_+>loc: -1<sls!&*()_+>src: sv/axi4_monitor.sv<sls!&*()_+>line: 233<sls!&*()_+>time: 766500 ps<sls!&*()_+>length: 0<sls!&*()_+>...<sls!&*()_+><sle!&*()_+>
<slp!&*()_+>
UVM_INFO sv/axi4_monitor.sv(233) @ 770000: uvm_test_top.m_env.m_master_agent.m_monitor [axi4_monitor] Write Complete: ID=2, ADDR=0x100009a4, RESP=OKAY, Latency=2 cycles
<slb!&*()_+>---<sls!&*()_+>loc: -1<sls!&*()_+>src: sv/axi4_monitor.sv<sls!&*()_+>line: 233<sls!&*()_+>time: 769500 ps<sls!&*()_+>length: 0<sls!&*()_+>...<sls!&*()_+><sle!&*()_+>
<slp!&*()_+>
UVM_INFO sv/axi4_monitor.sv(233) @ 785000: uvm_test_top.m_env.m_master_agent.m_monitor [axi4_monitor] Write Complete: ID=9, ADDR=0x100009ac, RESP=OKAY, Latency=11 cycles
<slb!&*()_+>---<sls!&*()_+>loc: -1<sls!&*()_+>src: sv/axi4_monitor.sv<sls!&*()_+>line: 233<sls!&*()_+>time: 784500 ps<sls!&*()_+>length: 0<sls!&*()_+>...<sls!&*()_+><sle!&*()_+>
<slp!&*()_+>
UVM_INFO sv/axi4_monitor.sv(233) @ 793000: uvm_test_top.m_env.m_master_agent.m_monitor [axi4_monitor] Write Complete: ID=6, ADDR=0x100009d8, RESP=OKAY, Latency=7 cycles
<slb!&*()_+>---<sls!&*()_+>loc: -1<sls!&*()_+>src: sv/axi4_monitor.sv<sls!&*()_+>line: 233<sls!&*()_+>time: 792500 ps<sls!&*()_+>length: 0<sls!&*()_+>...<sls!&*()_+><sle!&*()_+>
<slp!&*()_+>
UVM_INFO sv/axi4_monitor.sv(233) @ 795000: uvm_test_top.m_env.m_master_agent.m_monitor [axi4_monitor] Write Complete: ID=12, ADDR=0x100009f4, RESP=OKAY, Latency=1 cycles
<slb!&*()_+>---<sls!&*()_+>loc: -1<sls!&*()_+>src: sv/axi4_monitor.sv<sls!&*()_+>line: 233<sls!&*()_+>time: 794500 ps<sls!&*()_+>length: 0<sls!&*()_+>...<sls!&*()_+><sle!&*()_+>
<slp!&*()_+>
UVM_INFO sv/axi4_monitor.sv(233) @ 816000: uvm_test_top.m_env.m_master_agent.m_monitor [axi4_monitor] Write Complete: ID=13, ADDR=0x100009f8, RESP=OKAY, Latency=16 cycles
<slb!&*()_+>---<sls!&*()_+>loc: -1<sls!&*()_+>src: sv/axi4_monitor.sv<sls!&*()_+>line: 233<sls!&*()_+>time: 815500 ps<sls!&*()_+>length: 0<sls!&*()_+>...<sls!&*()_+><sle!&*()_+>
<slp!&*()_+>
UVM_INFO sv/axi4_monitor.sv(233) @ 829000: uvm_test_top.m_env.m_master_agent.m_monitor [axi4_monitor] Write Complete: ID=7, ADDR=0x10000a38, RESP=OKAY, Latency=12 cycles
<slb!&*()_+>---<sls!&*()_+>loc: -1<sls!&*()_+>src: sv/axi4_monitor.sv<sls!&*()_+>line: 233<sls!&*()_+>time: 828500 ps<sls!&*()_+>length: 0<sls!&*()_+>...<sls!&*()_+><sle!&*()_+>
<slp!&*()_+>
UVM_INFO sv/axi4_monitor.sv(233) @ 841000: uvm_test_top.m_env.m_master_agent.m_monitor [axi4_monitor] Write Complete: ID=3, ADDR=0x10000a68, RESP=OKAY, Latency=11 cycles
<slb!&*()_+>---<sls!&*()_+>loc: -1<sls!&*()_+>src: sv/axi4_monitor.sv<sls!&*()_+>line: 233<sls!&*()_+>time: 840500 ps<sls!&*()_+>length: 0<sls!&*()_+>...<sls!&*()_+><sle!&*()_+>
<slp!&*()_+>
UVM_INFO sv/axi4_monitor.sv(233) @ 854000: uvm_test_top.m_env.m_master_agent.m_monitor [axi4_monitor] Write Complete: ID=6, ADDR=0x10000a94, RESP=OKAY, Latency=12 cycles
<slb!&*()_+>---<sls!&*()_+>loc: -1<sls!&*()_+>src: sv/axi4_monitor.sv<sls!&*()_+>line: 233<sls!&*()_+>time: 853500 ps<sls!&*()_+>length: 0<sls!&*()_+>...<sls!&*()_+><sle!&*()_+>
<slp!&*()_+>
UVM_INFO sv/axi4_monitor.sv(233) @ 859000: uvm_test_top.m_env.m_master_agent.m_monitor [axi4_monitor] Write Complete: ID=14, ADDR=0x10000ac4, RESP=OKAY, Latency=4 cycles
<slb!&*()_+>---<sls!&*()_+>loc: -1<sls!&*()_+>src: sv/axi4_monitor.sv<sls!&*()_+>line: 233<sls!&*()_+>time: 858500 ps<sls!&*()_+>length: 0<sls!&*()_+>...<sls!&*()_+><sle!&*()_+>
<slp!&*()_+>
UVM_INFO sv/axi4_monitor.sv(233) @ 867000: uvm_test_top.m_env.m_master_agent.m_monitor [axi4_monitor] Write Complete: ID=10, ADDR=0x10000ad4, RESP=OKAY, Latency=6 cycles
<slb!&*()_+>---<sls!&*()_+>loc: -1<sls!&*()_+>src: sv/axi4_monitor.sv<sls!&*()_+>line: 233<sls!&*()_+>time: 866500 ps<sls!&*()_+>length: 0<sls!&*()_+>...<sls!&*()_+><sle!&*()_+>
<slp!&*()_+>
UVM_INFO sv/axi4_monitor.sv(233) @ 873000: uvm_test_top.m_env.m_master_agent.m_monitor [axi4_monitor] Write Complete: ID=1, ADDR=0x10000aec, RESP=OKAY, Latency=5 cycles
<slb!&*()_+>---<sls!&*()_+>loc: -1<sls!&*()_+>src: sv/axi4_monitor.sv<sls!&*()_+>line: 233<sls!&*()_+>time: 872500 ps<sls!&*()_+>length: 0<sls!&*()_+>...<sls!&*()_+><sle!&*()_+>
<slp!&*()_+>
UVM_INFO sv/axi4_monitor.sv(233) @ 877000: uvm_test_top.m_env.m_master_agent.m_monitor [axi4_monitor] Write Complete: ID=9, ADDR=0x10000b00, RESP=OKAY, Latency=3 cycles
<slb!&*()_+>---<sls!&*()_+>loc: -1<sls!&*()_+>src: sv/axi4_monitor.sv<sls!&*()_+>line: 233<sls!&*()_+>time: 876500 ps<sls!&*()_+>length: 0<sls!&*()_+>...<sls!&*()_+><sle!&*()_+>
<slp!&*()_+>
UVM_INFO sv/axi4_monitor.sv(233) @ 892000: uvm_test_top.m_env.m_master_agent.m_monitor [axi4_monitor] Write Complete: ID=8, ADDR=0x10000b0c, RESP=OKAY, Latency=12 cycles
<slb!&*()_+>---<sls!&*()_+>loc: -1<sls!&*()_+>src: sv/axi4_monitor.sv<sls!&*()_+>line: 233<sls!&*()_+>time: 891500 ps<sls!&*()_+>length: 0<sls!&*()_+>...<sls!&*()_+><sle!&*()_+>
<slp!&*()_+>
UVM_INFO sv/axi4_monitor.sv(233) @ 897000: uvm_test_top.m_env.m_master_agent.m_monitor [axi4_monitor] Write Complete: ID=12, ADDR=0x10000b3c, RESP=OKAY, Latency=4 cycles
<slb!&*()_+>---<sls!&*()_+>loc: -1<sls!&*()_+>src: sv/axi4_monitor.sv<sls!&*()_+>line: 233<sls!&*()_+>time: 896500 ps<sls!&*()_+>length: 0<sls!&*()_+>...<sls!&*()_+><sle!&*()_+>
<slp!&*()_+>
UVM_INFO sv/axi4_monitor.sv(233) @ 912000: uvm_test_top.m_env.m_master_agent.m_monitor [axi4_monitor] Write Complete: ID=6, ADDR=0x10000b4c, RESP=OKAY, Latency=13 cycles
<slb!&*()_+>---<sls!&*()_+>loc: -1<sls!&*()_+>src: sv/axi4_monitor.sv<sls!&*()_+>line: 233<sls!&*()_+>time: 911500 ps<sls!&*()_+>length: 0<sls!&*()_+>...<sls!&*()_+><sle!&*()_+>
<slp!&*()_+>
UVM_INFO sv/axi4_monitor.sv(233) @ 919000: uvm_test_top.m_env.m_master_agent.m_monitor [axi4_monitor] Write Complete: ID=8, ADDR=0x10000b80, RESP=OKAY, Latency=6 cycles
<slb!&*()_+>---<sls!&*()_+>loc: -1<sls!&*()_+>src: sv/axi4_monitor.sv<sls!&*()_+>line: 233<sls!&*()_+>time: 918500 ps<sls!&*()_+>length: 0<sls!&*()_+>...<sls!&*()_+><sle!&*()_+>
<slp!&*()_+>
UVM_INFO sv/axi4_monitor.sv(233) @ 936000: uvm_test_top.m_env.m_master_agent.m_monitor [axi4_monitor] Write Complete: ID=7, ADDR=0x10000b98, RESP=OKAY, Latency=16 cycles
<slb!&*()_+>---<sls!&*()_+>loc: -1<sls!&*()_+>src: sv/axi4_monitor.sv<sls!&*()_+>line: 233<sls!&*()_+>time: 935500 ps<sls!&*()_+>length: 0<sls!&*()_+>...<sls!&*()_+><sle!&*()_+>
<slp!&*()_+>
UVM_INFO sv/axi4_monitor.sv(233) @ 945000: uvm_test_top.m_env.m_master_agent.m_monitor [axi4_monitor] Write Complete: ID=6, ADDR=0x10000bd8, RESP=OKAY, Latency=8 cycles
<slb!&*()_+>---<sls!&*()_+>loc: -1<sls!&*()_+>src: sv/axi4_monitor.sv<sls!&*()_+>line: 233<sls!&*()_+>time: 944500 ps<sls!&*()_+>length: 0<sls!&*()_+>...<sls!&*()_+><sle!&*()_+>
<slp!&*()_+>
UVM_INFO sv/axi4_monitor.sv(233) @ 956000: uvm_test_top.m_env.m_master_agent.m_monitor [axi4_monitor] Write Complete: ID=4, ADDR=0x10000bf8, RESP=OKAY, Latency=10 cycles
<slb!&*()_+>---<sls!&*()_+>loc: -1<sls!&*()_+>src: sv/axi4_monitor.sv<sls!&*()_+>line: 233<sls!&*()_+>time: 955500 ps<sls!&*()_+>length: 0<sls!&*()_+>...<sls!&*()_+><sle!&*()_+>
<slp!&*()_+>
UVM_INFO sv/seq_lib.sv(3411) @ 956000: uvm_test_top.m_env.m_master_agent.m_sequencer@@seq [axi4_data_first_sequence] Write progress: 100/500 transactions
<slb!&*()_+>---<sls!&*()_+>loc: -1<sls!&*()_+>src: /home/xingchangchang/ProgramFiles/vcs_verdi2018/synopsys/vcs_201809/vcs/O-2018.09-SP2/etc/uvm-1.2/seq/uvm_sequence_item.svh<sls!&*()_+>line: 439<sls!&*()_+>time: 955500 ps<sls!&*()_+>length: 0<sls!&*()_+>...<sls!&*()_+><sle!&*()_+>
<slp!&*()_+>
UVM_INFO sv/axi4_monitor.sv(233) @ 961000: uvm_test_top.m_env.m_master_agent.m_monitor [axi4_monitor] Write Complete: ID=3, ADDR=0x10000c20, RESP=OKAY, Latency=4 cycles
<slb!&*()_+>---<sls!&*()_+>loc: -1<sls!&*()_+>src: sv/axi4_monitor.sv<sls!&*()_+>line: 233<sls!&*()_+>time: 960500 ps<sls!&*()_+>length: 0<sls!&*()_+>...<sls!&*()_+><sle!&*()_+>
<slp!&*()_+>
UVM_INFO sv/axi4_monitor.sv(233) @ 977000: uvm_test_top.m_env.m_master_agent.m_monitor [axi4_monitor] Write Complete: ID=12, ADDR=0x10000c30, RESP=OKAY, Latency=14 cycles
<slb!&*()_+>---<sls!&*()_+>loc: -1<sls!&*()_+>src: sv/axi4_monitor.sv<sls!&*()_+>line: 233<sls!&*()_+>time: 976500 ps<sls!&*()_+>length: 0<sls!&*()_+>...<sls!&*()_+><sle!&*()_+>
<slp!&*()_+>
UVM_INFO sv/axi4_monitor.sv(233) @ 981000: uvm_test_top.m_env.m_master_agent.m_monitor [axi4_monitor] Write Complete: ID=10, ADDR=0x10000c68, RESP=OKAY, Latency=3 cycles
<slb!&*()_+>---<sls!&*()_+>loc: -1<sls!&*()_+>src: sv/axi4_monitor.sv<sls!&*()_+>line: 233<sls!&*()_+>time: 980500 ps<sls!&*()_+>length: 0<sls!&*()_+>...<sls!&*()_+><sle!&*()_+>
<slp!&*()_+>
UVM_INFO sv/axi4_monitor.sv(233) @ 996000: uvm_test_top.m_env.m_master_agent.m_monitor [axi4_monitor] Write Complete: ID=11, ADDR=0x10000c74, RESP=OKAY, Latency=12 cycles
<slb!&*()_+>---<sls!&*()_+>loc: -1<sls!&*()_+>src: sv/axi4_monitor.sv<sls!&*()_+>line: 233<sls!&*()_+>time: 995500 ps<sls!&*()_+>length: 0<sls!&*()_+>...<sls!&*()_+><sle!&*()_+>
<slp!&*()_+>
UVM_INFO sv/axi4_monitor.sv(233) @ 1002000: uvm_test_top.m_env.m_master_agent.m_monitor [axi4_monitor] Write Complete: ID=0, ADDR=0x10000ca4, RESP=OKAY, Latency=5 cycles
<slb!&*()_+>---<sls!&*()_+>loc: -1<sls!&*()_+>src: sv/axi4_monitor.sv<sls!&*()_+>line: 233<sls!&*()_+>time: 1001500 ps<sls!&*()_+>length: 0<sls!&*()_+>...<sls!&*()_+><sle!&*()_+>
<slp!&*()_+>
UVM_INFO sv/axi4_monitor.sv(233) @ 1004000: uvm_test_top.m_env.m_master_agent.m_monitor [axi4_monitor] Write Complete: ID=13, ADDR=0x10000cb8, RESP=OKAY, Latency=1 cycles
<slb!&*()_+>---<sls!&*()_+>loc: -1<sls!&*()_+>src: sv/axi4_monitor.sv<sls!&*()_+>line: 233<sls!&*()_+>time: 1003500 ps<sls!&*()_+>length: 0<sls!&*()_+>...<sls!&*()_+><sle!&*()_+>
<slp!&*()_+>
UVM_INFO sv/axi4_monitor.sv(233) @ 1021000: uvm_test_top.m_env.m_master_agent.m_monitor [axi4_monitor] Write Complete: ID=10, ADDR=0x10000cbc, RESP=OKAY, Latency=12 cycles
<slb!&*()_+>---<sls!&*()_+>loc: -1<sls!&*()_+>src: sv/axi4_monitor.sv<sls!&*()_+>line: 233<sls!&*()_+>time: 1020500 ps<sls!&*()_+>length: 0<sls!&*()_+>...<sls!&*()_+><sle!&*()_+>
<slp!&*()_+>
UVM_INFO sv/axi4_monitor.sv(233) @ 1032000: uvm_test_top.m_env.m_master_agent.m_monitor [axi4_monitor] Write Complete: ID=15, ADDR=0x10000cec, RESP=OKAY, Latency=10 cycles
<slb!&*()_+>---<sls!&*()_+>loc: -1<sls!&*()_+>src: sv/axi4_monitor.sv<sls!&*()_+>line: 233<sls!&*()_+>time: 1031500 ps<sls!&*()_+>length: 0<sls!&*()_+>...<sls!&*()_+><sle!&*()_+>
<slp!&*()_+>
UVM_INFO sv/axi4_monitor.sv(233) @ 1049000: uvm_test_top.m_env.m_master_agent.m_monitor [axi4_monitor] Write Complete: ID=14, ADDR=0x10000d14, RESP=OKAY, Latency=16 cycles
<slb!&*()_+>---<sls!&*()_+>loc: -1<sls!&*()_+>src: sv/axi4_monitor.sv<sls!&*()_+>line: 233<sls!&*()_+>time: 1048500 ps<sls!&*()_+>length: 0<sls!&*()_+>...<sls!&*()_+><sle!&*()_+>
<slp!&*()_+>
UVM_INFO sv/axi4_monitor.sv(233) @ 1063000: uvm_test_top.m_env.m_master_agent.m_monitor [axi4_monitor] Write Complete: ID=3, ADDR=0x10000d54, RESP=OKAY, Latency=13 cycles
<slb!&*()_+>---<sls!&*()_+>loc: -1<sls!&*()_+>src: sv/axi4_monitor.sv<sls!&*()_+>line: 233<sls!&*()_+>time: 1062500 ps<sls!&*()_+>length: 0<sls!&*()_+>...<sls!&*()_+><sle!&*()_+>
<slp!&*()_+>
UVM_INFO sv/axi4_monitor.sv(233) @ 1080000: uvm_test_top.m_env.m_master_agent.m_monitor [axi4_monitor] Write Complete: ID=10, ADDR=0x10000d88, RESP=OKAY, Latency=16 cycles
<slb!&*()_+>---<sls!&*()_+>loc: -1<sls!&*()_+>src: sv/axi4_monitor.sv<sls!&*()_+>line: 233<sls!&*()_+>time: 1079500 ps<sls!&*()_+>length: 0<sls!&*()_+>...<sls!&*()_+><sle!&*()_+>
<slp!&*()_+>
UVM_INFO sv/axi4_monitor.sv(233) @ 1096000: uvm_test_top.m_env.m_master_agent.m_monitor [axi4_monitor] Write Complete: ID=15, ADDR=0x10000dc8, RESP=OKAY, Latency=15 cycles
<slb!&*()_+>---<sls!&*()_+>loc: -1<sls!&*()_+>src: sv/axi4_monitor.sv<sls!&*()_+>line: 233<sls!&*()_+>time: 1095500 ps<sls!&*()_+>length: 0<sls!&*()_+>...<sls!&*()_+><sle!&*()_+>
<slp!&*()_+>
UVM_INFO sv/axi4_monitor.sv(233) @ 1106000: uvm_test_top.m_env.m_master_agent.m_monitor [axi4_monitor] Write Complete: ID=15, ADDR=0x10000e04, RESP=OKAY, Latency=9 cycles
<slb!&*()_+>---<sls!&*()_+>loc: -1<sls!&*()_+>src: sv/axi4_monitor.sv<sls!&*()_+>line: 233<sls!&*()_+>time: 1105500 ps<sls!&*()_+>length: 0<sls!&*()_+>...<sls!&*()_+><sle!&*()_+>
<slp!&*()_+>
UVM_INFO sv/axi4_monitor.sv(233) @ 1115000: uvm_test_top.m_env.m_master_agent.m_monitor [axi4_monitor] Write Complete: ID=7, ADDR=0x10000e28, RESP=OKAY, Latency=8 cycles
<slb!&*()_+>---<sls!&*()_+>loc: -1<sls!&*()_+>src: sv/axi4_monitor.sv<sls!&*()_+>line: 233<sls!&*()_+>time: 1114500 ps<sls!&*()_+>length: 0<sls!&*()_+>...<sls!&*()_+><sle!&*()_+>
<slp!&*()_+>
UVM_INFO sv/axi4_monitor.sv(233) @ 1124000: uvm_test_top.m_env.m_master_agent.m_monitor [axi4_monitor] Write Complete: ID=2, ADDR=0x10000e48, RESP=OKAY, Latency=8 cycles
<slb!&*()_+>---<sls!&*()_+>loc: -1<sls!&*()_+>src: sv/axi4_monitor.sv<sls!&*()_+>line: 233<sls!&*()_+>time: 1123500 ps<sls!&*()_+>length: 0<sls!&*()_+>...<sls!&*()_+><sle!&*()_+>
<slp!&*()_+>
UVM_INFO sv/axi4_monitor.sv(233) @ 1132000: uvm_test_top.m_env.m_master_agent.m_monitor [axi4_monitor] Write Complete: ID=5, ADDR=0x10000e68, RESP=OKAY, Latency=7 cycles
<slb!&*()_+>---<sls!&*()_+>loc: -1<sls!&*()_+>src: sv/axi4_monitor.sv<sls!&*()_+>line: 233<sls!&*()_+>time: 1131500 ps<sls!&*()_+>length: 0<sls!&*()_+>...<sls!&*()_+><sle!&*()_+>
<slp!&*()_+>
UVM_INFO sv/axi4_monitor.sv(233) @ 1147000: uvm_test_top.m_env.m_master_agent.m_monitor [axi4_monitor] Write Complete: ID=10, ADDR=0x10000e84, RESP=OKAY, Latency=14 cycles
<slb!&*()_+>---<sls!&*()_+>loc: -1<sls!&*()_+>src: sv/axi4_monitor.sv<sls!&*()_+>line: 233<sls!&*()_+>time: 1146500 ps<sls!&*()_+>length: 0<sls!&*()_+>...<sls!&*()_+><sle!&*()_+>
<slp!&*()_+>
UVM_INFO sv/axi4_monitor.sv(233) @ 1161000: uvm_test_top.m_env.m_master_agent.m_monitor [axi4_monitor] Write Complete: ID=14, ADDR=0x10000ebc, RESP=OKAY, Latency=13 cycles
<slb!&*()_+>---<sls!&*()_+>loc: -1<sls!&*()_+>src: sv/axi4_monitor.sv<sls!&*()_+>line: 233<sls!&*()_+>time: 1160500 ps<sls!&*()_+>length: 0<sls!&*()_+>...<sls!&*()_+><sle!&*()_+>
<slp!&*()_+>
UVM_INFO sv/axi4_monitor.sv(233) @ 1163000: uvm_test_top.m_env.m_master_agent.m_monitor [axi4_monitor] Write Complete: ID=7, ADDR=0x10000ef0, RESP=OKAY, Latency=1 cycles
<slb!&*()_+>---<sls!&*()_+>loc: -1<sls!&*()_+>src: sv/axi4_monitor.sv<sls!&*()_+>line: 233<sls!&*()_+>time: 1162500 ps<sls!&*()_+>length: 0<sls!&*()_+>...<sls!&*()_+><sle!&*()_+>
<slp!&*()_+>
UVM_INFO sv/axi4_monitor.sv(233) @ 1180000: uvm_test_top.m_env.m_master_agent.m_monitor [axi4_monitor] Write Complete: ID=2, ADDR=0x10000ef4, RESP=OKAY, Latency=12 cycles
<slb!&*()_+>---<sls!&*()_+>loc: -1<sls!&*()_+>src: sv/axi4_monitor.sv<sls!&*()_+>line: 233<sls!&*()_+>time: 1179500 ps<sls!&*()_+>length: 0<sls!&*()_+>...<sls!&*()_+><sle!&*()_+>
<slp!&*()_+>
UVM_INFO sv/axi4_monitor.sv(233) @ 1195000: uvm_test_top.m_env.m_master_agent.m_monitor [axi4_monitor] Write Complete: ID=3, ADDR=0x10000f24, RESP=OKAY, Latency=14 cycles
<slb!&*()_+>---<sls!&*()_+>loc: -1<sls!&*()_+>src: sv/axi4_monitor.sv<sls!&*()_+>line: 233<sls!&*()_+>time: 1194500 ps<sls!&*()_+>length: 0<sls!&*()_+>...<sls!&*()_+><sle!&*()_+>
<slp!&*()_+>
UVM_INFO sv/axi4_monitor.sv(233) @ 1207000: uvm_test_top.m_env.m_master_agent.m_monitor [axi4_monitor] Write Complete: ID=9, ADDR=0x10000f5c, RESP=OKAY, Latency=11 cycles
<slb!&*()_+>---<sls!&*()_+>loc: -1<sls!&*()_+>src: sv/axi4_monitor.sv<sls!&*()_+>line: 233<sls!&*()_+>time: 1206500 ps<sls!&*()_+>length: 0<sls!&*()_+>...<sls!&*()_+><sle!&*()_+>
<slp!&*()_+>
UVM_INFO sv/axi4_monitor.sv(233) @ 1209000: uvm_test_top.m_env.m_master_agent.m_monitor [axi4_monitor] Write Complete: ID=1, ADDR=0x10000f88, RESP=OKAY, Latency=1 cycles
<slb!&*()_+>---<sls!&*()_+>loc: -1<sls!&*()_+>src: sv/axi4_monitor.sv<sls!&*()_+>line: 233<sls!&*()_+>time: 1208500 ps<sls!&*()_+>length: 0<sls!&*()_+>...<sls!&*()_+><sle!&*()_+>
<slp!&*()_+>
UVM_INFO sv/axi4_monitor.sv(233) @ 1216000: uvm_test_top.m_env.m_master_agent.m_monitor [axi4_monitor] Write Complete: ID=4, ADDR=0x10000f8c, RESP=OKAY, Latency=2 cycles
<slb!&*()_+>---<sls!&*()_+>loc: -1<sls!&*()_+>src: sv/axi4_monitor.sv<sls!&*()_+>line: 233<sls!&*()_+>time: 1215500 ps<sls!&*()_+>length: 0<sls!&*()_+>...<sls!&*()_+><sle!&*()_+>
<slp!&*()_+>
UVM_INFO sv/axi4_monitor.sv(233) @ 1233000: uvm_test_top.m_env.m_master_agent.m_monitor [axi4_monitor] Write Complete: ID=6, ADDR=0x10000f94, RESP=OKAY, Latency=13 cycles
<slb!&*()_+>---<sls!&*()_+>loc: -1<sls!&*()_+>src: sv/axi4_monitor.sv<sls!&*()_+>line: 233<sls!&*()_+>time: 1232500 ps<sls!&*()_+>length: 0<sls!&*()_+>...<sls!&*()_+><sle!&*()_+>
<slp!&*()_+>
UVM_INFO sv/axi4_master_driver.sv(177) @ 1240000: uvm_test_top.m_env.m_master_agent.m_driver [axi4_master_driver] Splitting burst into 2 sub-bursts
<slb!&*()_+>---<sls!&*()_+>loc: -1<sls!&*()_+>src: sv/axi4_master_driver.sv<sls!&*()_+>line: 177<sls!&*()_+>time: 1239500 ps<sls!&*()_+>length: 0<sls!&*()_+>...<sls!&*()_+><sle!&*()_+>
<slp!&*()_+>
UVM_INFO sv/axi4_monitor.sv(233) @ 1245000: uvm_test_top.m_env.m_master_agent.m_monitor [axi4_monitor] Write Complete: ID=9, ADDR=0x10000fc8, RESP=OKAY, Latency=11 cycles
<slb!&*()_+>---<sls!&*()_+>loc: -1<sls!&*()_+>src: sv/axi4_monitor.sv<sls!&*()_+>line: 233<sls!&*()_+>time: 1244500 ps<sls!&*()_+>length: 0<sls!&*()_+>...<sls!&*()_+><sle!&*()_+>
<slp!&*()_+>
UVM_INFO sv/axi4_monitor.sv(233) @ 1249000: uvm_test_top.m_env.m_master_agent.m_monitor [axi4_monitor] Write Complete: ID=0, ADDR=0x10000ff4, RESP=OKAY, Latency=3 cycles
<slb!&*()_+>---<sls!&*()_+>loc: -1<sls!&*()_+>src: sv/axi4_monitor.sv<sls!&*()_+>line: 233<sls!&*()_+>time: 1248500 ps<sls!&*()_+>length: 0<sls!&*()_+>...<sls!&*()_+><sle!&*()_+>
<slp!&*()_+>
UVM_INFO sv/axi4_monitor.sv(233) @ 1252000: uvm_test_top.m_env.m_master_agent.m_monitor [axi4_monitor] Write Complete: ID=1, ADDR=0x10001000, RESP=OKAY, Latency=1 cycles
<slb!&*()_+>---<sls!&*()_+>loc: -1<sls!&*()_+>src: sv/axi4_monitor.sv<sls!&*()_+>line: 233<sls!&*()_+>time: 1251500 ps<sls!&*()_+>length: 0<sls!&*()_+>...<sls!&*()_+><sle!&*()_+>
<slp!&*()_+>
UVM_INFO sv/axi4_monitor.sv(233) @ 1265000: uvm_test_top.m_env.m_master_agent.m_monitor [axi4_monitor] Write Complete: ID=1, ADDR=0x10001004, RESP=OKAY, Latency=8 cycles
<slb!&*()_+>---<sls!&*()_+>loc: -1<sls!&*()_+>src: sv/axi4_monitor.sv<sls!&*()_+>line: 233<sls!&*()_+>time: 1264500 ps<sls!&*()_+>length: 0<sls!&*()_+>...<sls!&*()_+><sle!&*()_+>
<slp!&*()_+>
UVM_INFO sv/axi4_monitor.sv(233) @ 1279000: uvm_test_top.m_env.m_master_agent.m_monitor [axi4_monitor] Write Complete: ID=12, ADDR=0x10001024, RESP=OKAY, Latency=13 cycles
<slb!&*()_+>---<sls!&*()_+>loc: -1<sls!&*()_+>src: sv/axi4_monitor.sv<sls!&*()_+>line: 233<sls!&*()_+>time: 1278500 ps<sls!&*()_+>length: 0<sls!&*()_+>...<sls!&*()_+><sle!&*()_+>
<slp!&*()_+>
UVM_INFO sv/axi4_monitor.sv(233) @ 1293000: uvm_test_top.m_env.m_master_agent.m_monitor [axi4_monitor] Write Complete: ID=11, ADDR=0x10001058, RESP=OKAY, Latency=13 cycles
<slb!&*()_+>---<sls!&*()_+>loc: -1<sls!&*()_+>src: sv/axi4_monitor.sv<sls!&*()_+>line: 233<sls!&*()_+>time: 1292500 ps<sls!&*()_+>length: 0<sls!&*()_+>...<sls!&*()_+><sle!&*()_+>
<slp!&*()_+>
UVM_INFO sv/axi4_monitor.sv(233) @ 1296000: uvm_test_top.m_env.m_master_agent.m_monitor [axi4_monitor] Write Complete: ID=8, ADDR=0x1000108c, RESP=OKAY, Latency=2 cycles
<slb!&*()_+>---<sls!&*()_+>loc: -1<sls!&*()_+>src: sv/axi4_monitor.sv<sls!&*()_+>line: 233<sls!&*()_+>time: 1295500 ps<sls!&*()_+>length: 0<sls!&*()_+>...<sls!&*()_+><sle!&*()_+>
<slp!&*()_+>
UVM_INFO sv/axi4_monitor.sv(233) @ 1309000: uvm_test_top.m_env.m_master_agent.m_monitor [axi4_monitor] Write Complete: ID=1, ADDR=0x10001094, RESP=OKAY, Latency=9 cycles
<slb!&*()_+>---<sls!&*()_+>loc: -1<sls!&*()_+>src: sv/axi4_monitor.sv<sls!&*()_+>line: 233<sls!&*()_+>time: 1308500 ps<sls!&*()_+>length: 0<sls!&*()_+>...<sls!&*()_+><sle!&*()_+>
<slp!&*()_+>
UVM_INFO sv/axi4_monitor.sv(233) @ 1320000: uvm_test_top.m_env.m_master_agent.m_monitor [axi4_monitor] Write Complete: ID=3, ADDR=0x100010b8, RESP=OKAY, Latency=10 cycles
<slb!&*()_+>---<sls!&*()_+>loc: -1<sls!&*()_+>src: sv/axi4_monitor.sv<sls!&*()_+>line: 233<sls!&*()_+>time: 1319500 ps<sls!&*()_+>length: 0<sls!&*()_+>...<sls!&*()_+><sle!&*()_+>
<slp!&*()_+>
UVM_INFO sv/axi4_monitor.sv(233) @ 1334000: uvm_test_top.m_env.m_master_agent.m_monitor [axi4_monitor] Write Complete: ID=11, ADDR=0x100010e0, RESP=OKAY, Latency=13 cycles
<slb!&*()_+>---<sls!&*()_+>loc: -1<sls!&*()_+>src: sv/axi4_monitor.sv<sls!&*()_+>line: 233<sls!&*()_+>time: 1333500 ps<sls!&*()_+>length: 0<sls!&*()_+>...<sls!&*()_+><sle!&*()_+>
<slp!&*()_+>
UVM_INFO sv/axi4_monitor.sv(233) @ 1339000: uvm_test_top.m_env.m_master_agent.m_monitor [axi4_monitor] Write Complete: ID=8, ADDR=0x10001114, RESP=OKAY, Latency=4 cycles
<slb!&*()_+>---<sls!&*()_+>loc: -1<sls!&*()_+>src: sv/axi4_monitor.sv<sls!&*()_+>line: 233<sls!&*()_+>time: 1338500 ps<sls!&*()_+>length: 0<sls!&*()_+>...<sls!&*()_+><sle!&*()_+>
<slp!&*()_+>
UVM_INFO sv/axi4_monitor.sv(233) @ 1356000: uvm_test_top.m_env.m_master_agent.m_monitor [axi4_monitor] Write Complete: ID=14, ADDR=0x10001124, RESP=OKAY, Latency=15 cycles
<slb!&*()_+>---<sls!&*()_+>loc: -1<sls!&*()_+>src: sv/axi4_monitor.sv<sls!&*()_+>line: 233<sls!&*()_+>time: 1355500 ps<sls!&*()_+>length: 0<sls!&*()_+>...<sls!&*()_+><sle!&*()_+>
<slp!&*()_+>
UVM_INFO sv/axi4_monitor.sv(233) @ 1364000: uvm_test_top.m_env.m_master_agent.m_monitor [axi4_monitor] Write Complete: ID=13, ADDR=0x10001160, RESP=OKAY, Latency=7 cycles
<slb!&*()_+>---<sls!&*()_+>loc: -1<sls!&*()_+>src: sv/axi4_monitor.sv<sls!&*()_+>line: 233<sls!&*()_+>time: 1363500 ps<sls!&*()_+>length: 0<sls!&*()_+>...<sls!&*()_+><sle!&*()_+>
<slp!&*()_+>
UVM_INFO sv/axi4_monitor.sv(233) @ 1371000: uvm_test_top.m_env.m_master_agent.m_monitor [axi4_monitor] Write Complete: ID=4, ADDR=0x1000117c, RESP=OKAY, Latency=6 cycles
<slb!&*()_+>---<sls!&*()_+>loc: -1<sls!&*()_+>src: sv/axi4_monitor.sv<sls!&*()_+>line: 233<sls!&*()_+>time: 1370500 ps<sls!&*()_+>length: 0<sls!&*()_+>...<sls!&*()_+><sle!&*()_+>
<slp!&*()_+>
UVM_INFO sv/axi4_monitor.sv(233) @ 1377000: uvm_test_top.m_env.m_master_agent.m_monitor [axi4_monitor] Write Complete: ID=8, ADDR=0x10001194, RESP=OKAY, Latency=5 cycles
<slb!&*()_+>---<sls!&*()_+>loc: -1<sls!&*()_+>src: sv/axi4_monitor.sv<sls!&*()_+>line: 233<sls!&*()_+>time: 1376500 ps<sls!&*()_+>length: 0<sls!&*()_+>...<sls!&*()_+><sle!&*()_+>
<slp!&*()_+>
UVM_INFO sv/axi4_monitor.sv(233) @ 1384000: uvm_test_top.m_env.m_master_agent.m_monitor [axi4_monitor] Write Complete: ID=1, ADDR=0x100011a8, RESP=OKAY, Latency=6 cycles
<slb!&*()_+>---<sls!&*()_+>loc: -1<sls!&*()_+>src: sv/axi4_monitor.sv<sls!&*()_+>line: 233<sls!&*()_+>time: 1383500 ps<sls!&*()_+>length: 0<sls!&*()_+>...<sls!&*()_+><sle!&*()_+>
<slp!&*()_+>
UVM_INFO sv/axi4_monitor.sv(233) @ 1397000: uvm_test_top.m_env.m_master_agent.m_monitor [axi4_monitor] Write Complete: ID=12, ADDR=0x100011c0, RESP=OKAY, Latency=12 cycles
<slb!&*()_+>---<sls!&*()_+>loc: -1<sls!&*()_+>src: sv/axi4_monitor.sv<sls!&*()_+>line: 233<sls!&*()_+>time: 1396500 ps<sls!&*()_+>length: 0<sls!&*()_+>...<sls!&*()_+><sle!&*()_+>
<slp!&*()_+>
UVM_INFO sv/axi4_monitor.sv(233) @ 1404000: uvm_test_top.m_env.m_master_agent.m_monitor [axi4_monitor] Write Complete: ID=9, ADDR=0x100011f0, RESP=OKAY, Latency=6 cycles
<slb!&*()_+>---<sls!&*()_+>loc: -1<sls!&*()_+>src: sv/axi4_monitor.sv<sls!&*()_+>line: 233<sls!&*()_+>time: 1403500 ps<sls!&*()_+>length: 0<sls!&*()_+>...<sls!&*()_+><sle!&*()_+>
<slp!&*()_+>
UVM_INFO sv/axi4_monitor.sv(233) @ 1406000: uvm_test_top.m_env.m_master_agent.m_monitor [axi4_monitor] Write Complete: ID=7, ADDR=0x10001208, RESP=OKAY, Latency=1 cycles
<slb!&*()_+>---<sls!&*()_+>loc: -1<sls!&*()_+>src: sv/axi4_monitor.sv<sls!&*()_+>line: 233<sls!&*()_+>time: 1405500 ps<sls!&*()_+>length: 0<sls!&*()_+>...<sls!&*()_+><sle!&*()_+>
<slp!&*()_+>
UVM_INFO sv/axi4_monitor.sv(233) @ 1420000: uvm_test_top.m_env.m_master_agent.m_monitor [axi4_monitor] Write Complete: ID=8, ADDR=0x1000120c, RESP=OKAY, Latency=9 cycles
<slb!&*()_+>---<sls!&*()_+>loc: -1<sls!&*()_+>src: sv/axi4_monitor.sv<sls!&*()_+>line: 233<sls!&*()_+>time: 1419500 ps<sls!&*()_+>length: 0<sls!&*()_+>...<sls!&*()_+><sle!&*()_+>
<slp!&*()_+>
UVM_INFO sv/axi4_monitor.sv(233) @ 1427000: uvm_test_top.m_env.m_master_agent.m_monitor [axi4_monitor] Write Complete: ID=4, ADDR=0x10001230, RESP=OKAY, Latency=6 cycles
<slb!&*()_+>---<sls!&*()_+>loc: -1<sls!&*()_+>src: sv/axi4_monitor.sv<sls!&*()_+>line: 233<sls!&*()_+>time: 1426500 ps<sls!&*()_+>length: 0<sls!&*()_+>...<sls!&*()_+><sle!&*()_+>
<slp!&*()_+>
UVM_INFO sv/axi4_monitor.sv(233) @ 1432000: uvm_test_top.m_env.m_master_agent.m_monitor [axi4_monitor] Write Complete: ID=9, ADDR=0x10001248, RESP=OKAY, Latency=4 cycles
<slb!&*()_+>---<sls!&*()_+>loc: -1<sls!&*()_+>src: sv/axi4_monitor.sv<sls!&*()_+>line: 233<sls!&*()_+>time: 1431500 ps<sls!&*()_+>length: 0<sls!&*()_+>...<sls!&*()_+><sle!&*()_+>
<slp!&*()_+>
UVM_INFO sv/axi4_monitor.sv(233) @ 1435000: uvm_test_top.m_env.m_master_agent.m_monitor [axi4_monitor] Write Complete: ID=3, ADDR=0x10001258, RESP=OKAY, Latency=1 cycles
<slb!&*()_+>---<sls!&*()_+>loc: -1<sls!&*()_+>src: sv/axi4_monitor.sv<sls!&*()_+>line: 233<sls!&*()_+>time: 1434500 ps<sls!&*()_+>length: 0<sls!&*()_+>...<sls!&*()_+><sle!&*()_+>
<slp!&*()_+>
UVM_INFO sv/axi4_monitor.sv(233) @ 1454000: uvm_test_top.m_env.m_master_agent.m_monitor [axi4_monitor] Write Complete: ID=5, ADDR=0x1000125c, RESP=OKAY, Latency=14 cycles
<slb!&*()_+>---<sls!&*()_+>loc: -1<sls!&*()_+>src: sv/axi4_monitor.sv<sls!&*()_+>line: 233<sls!&*()_+>time: 1453500 ps<sls!&*()_+>length: 0<sls!&*()_+>...<sls!&*()_+><sle!&*()_+>
<slp!&*()_+>
UVM_INFO sv/axi4_monitor.sv(233) @ 1466000: uvm_test_top.m_env.m_master_agent.m_monitor [axi4_monitor] Write Complete: ID=3, ADDR=0x10001294, RESP=OKAY, Latency=11 cycles
<slb!&*()_+>---<sls!&*()_+>loc: -1<sls!&*()_+>src: sv/axi4_monitor.sv<sls!&*()_+>line: 233<sls!&*()_+>time: 1465500 ps<sls!&*()_+>length: 0<sls!&*()_+>...<sls!&*()_+><sle!&*()_+>
<slp!&*()_+>
UVM_INFO sv/axi4_monitor.sv(233) @ 1480000: uvm_test_top.m_env.m_master_agent.m_monitor [axi4_monitor] Write Complete: ID=13, ADDR=0x100012c0, RESP=OKAY, Latency=13 cycles
<slb!&*()_+>---<sls!&*()_+>loc: -1<sls!&*()_+>src: sv/axi4_monitor.sv<sls!&*()_+>line: 233<sls!&*()_+>time: 1479500 ps<sls!&*()_+>length: 0<sls!&*()_+>...<sls!&*()_+><sle!&*()_+>
<slp!&*()_+>
UVM_INFO sv/axi4_monitor.sv(233) @ 1493000: uvm_test_top.m_env.m_master_agent.m_monitor [axi4_monitor] Write Complete: ID=2, ADDR=0x100012f4, RESP=OKAY, Latency=12 cycles
<slb!&*()_+>---<sls!&*()_+>loc: -1<sls!&*()_+>src: sv/axi4_monitor.sv<sls!&*()_+>line: 233<sls!&*()_+>time: 1492500 ps<sls!&*()_+>length: 0<sls!&*()_+>...<sls!&*()_+><sle!&*()_+>
<slp!&*()_+>
UVM_INFO sv/axi4_monitor.sv(233) @ 1502000: uvm_test_top.m_env.m_master_agent.m_monitor [axi4_monitor] Write Complete: ID=11, ADDR=0x10001324, RESP=OKAY, Latency=8 cycles
<slb!&*()_+>---<sls!&*()_+>loc: -1<sls!&*()_+>src: sv/axi4_monitor.sv<sls!&*()_+>line: 233<sls!&*()_+>time: 1501500 ps<sls!&*()_+>length: 0<sls!&*()_+>...<sls!&*()_+><sle!&*()_+>
<slp!&*()_+>
UVM_INFO sv/axi4_monitor.sv(233) @ 1507000: uvm_test_top.m_env.m_master_agent.m_monitor [axi4_monitor] Write Complete: ID=9, ADDR=0x10001344, RESP=OKAY, Latency=4 cycles
<slb!&*()_+>---<sls!&*()_+>loc: -1<sls!&*()_+>src: sv/axi4_monitor.sv<sls!&*()_+>line: 233<sls!&*()_+>time: 1506500 ps<sls!&*()_+>length: 0<sls!&*()_+>...<sls!&*()_+><sle!&*()_+>
<slp!&*()_+>
UVM_INFO sv/axi4_monitor.sv(233) @ 1525000: uvm_test_top.m_env.m_master_agent.m_monitor [axi4_monitor] Write Complete: ID=8, ADDR=0x10001354, RESP=OKAY, Latency=16 cycles
<slb!&*()_+>---<sls!&*()_+>loc: -1<sls!&*()_+>src: sv/axi4_monitor.sv<sls!&*()_+>line: 233<sls!&*()_+>time: 1524500 ps<sls!&*()_+>length: 0<sls!&*()_+>...<sls!&*()_+><sle!&*()_+>
<slp!&*()_+>
UVM_INFO sv/axi4_monitor.sv(233) @ 1531000: uvm_test_top.m_env.m_master_agent.m_monitor [axi4_monitor] Write Complete: ID=11, ADDR=0x10001394, RESP=OKAY, Latency=5 cycles
<slb!&*()_+>---<sls!&*()_+>loc: -1<sls!&*()_+>src: sv/axi4_monitor.sv<sls!&*()_+>line: 233<sls!&*()_+>time: 1530500 ps<sls!&*()_+>length: 0<sls!&*()_+>...<sls!&*()_+><sle!&*()_+>
<slp!&*()_+>
UVM_INFO sv/axi4_monitor.sv(233) @ 1546000: uvm_test_top.m_env.m_master_agent.m_monitor [axi4_monitor] Write Complete: ID=7, ADDR=0x100013a8, RESP=OKAY, Latency=14 cycles
<slb!&*()_+>---<sls!&*()_+>loc: -1<sls!&*()_+>src: sv/axi4_monitor.sv<sls!&*()_+>line: 233<sls!&*()_+>time: 1545500 ps<sls!&*()_+>length: 0<sls!&*()_+>...<sls!&*()_+><sle!&*()_+>
<slp!&*()_+>
UVM_INFO sv/axi4_monitor.sv(233) @ 1560000: uvm_test_top.m_env.m_master_agent.m_monitor [axi4_monitor] Write Complete: ID=12, ADDR=0x100013e0, RESP=OKAY, Latency=13 cycles
<slb!&*()_+>---<sls!&*()_+>loc: -1<sls!&*()_+>src: sv/axi4_monitor.sv<sls!&*()_+>line: 233<sls!&*()_+>time: 1559500 ps<sls!&*()_+>length: 0<sls!&*()_+>...<sls!&*()_+><sle!&*()_+>
<slp!&*()_+>
UVM_INFO sv/axi4_monitor.sv(233) @ 1566000: uvm_test_top.m_env.m_master_agent.m_monitor [axi4_monitor] Write Complete: ID=10, ADDR=0x10001414, RESP=OKAY, Latency=5 cycles
<slb!&*()_+>---<sls!&*()_+>loc: -1<sls!&*()_+>src: sv/axi4_monitor.sv<sls!&*()_+>line: 233<sls!&*()_+>time: 1565500 ps<sls!&*()_+>length: 0<sls!&*()_+>...<sls!&*()_+><sle!&*()_+>
<slp!&*()_+>
UVM_INFO sv/axi4_monitor.sv(233) @ 1573000: uvm_test_top.m_env.m_master_agent.m_monitor [axi4_monitor] Write Complete: ID=2, ADDR=0x10001428, RESP=OKAY, Latency=6 cycles
<slb!&*()_+>---<sls!&*()_+>loc: -1<sls!&*()_+>src: sv/axi4_monitor.sv<sls!&*()_+>line: 233<sls!&*()_+>time: 1572500 ps<sls!&*()_+>length: 0<sls!&*()_+>...<sls!&*()_+><sle!&*()_+>
<slp!&*()_+>
UVM_INFO sv/axi4_monitor.sv(233) @ 1583000: uvm_test_top.m_env.m_master_agent.m_monitor [axi4_monitor] Write Complete: ID=12, ADDR=0x10001440, RESP=OKAY, Latency=9 cycles
<slb!&*()_+>---<sls!&*()_+>loc: -1<sls!&*()_+>src: sv/axi4_monitor.sv<sls!&*()_+>line: 233<sls!&*()_+>time: 1582500 ps<sls!&*()_+>length: 0<sls!&*()_+>...<sls!&*()_+><sle!&*()_+>
<slp!&*()_+>
UVM_INFO sv/axi4_monitor.sv(233) @ 1589000: uvm_test_top.m_env.m_master_agent.m_monitor [axi4_monitor] Write Complete: ID=2, ADDR=0x10001464, RESP=OKAY, Latency=5 cycles
<slb!&*()_+>---<sls!&*()_+>loc: -1<sls!&*()_+>src: sv/axi4_monitor.sv<sls!&*()_+>line: 233<sls!&*()_+>time: 1588500 ps<sls!&*()_+>length: 0<sls!&*()_+>...<sls!&*()_+><sle!&*()_+>
<slp!&*()_+>
UVM_INFO sv/axi4_monitor.sv(233) @ 1598000: uvm_test_top.m_env.m_master_agent.m_monitor [axi4_monitor] Write Complete: ID=2, ADDR=0x10001478, RESP=OKAY, Latency=8 cycles
<slb!&*()_+>---<sls!&*()_+>loc: -1<sls!&*()_+>src: sv/axi4_monitor.sv<sls!&*()_+>line: 233<sls!&*()_+>time: 1597500 ps<sls!&*()_+>length: 0<sls!&*()_+>...<sls!&*()_+><sle!&*()_+>
<slp!&*()_+>
UVM_INFO sv/axi4_monitor.sv(233) @ 1614000: uvm_test_top.m_env.m_master_agent.m_monitor [axi4_monitor] Write Complete: ID=15, ADDR=0x10001498, RESP=OKAY, Latency=15 cycles
<slb!&*()_+>---<sls!&*()_+>loc: -1<sls!&*()_+>src: sv/axi4_monitor.sv<sls!&*()_+>line: 233<sls!&*()_+>time: 1613500 ps<sls!&*()_+>length: 0<sls!&*()_+>...<sls!&*()_+><sle!&*()_+>
<slp!&*()_+>
UVM_INFO sv/axi4_monitor.sv(233) @ 1626000: uvm_test_top.m_env.m_master_agent.m_monitor [axi4_monitor] Write Complete: ID=12, ADDR=0x100014d4, RESP=OKAY, Latency=11 cycles
<slb!&*()_+>---<sls!&*()_+>loc: -1<sls!&*()_+>src: sv/axi4_monitor.sv<sls!&*()_+>line: 233<sls!&*()_+>time: 1625500 ps<sls!&*()_+>length: 0<sls!&*()_+>...<sls!&*()_+><sle!&*()_+>
<slp!&*()_+>
UVM_INFO sv/axi4_monitor.sv(233) @ 1632000: uvm_test_top.m_env.m_master_agent.m_monitor [axi4_monitor] Write Complete: ID=0, ADDR=0x10001500, RESP=OKAY, Latency=5 cycles
<slb!&*()_+>---<sls!&*()_+>loc: -1<sls!&*()_+>src: sv/axi4_monitor.sv<sls!&*()_+>line: 233<sls!&*()_+>time: 1631500 ps<sls!&*()_+>length: 0<sls!&*()_+>...<sls!&*()_+><sle!&*()_+>
<slp!&*()_+>
UVM_INFO sv/axi4_monitor.sv(233) @ 1644000: uvm_test_top.m_env.m_master_agent.m_monitor [axi4_monitor] Write Complete: ID=15, ADDR=0x10001514, RESP=OKAY, Latency=11 cycles
<slb!&*()_+>---<sls!&*()_+>loc: -1<sls!&*()_+>src: sv/axi4_monitor.sv<sls!&*()_+>line: 233<sls!&*()_+>time: 1643500 ps<sls!&*()_+>length: 0<sls!&*()_+>...<sls!&*()_+><sle!&*()_+>
<slp!&*()_+>
UVM_INFO sv/axi4_monitor.sv(233) @ 1647000: uvm_test_top.m_env.m_master_agent.m_monitor [axi4_monitor] Write Complete: ID=4, ADDR=0x10001540, RESP=OKAY, Latency=2 cycles
<slb!&*()_+>---<sls!&*()_+>loc: -1<sls!&*()_+>src: sv/axi4_monitor.sv<sls!&*()_+>line: 233<sls!&*()_+>time: 1646500 ps<sls!&*()_+>length: 0<sls!&*()_+>...<sls!&*()_+><sle!&*()_+>
<slp!&*()_+>
UVM_INFO sv/axi4_monitor.sv(233) @ 1661000: uvm_test_top.m_env.m_master_agent.m_monitor [axi4_monitor] Write Complete: ID=11, ADDR=0x10001548, RESP=OKAY, Latency=10 cycles
<slb!&*()_+>---<sls!&*()_+>loc: -1<sls!&*()_+>src: sv/axi4_monitor.sv<sls!&*()_+>line: 233<sls!&*()_+>time: 1660500 ps<sls!&*()_+>length: 0<sls!&*()_+>...<sls!&*()_+><sle!&*()_+>
<slp!&*()_+>
UVM_INFO sv/axi4_monitor.sv(233) @ 1663000: uvm_test_top.m_env.m_master_agent.m_monitor [axi4_monitor] Write Complete: ID=2, ADDR=0x10001570, RESP=OKAY, Latency=1 cycles
<slb!&*()_+>---<sls!&*()_+>loc: -1<sls!&*()_+>src: sv/axi4_monitor.sv<sls!&*()_+>line: 233<sls!&*()_+>time: 1662500 ps<sls!&*()_+>length: 0<sls!&*()_+>...<sls!&*()_+><sle!&*()_+>
<slp!&*()_+>
UVM_INFO sv/axi4_monitor.sv(233) @ 1672000: uvm_test_top.m_env.m_master_agent.m_monitor [axi4_monitor] Write Complete: ID=8, ADDR=0x10001574, RESP=OKAY, Latency=4 cycles
<slb!&*()_+>---<sls!&*()_+>loc: -1<sls!&*()_+>src: sv/axi4_monitor.sv<sls!&*()_+>line: 233<sls!&*()_+>time: 1671500 ps<sls!&*()_+>length: 0<sls!&*()_+>...<sls!&*()_+><sle!&*()_+>
<slp!&*()_+>
UVM_INFO sv/axi4_monitor.sv(233) @ 1686000: uvm_test_top.m_env.m_master_agent.m_monitor [axi4_monitor] Write Complete: ID=4, ADDR=0x10001584, RESP=OKAY, Latency=12 cycles
<slb!&*()_+>---<sls!&*()_+>loc: -1<sls!&*()_+>src: sv/axi4_monitor.sv<sls!&*()_+>line: 233<sls!&*()_+>time: 1685500 ps<sls!&*()_+>length: 0<sls!&*()_+>...<sls!&*()_+><sle!&*()_+>
<slp!&*()_+>
UVM_INFO sv/axi4_monitor.sv(233) @ 1698000: uvm_test_top.m_env.m_master_agent.m_monitor [axi4_monitor] Write Complete: ID=6, ADDR=0x100015b4, RESP=OKAY, Latency=11 cycles
<slb!&*()_+>---<sls!&*()_+>loc: -1<sls!&*()_+>src: sv/axi4_monitor.sv<sls!&*()_+>line: 233<sls!&*()_+>time: 1697500 ps<sls!&*()_+>length: 0<sls!&*()_+>...<sls!&*()_+><sle!&*()_+>
<slp!&*()_+>
UVM_INFO sv/axi4_monitor.sv(233) @ 1710000: uvm_test_top.m_env.m_master_agent.m_monitor [axi4_monitor] Write Complete: ID=4, ADDR=0x100015e0, RESP=OKAY, Latency=11 cycles
<slb!&*()_+>---<sls!&*()_+>loc: -1<sls!&*()_+>src: sv/axi4_monitor.sv<sls!&*()_+>line: 233<sls!&*()_+>time: 1709500 ps<sls!&*()_+>length: 0<sls!&*()_+>...<sls!&*()_+><sle!&*()_+>
<slp!&*()_+>
UVM_INFO sv/axi4_monitor.sv(233) @ 1721000: uvm_test_top.m_env.m_master_agent.m_monitor [axi4_monitor] Write Complete: ID=2, ADDR=0x1000160c, RESP=OKAY, Latency=10 cycles
<slb!&*()_+>---<sls!&*()_+>loc: -1<sls!&*()_+>src: sv/axi4_monitor.sv<sls!&*()_+>line: 233<sls!&*()_+>time: 1720500 ps<sls!&*()_+>length: 0<sls!&*()_+>...<sls!&*()_+><sle!&*()_+>
<slp!&*()_+>
UVM_INFO sv/axi4_monitor.sv(233) @ 1738000: uvm_test_top.m_env.m_master_agent.m_monitor [axi4_monitor] Write Complete: ID=3, ADDR=0x10001634, RESP=OKAY, Latency=16 cycles
<slb!&*()_+>---<sls!&*()_+>loc: -1<sls!&*()_+>src: sv/axi4_monitor.sv<sls!&*()_+>line: 233<sls!&*()_+>time: 1737500 ps<sls!&*()_+>length: 0<sls!&*()_+>...<sls!&*()_+><sle!&*()_+>
<slp!&*()_+>
UVM_INFO sv/axi4_monitor.sv(233) @ 1740000: uvm_test_top.m_env.m_master_agent.m_monitor [axi4_monitor] Write Complete: ID=15, ADDR=0x10001674, RESP=OKAY, Latency=1 cycles
<slb!&*()_+>---<sls!&*()_+>loc: -1<sls!&*()_+>src: sv/axi4_monitor.sv<sls!&*()_+>line: 233<sls!&*()_+>time: 1739500 ps<sls!&*()_+>length: 0<sls!&*()_+>...<sls!&*()_+><sle!&*()_+>
<slp!&*()_+>
UVM_INFO sv/axi4_monitor.sv(233) @ 1750000: uvm_test_top.m_env.m_master_agent.m_monitor [axi4_monitor] Write Complete: ID=10, ADDR=0x10001678, RESP=OKAY, Latency=5 cycles
<slb!&*()_+>---<sls!&*()_+>loc: -1<sls!&*()_+>src: sv/axi4_monitor.sv<sls!&*()_+>line: 233<sls!&*()_+>time: 1749500 ps<sls!&*()_+>length: 0<sls!&*()_+>...<sls!&*()_+><sle!&*()_+>
<slp!&*()_+>
UVM_INFO sv/axi4_monitor.sv(233) @ 1752000: uvm_test_top.m_env.m_master_agent.m_monitor [axi4_monitor] Write Complete: ID=15, ADDR=0x1000168c, RESP=OKAY, Latency=1 cycles
<slb!&*()_+>---<sls!&*()_+>loc: -1<sls!&*()_+>src: sv/axi4_monitor.sv<sls!&*()_+>line: 233<sls!&*()_+>time: 1751500 ps<sls!&*()_+>length: 0<sls!&*()_+>...<sls!&*()_+><sle!&*()_+>
<slp!&*()_+>
UVM_INFO sv/axi4_monitor.sv(233) @ 1768000: uvm_test_top.m_env.m_master_agent.m_monitor [axi4_monitor] Write Complete: ID=13, ADDR=0x10001690, RESP=OKAY, Latency=11 cycles
<slb!&*()_+>---<sls!&*()_+>loc: -1<sls!&*()_+>src: sv/axi4_monitor.sv<sls!&*()_+>line: 233<sls!&*()_+>time: 1767500 ps<sls!&*()_+>length: 0<sls!&*()_+>...<sls!&*()_+><sle!&*()_+>
<slp!&*()_+>
UVM_INFO sv/axi4_monitor.sv(233) @ 1775000: uvm_test_top.m_env.m_master_agent.m_monitor [axi4_monitor] Write Complete: ID=0, ADDR=0x100016bc, RESP=OKAY, Latency=6 cycles
<slb!&*()_+>---<sls!&*()_+>loc: -1<sls!&*()_+>src: sv/axi4_monitor.sv<sls!&*()_+>line: 233<sls!&*()_+>time: 1774500 ps<sls!&*()_+>length: 0<sls!&*()_+>...<sls!&*()_+><sle!&*()_+>
<slp!&*()_+>
UVM_INFO sv/axi4_monitor.sv(233) @ 1790000: uvm_test_top.m_env.m_master_agent.m_monitor [axi4_monitor] Write Complete: ID=7, ADDR=0x100016d4, RESP=OKAY, Latency=14 cycles
<slb!&*()_+>---<sls!&*()_+>loc: -1<sls!&*()_+>src: sv/axi4_monitor.sv<sls!&*()_+>line: 233<sls!&*()_+>time: 1789500 ps<sls!&*()_+>length: 0<sls!&*()_+>...<sls!&*()_+><sle!&*()_+>
<slp!&*()_+>
UVM_INFO sv/axi4_monitor.sv(233) @ 1804000: uvm_test_top.m_env.m_master_agent.m_monitor [axi4_monitor] Write Complete: ID=7, ADDR=0x1000170c, RESP=OKAY, Latency=13 cycles
<slb!&*()_+>---<sls!&*()_+>loc: -1<sls!&*()_+>src: sv/axi4_monitor.sv<sls!&*()_+>line: 233<sls!&*()_+>time: 1803500 ps<sls!&*()_+>length: 0<sls!&*()_+>...<sls!&*()_+><sle!&*()_+>
<slp!&*()_+>
UVM_INFO sv/axi4_monitor.sv(233) @ 1813000: uvm_test_top.m_env.m_master_agent.m_monitor [axi4_monitor] Write Complete: ID=0, ADDR=0x10001740, RESP=OKAY, Latency=8 cycles
<slb!&*()_+>---<sls!&*()_+>loc: -1<sls!&*()_+>src: sv/axi4_monitor.sv<sls!&*()_+>line: 233<sls!&*()_+>time: 1812500 ps<sls!&*()_+>length: 0<sls!&*()_+>...<sls!&*()_+><sle!&*()_+>
<slp!&*()_+>
UVM_INFO sv/axi4_monitor.sv(233) @ 1830000: uvm_test_top.m_env.m_master_agent.m_monitor [axi4_monitor] Write Complete: ID=11, ADDR=0x10001760, RESP=OKAY, Latency=16 cycles
<slb!&*()_+>---<sls!&*()_+>loc: -1<sls!&*()_+>src: sv/axi4_monitor.sv<sls!&*()_+>line: 233<sls!&*()_+>time: 1829500 ps<sls!&*()_+>length: 0<sls!&*()_+>...<sls!&*()_+><sle!&*()_+>
<slp!&*()_+>
UVM_INFO sv/axi4_monitor.sv(233) @ 1842000: uvm_test_top.m_env.m_master_agent.m_monitor [axi4_monitor] Write Complete: ID=5, ADDR=0x100017a0, RESP=OKAY, Latency=11 cycles
<slb!&*()_+>---<sls!&*()_+>loc: -1<sls!&*()_+>src: sv/axi4_monitor.sv<sls!&*()_+>line: 233<sls!&*()_+>time: 1841500 ps<sls!&*()_+>length: 0<sls!&*()_+>...<sls!&*()_+><sle!&*()_+>
<slp!&*()_+>
UVM_INFO sv/axi4_monitor.sv(233) @ 1850000: uvm_test_top.m_env.m_master_agent.m_monitor [axi4_monitor] Write Complete: ID=15, ADDR=0x100017cc, RESP=OKAY, Latency=7 cycles
<slb!&*()_+>---<sls!&*()_+>loc: -1<sls!&*()_+>src: sv/axi4_monitor.sv<sls!&*()_+>line: 233<sls!&*()_+>time: 1849500 ps<sls!&*()_+>length: 0<sls!&*()_+>...<sls!&*()_+><sle!&*()_+>
<slp!&*()_+>
UVM_INFO sv/axi4_monitor.sv(233) @ 1857000: uvm_test_top.m_env.m_master_agent.m_monitor [axi4_monitor] Write Complete: ID=13, ADDR=0x100017e8, RESP=OKAY, Latency=6 cycles
<slb!&*()_+>---<sls!&*()_+>loc: -1<sls!&*()_+>src: sv/axi4_monitor.sv<sls!&*()_+>line: 233<sls!&*()_+>time: 1856500 ps<sls!&*()_+>length: 0<sls!&*()_+>...<sls!&*()_+><sle!&*()_+>
<slp!&*()_+>
UVM_INFO sv/axi4_monitor.sv(233) @ 1860000: uvm_test_top.m_env.m_master_agent.m_monitor [axi4_monitor] Write Complete: ID=9, ADDR=0x10001800, RESP=OKAY, Latency=2 cycles
<slb!&*()_+>---<sls!&*()_+>loc: -1<sls!&*()_+>src: sv/axi4_monitor.sv<sls!&*()_+>line: 233<sls!&*()_+>time: 1859500 ps<sls!&*()_+>length: 0<sls!&*()_+>...<sls!&*()_+><sle!&*()_+>
<slp!&*()_+>
UVM_INFO sv/axi4_monitor.sv(233) @ 1871000: uvm_test_top.m_env.m_master_agent.m_monitor [axi4_monitor] Write Complete: ID=9, ADDR=0x10001808, RESP=OKAY, Latency=7 cycles
<slb!&*()_+>---<sls!&*()_+>loc: -1<sls!&*()_+>src: sv/axi4_monitor.sv<sls!&*()_+>line: 233<sls!&*()_+>time: 1870500 ps<sls!&*()_+>length: 0<sls!&*()_+>...<sls!&*()_+><sle!&*()_+>
<slp!&*()_+>
UVM_INFO sv/axi4_monitor.sv(233) @ 1879000: uvm_test_top.m_env.m_master_agent.m_monitor [axi4_monitor] Write Complete: ID=9, ADDR=0x10001824, RESP=OKAY, Latency=7 cycles
<slb!&*()_+>---<sls!&*()_+>loc: -1<sls!&*()_+>src: sv/axi4_monitor.sv<sls!&*()_+>line: 233<sls!&*()_+>time: 1878500 ps<sls!&*()_+>length: 0<sls!&*()_+>...<sls!&*()_+><sle!&*()_+>
<slp!&*()_+>
UVM_INFO sv/axi4_monitor.sv(233) @ 1895000: uvm_test_top.m_env.m_master_agent.m_monitor [axi4_monitor] Write Complete: ID=6, ADDR=0x10001840, RESP=OKAY, Latency=15 cycles
<slb!&*()_+>---<sls!&*()_+>loc: -1<sls!&*()_+>src: sv/axi4_monitor.sv<sls!&*()_+>line: 233<sls!&*()_+>time: 1894500 ps<sls!&*()_+>length: 0<sls!&*()_+>...<sls!&*()_+><sle!&*()_+>
<slp!&*()_+>
UVM_INFO sv/axi4_monitor.sv(233) @ 1912000: uvm_test_top.m_env.m_master_agent.m_monitor [axi4_monitor] Write Complete: ID=12, ADDR=0x1000187c, RESP=OKAY, Latency=16 cycles
<slb!&*()_+>---<sls!&*()_+>loc: -1<sls!&*()_+>src: sv/axi4_monitor.sv<sls!&*()_+>line: 233<sls!&*()_+>time: 1911500 ps<sls!&*()_+>length: 0<sls!&*()_+>...<sls!&*()_+><sle!&*()_+>
<slp!&*()_+>
UVM_INFO sv/axi4_monitor.sv(233) @ 1920000: uvm_test_top.m_env.m_master_agent.m_monitor [axi4_monitor] Write Complete: ID=1, ADDR=0x100018bc, RESP=OKAY, Latency=7 cycles
<slb!&*()_+>---<sls!&*()_+>loc: -1<sls!&*()_+>src: sv/axi4_monitor.sv<sls!&*()_+>line: 233<sls!&*()_+>time: 1919500 ps<sls!&*()_+>length: 0<sls!&*()_+>...<sls!&*()_+><sle!&*()_+>
<slp!&*()_+>
UVM_INFO sv/axi4_monitor.sv(233) @ 1924000: uvm_test_top.m_env.m_master_agent.m_monitor [axi4_monitor] Write Complete: ID=12, ADDR=0x100018d8, RESP=OKAY, Latency=3 cycles
<slb!&*()_+>---<sls!&*()_+>loc: -1<sls!&*()_+>src: sv/axi4_monitor.sv<sls!&*()_+>line: 233<sls!&*()_+>time: 1923500 ps<sls!&*()_+>length: 0<sls!&*()_+>...<sls!&*()_+><sle!&*()_+>
<slp!&*()_+>
UVM_INFO sv/axi4_monitor.sv(233) @ 1931000: uvm_test_top.m_env.m_master_agent.m_monitor [axi4_monitor] Write Complete: ID=15, ADDR=0x100018e4, RESP=OKAY, Latency=4 cycles
<slb!&*()_+>---<sls!&*()_+>loc: -1<sls!&*()_+>src: sv/axi4_monitor.sv<sls!&*()_+>line: 233<sls!&*()_+>time: 1930500 ps<sls!&*()_+>length: 0<sls!&*()_+>...<sls!&*()_+><sle!&*()_+>
<slp!&*()_+>
UVM_INFO sv/axi4_monitor.sv(233) @ 1948000: uvm_test_top.m_env.m_master_agent.m_monitor [axi4_monitor] Write Complete: ID=14, ADDR=0x100018f4, RESP=OKAY, Latency=15 cycles
<slb!&*()_+>---<sls!&*()_+>loc: -1<sls!&*()_+>src: sv/axi4_monitor.sv<sls!&*()_+>line: 233<sls!&*()_+>time: 1947500 ps<sls!&*()_+>length: 0<sls!&*()_+>...<sls!&*()_+><sle!&*()_+>
<slp!&*()_+>
UVM_INFO sv/axi4_monitor.sv(233) @ 1965000: uvm_test_top.m_env.m_master_agent.m_monitor [axi4_monitor] Write Complete: ID=14, ADDR=0x10001930, RESP=OKAY, Latency=16 cycles
<slb!&*()_+>---<sls!&*()_+>loc: -1<sls!&*()_+>src: sv/axi4_monitor.sv<sls!&*()_+>line: 233<sls!&*()_+>time: 1964500 ps<sls!&*()_+>length: 0<sls!&*()_+>...<sls!&*()_+><sle!&*()_+>
<slp!&*()_+>
UVM_INFO sv/axi4_monitor.sv(233) @ 1969000: uvm_test_top.m_env.m_master_agent.m_monitor [axi4_monitor] Write Complete: ID=5, ADDR=0x10001970, RESP=OKAY, Latency=3 cycles
<slb!&*()_+>---<sls!&*()_+>loc: -1<sls!&*()_+>src: sv/axi4_monitor.sv<sls!&*()_+>line: 233<sls!&*()_+>time: 1968500 ps<sls!&*()_+>length: 0<sls!&*()_+>...<sls!&*()_+><sle!&*()_+>
<slp!&*()_+>
UVM_INFO sv/axi4_monitor.sv(233) @ 1988000: uvm_test_top.m_env.m_master_agent.m_monitor [axi4_monitor] Write Complete: ID=3, ADDR=0x1000197c, RESP=OKAY, Latency=16 cycles
<slb!&*()_+>---<sls!&*()_+>loc: -1<sls!&*()_+>src: sv/axi4_monitor.sv<sls!&*()_+>line: 233<sls!&*()_+>time: 1987500 ps<sls!&*()_+>length: 0<sls!&*()_+>...<sls!&*()_+><sle!&*()_+>
<slp!&*()_+>
UVM_INFO sv/axi4_monitor.sv(233) @ 2001000: uvm_test_top.m_env.m_master_agent.m_monitor [axi4_monitor] Write Complete: ID=1, ADDR=0x100019bc, RESP=OKAY, Latency=12 cycles
<slb!&*()_+>---<sls!&*()_+>loc: -1<sls!&*()_+>src: sv/axi4_monitor.sv<sls!&*()_+>line: 233<sls!&*()_+>time: 2000500 ps<sls!&*()_+>length: 0<sls!&*()_+>...<sls!&*()_+><sle!&*()_+>
<slp!&*()_+>
UVM_INFO sv/seq_lib.sv(3411) @ 2008000: uvm_test_top.m_env.m_master_agent.m_sequencer@@seq [axi4_data_first_sequence] Write progress: 200/500 transactions
<slb!&*()_+>---<sls!&*()_+>loc: -1<sls!&*()_+>src: /home/xingchangchang/ProgramFiles/vcs_verdi2018/synopsys/vcs_201809/vcs/O-2018.09-SP2/etc/uvm-1.2/seq/uvm_sequence_item.svh<sls!&*()_+>line: 439<sls!&*()_+>time: 2007500 ps<sls!&*()_+>length: 0<sls!&*()_+>...<sls!&*()_+><sle!&*()_+>
<slp!&*()_+>
UVM_INFO sv/axi4_monitor.sv(233) @ 2014000: uvm_test_top.m_env.m_master_agent.m_monitor [axi4_monitor] Write Complete: ID=5, ADDR=0x100019ec, RESP=OKAY, Latency=12 cycles
<slb!&*()_+>---<sls!&*()_+>loc: -1<sls!&*()_+>src: sv/axi4_monitor.sv<sls!&*()_+>line: 233<sls!&*()_+>time: 2013500 ps<sls!&*()_+>length: 0<sls!&*()_+>...<sls!&*()_+><sle!&*()_+>
<slp!&*()_+>
UVM_INFO sv/axi4_monitor.sv(233) @ 2024000: uvm_test_top.m_env.m_master_agent.m_monitor [axi4_monitor] Write Complete: ID=1, ADDR=0x10001a1c, RESP=OKAY, Latency=9 cycles
<slb!&*()_+>---<sls!&*()_+>loc: -1<sls!&*()_+>src: sv/axi4_monitor.sv<sls!&*()_+>line: 233<sls!&*()_+>time: 2023500 ps<sls!&*()_+>length: 0<sls!&*()_+>...<sls!&*()_+><sle!&*()_+>
<slp!&*()_+>
UVM_INFO sv/axi4_monitor.sv(233) @ 2030000: uvm_test_top.m_env.m_master_agent.m_monitor [axi4_monitor] Write Complete: ID=14, ADDR=0x10001a40, RESP=OKAY, Latency=5 cycles
<slb!&*()_+>---<sls!&*()_+>loc: -1<sls!&*()_+>src: sv/axi4_monitor.sv<sls!&*()_+>line: 233<sls!&*()_+>time: 2029500 ps<sls!&*()_+>length: 0<sls!&*()_+>...<sls!&*()_+><sle!&*()_+>
<slp!&*()_+>
UVM_INFO sv/axi4_monitor.sv(233) @ 2039000: uvm_test_top.m_env.m_master_agent.m_monitor [axi4_monitor] Write Complete: ID=1, ADDR=0x10001a54, RESP=OKAY, Latency=8 cycles
<slb!&*()_+>---<sls!&*()_+>loc: -1<sls!&*()_+>src: sv/axi4_monitor.sv<sls!&*()_+>line: 233<sls!&*()_+>time: 2038500 ps<sls!&*()_+>length: 0<sls!&*()_+>...<sls!&*()_+><sle!&*()_+>
<slp!&*()_+>
UVM_INFO sv/axi4_monitor.sv(233) @ 2047000: uvm_test_top.m_env.m_master_agent.m_monitor [axi4_monitor] Write Complete: ID=10, ADDR=0x10001a74, RESP=OKAY, Latency=7 cycles
<slb!&*()_+>---<sls!&*()_+>loc: -1<sls!&*()_+>src: sv/axi4_monitor.sv<sls!&*()_+>line: 233<sls!&*()_+>time: 2046500 ps<sls!&*()_+>length: 0<sls!&*()_+>...<sls!&*()_+><sle!&*()_+>
<slp!&*()_+>
UVM_INFO sv/axi4_monitor.sv(233) @ 2055000: uvm_test_top.m_env.m_master_agent.m_monitor [axi4_monitor] Write Complete: ID=13, ADDR=0x10001a90, RESP=OKAY, Latency=7 cycles
<slb!&*()_+>---<sls!&*()_+>loc: -1<sls!&*()_+>src: sv/axi4_monitor.sv<sls!&*()_+>line: 233<sls!&*()_+>time: 2054500 ps<sls!&*()_+>length: 0<sls!&*()_+>...<sls!&*()_+><sle!&*()_+>
<slp!&*()_+>
UVM_INFO sv/axi4_monitor.sv(233) @ 2061000: uvm_test_top.m_env.m_master_agent.m_monitor [axi4_monitor] Write Complete: ID=5, ADDR=0x10001aac, RESP=OKAY, Latency=5 cycles
<slb!&*()_+>---<sls!&*()_+>loc: -1<sls!&*()_+>src: sv/axi4_monitor.sv<sls!&*()_+>line: 233<sls!&*()_+>time: 2060500 ps<sls!&*()_+>length: 0<sls!&*()_+>...<sls!&*()_+><sle!&*()_+>
<slp!&*()_+>
UVM_INFO sv/axi4_monitor.sv(233) @ 2069000: uvm_test_top.m_env.m_master_agent.m_monitor [axi4_monitor] Write Complete: ID=10, ADDR=0x10001ac0, RESP=OKAY, Latency=7 cycles
<slb!&*()_+>---<sls!&*()_+>loc: -1<sls!&*()_+>src: sv/axi4_monitor.sv<sls!&*()_+>line: 233<sls!&*()_+>time: 2068500 ps<sls!&*()_+>length: 0<sls!&*()_+>...<sls!&*()_+><sle!&*()_+>
<slp!&*()_+>
UVM_INFO sv/axi4_monitor.sv(233) @ 2080000: uvm_test_top.m_env.m_master_agent.m_monitor [axi4_monitor] Write Complete: ID=9, ADDR=0x10001adc, RESP=OKAY, Latency=10 cycles
<slb!&*()_+>---<sls!&*()_+>loc: -1<sls!&*()_+>src: sv/axi4_monitor.sv<sls!&*()_+>line: 233<sls!&*()_+>time: 2079500 ps<sls!&*()_+>length: 0<sls!&*()_+>...<sls!&*()_+><sle!&*()_+>
<slp!&*()_+>
UVM_INFO sv/axi4_monitor.sv(233) @ 2086000: uvm_test_top.m_env.m_master_agent.m_monitor [axi4_monitor] Write Complete: ID=1, ADDR=0x10001b04, RESP=OKAY, Latency=5 cycles
<slb!&*()_+>---<sls!&*()_+>loc: -1<sls!&*()_+>src: sv/axi4_monitor.sv<sls!&*()_+>line: 233<sls!&*()_+>time: 2085500 ps<sls!&*()_+>length: 0<sls!&*()_+>...<sls!&*()_+><sle!&*()_+>
<slp!&*()_+>
UVM_INFO sv/axi4_monitor.sv(233) @ 2089000: uvm_test_top.m_env.m_master_agent.m_monitor [axi4_monitor] Write Complete: ID=15, ADDR=0x10001b18, RESP=OKAY, Latency=2 cycles
<slb!&*()_+>---<sls!&*()_+>loc: -1<sls!&*()_+>src: sv/axi4_monitor.sv<sls!&*()_+>line: 233<sls!&*()_+>time: 2088500 ps<sls!&*()_+>length: 0<sls!&*()_+>...<sls!&*()_+><sle!&*()_+>
<slp!&*()_+>
UVM_INFO sv/axi4_monitor.sv(233) @ 2109000: uvm_test_top.m_env.m_master_agent.m_monitor [axi4_monitor] Write Complete: ID=0, ADDR=0x10001b20, RESP=OKAY, Latency=16 cycles
<slb!&*()_+>---<sls!&*()_+>loc: -1<sls!&*()_+>src: sv/axi4_monitor.sv<sls!&*()_+>line: 233<sls!&*()_+>time: 2108500 ps<sls!&*()_+>length: 0<sls!&*()_+>...<sls!&*()_+><sle!&*()_+>
<slp!&*()_+>
UVM_INFO sv/axi4_monitor.sv(233) @ 2112000: uvm_test_top.m_env.m_master_agent.m_monitor [axi4_monitor] Write Complete: ID=6, ADDR=0x10001b60, RESP=OKAY, Latency=2 cycles
<slb!&*()_+>---<sls!&*()_+>loc: -1<sls!&*()_+>src: sv/axi4_monitor.sv<sls!&*()_+>line: 233<sls!&*()_+>time: 2111500 ps<sls!&*()_+>length: 0<sls!&*()_+>...<sls!&*()_+><sle!&*()_+>
<slp!&*()_+>
UVM_INFO sv/axi4_monitor.sv(233) @ 2121000: uvm_test_top.m_env.m_master_agent.m_monitor [axi4_monitor] Write Complete: ID=15, ADDR=0x10001b68, RESP=OKAY, Latency=5 cycles
<slb!&*()_+>---<sls!&*()_+>loc: -1<sls!&*()_+>src: sv/axi4_monitor.sv<sls!&*()_+>line: 233<sls!&*()_+>time: 2120500 ps<sls!&*()_+>length: 0<sls!&*()_+>...<sls!&*()_+><sle!&*()_+>
<slp!&*()_+>
UVM_INFO sv/axi4_monitor.sv(233) @ 2132000: uvm_test_top.m_env.m_master_agent.m_monitor [axi4_monitor] Write Complete: ID=12, ADDR=0x10001b7c, RESP=OKAY, Latency=10 cycles
<slb!&*()_+>---<sls!&*()_+>loc: -1<sls!&*()_+>src: sv/axi4_monitor.sv<sls!&*()_+>line: 233<sls!&*()_+>time: 2131500 ps<sls!&*()_+>length: 0<sls!&*()_+>...<sls!&*()_+><sle!&*()_+>
<slp!&*()_+>
UVM_INFO sv/axi4_monitor.sv(233) @ 2136000: uvm_test_top.m_env.m_master_agent.m_monitor [axi4_monitor] Write Complete: ID=1, ADDR=0x10001ba4, RESP=OKAY, Latency=3 cycles
<slb!&*()_+>---<sls!&*()_+>loc: -1<sls!&*()_+>src: sv/axi4_monitor.sv<sls!&*()_+>line: 233<sls!&*()_+>time: 2135500 ps<sls!&*()_+>length: 0<sls!&*()_+>...<sls!&*()_+><sle!&*()_+>
<slp!&*()_+>
UVM_INFO sv/axi4_monitor.sv(233) @ 2144000: uvm_test_top.m_env.m_master_agent.m_monitor [axi4_monitor] Write Complete: ID=13, ADDR=0x10001bb0, RESP=OKAY, Latency=5 cycles
<slb!&*()_+>---<sls!&*()_+>loc: -1<sls!&*()_+>src: sv/axi4_monitor.sv<sls!&*()_+>line: 233<sls!&*()_+>time: 2143500 ps<sls!&*()_+>length: 0<sls!&*()_+>...<sls!&*()_+><sle!&*()_+>
<slp!&*()_+>
